(1487342255.722872) can0 091#7F347EED1AC1F000
(1487342255.723868) can0 092#6FB571497361A3C1
(1487342255.723868) can0 082#9808140087804000
(1487342255.723869) can0 085#7F6B80001F707F70
(1487342255.726522) can0 3CA#FE82F84C00000000
(1487342255.727522) can0 42C#8C40000009B00000
(1487342255.728522) can0 186#158A0219005A0C00
(1487342255.728523) can0 076#3E80C0800FFF0000
(1487342255.728524) can0 077#10C707F77FF7F675
(1487342255.728524) can0 07D#0000F3C0001FC814
(1487342255.729575) can0 187#D41408C800F00300
(1487342255.729576) can0 213#FFFF000400024840
(1487342255.729577) can0 214#000000000000F3C0
(1487342255.729577) can0 083#0020000000000000
(1487342255.730574) can0 167#7282C410001B3D00
(1487342255.730575) can0 202#04D650006099110B
(1487342255.730575) can0 204#C3E87D0770000000
(1487342255.730576) can0 216#E6B13C9000000000
(1487342255.730576) can0 217#0F080EFC0E600E60
(1487342255.731523) can0 2A1#FFFFFFFF00000000
(1487342255.731524) can0 261#0000000000000000
(1487342255.731525) can0 33B#0000000000000000
(1487342255.731525) can0 3A8#0100271000000000
(1487342255.732622) can0 415#1181C06A08000800
(1487342255.732623) can0 41D#8000600000000000
(1487342255.732624) can0 4B0#01008000C00000F3
(1487342255.733651) can0 091#7F2E7EEF1DC2F000
(1487342255.733652) can0 092#6FAB71497362ABC2
(1487342255.734631) can0 085#7F6B80001E807F70
(1487342255.734632) can0 078#0068000000000000
(1487342255.737692) can0 217#0F180F0C0E6C0E70
(1487342255.738695) can0 455#A000000000000000
(1487342255.739692) can0 047#2000000000000000
(1487342255.739693) can0 165#50C3500000000000
(1487342255.740818) can0 167#7282C410001B3D00
(1487342255.740819) can0 200#00007F7D831D0000
(1487342255.740819) can0 202#04C158006099111F
(1487342255.741817) can0 204#C3E87D0773000000
(1487342255.741818) can0 230#200600009D000000
(1487342255.741818) can0 42F#7D04002E6771076E
(1487342255.743293) can0 091#7F1E7EF02BC3F000
(1487342255.744271) can0 092#6FA771457369ABC3
(1487342255.744272) can0 082#9808140087804000
(1487342255.744273) can0 085#7F6B80001D907F70
(1487342255.744273) can0 3CC#3000000000000000
(1487342255.746898) can0 242#02901FA8CC000001
(1487342255.747891) can0 186#158A0219005A0C00
(1487342255.747891) can0 076#3E80C0800FFF0000
(1487342255.748870) can0 077#10E407F97FF7EA76
(1487342255.748871) can0 07D#0000F2D0001F9811
(1487342255.748872) can0 187#D41408C800F00300
(1487342255.748872) can0 213#FFFF000400024D40
(1487342255.749886) can0 214#000000000000F2D0
(1487342255.749887) can0 216#F5C14A9F00000000
(1487342255.749887) can0 217#0F240F1C0E780E78
(1487342255.749887) can0 167#7282C910001B3D00
(1487342255.749888) can0 202#04B060006099112F
(1487342255.750893) can0 204#C3E87D0777000000
(1487342255.750893) can0 3A8#0100271000000000
(1487342255.750894) can0 415#11A3C44708000800
(1487342255.750894) can0 41D#8000600000000000
(1487342255.751869) can0 4B0#01008000D00000F2
(1487342255.753261) can0 078#0168800000000000
(1487342255.754263) can0 091#7F077EEE43C4F000
(1487342255.754263) can0 085#7F6B80001CA07F70
(1487342255.754265) can0 092#6FAC7141736BA7C4
(1487342255.756511) can0 3CA#FE82684100000000
(1487342255.757688) can0 217#0F340F240E840E84
(1487342255.759438) can0 047#2000000000000000
(1487342255.760438) can0 05C#00D000EF201E0000
(1487342255.760439) can0 165#50C3500000000000
(1487342255.760439) can0 167#7282CA10001B3F00
(1487342255.760439) can0 200#00007F7C831C0000
(1487342255.761566) can0 202#049C680060991142
(1487342255.761567) can0 204#C3E87D077F000000
(1487342255.761567) can0 230#200600009D000000
(1487342255.763313) can0 091#7EEE7EEA60C5F000
(1487342255.764313) can0 092#6FB3713F7368A4C5
(1487342255.764314) can0 082#9608140087804000
(1487342255.764314) can0 085#7F6B80001BB07F70
(1487342255.767314) can0 186#15BE0217005A0C00
(1487342255.768439) can0 187#D41408C800F00300
(1487342255.768440) can0 076#3E80C0800FFF0000
(1487342255.768440) can0 077#110107F97FF7EA73
(1487342255.768441) can0 07D#0000F1E0001FC805
(1487342255.769441) can0 213#FFFF000400025040
(1487342255.769441) can0 214#000000000000F1E0
(1487342255.769442) can0 216#05D15AAD00000000
(1487342255.769443) can0 217#0F380F300E900E90
(1487342255.770438) can0 3A8#0100271000000000
(1487342255.770439) can0 415#11C3C82608000800
(1487342255.770439) can0 167#7282CA10001B3F00
(1487342255.770440) can0 41D#8000600000000000
(1487342255.771438) can0 202#048B700060991152
(1487342255.771439) can0 204#C3E87D0785000000
(1487342255.771439) can0 4B0#01008000E00000F1
(1487342255.772438) can0 42F#7D04002E67730773
(1487342255.773441) can0 05D#8357AF5F33000000
(1487342255.773441) can0 091#7EDD7EE872C6F000
(1487342255.774438) can0 078#0168800000000000
(1487342255.774439) can0 085#7F6B80001AC07F70
(1487342255.774440) can0 092#6FB8713F73699DC6
(1487342255.774440) can0 3CC#3000000000000000
(1487342255.775895) can0 42C#8C40000009B00000
(1487342255.777691) can0 217#0F400F3C0E9C0E9C
(1487342255.779437) can0 047#2000000000000000
(1487342255.780564) can0 165#50C3500000000000
(1487342255.780564) can0 167#7282CD10001B3D00
(1487342255.781566) can0 178#000002110E77CE77
(1487342255.781567) can0 200#00007F7B831B0000
(1487342255.781567) can0 202#0478780060991164
(1487342255.782563) can0 204#C3E87D0787000000
(1487342255.782564) can0 230#200600009D000000
(1487342255.782564) can0 261#0000000000000000
(1487342255.783567) can0 05A#00000045F0410000
(1487342255.783567) can0 04A#0200000000000000
(1487342255.784564) can0 04B#00C0D8D8D8D8C000
(1487342255.784564) can0 04C#105FFFC000000000
(1487342255.784565) can0 082#9508140087804000
(1487342255.784565) can0 085#7F6B800019D07F70
(1487342255.784566) can0 091#7EDD7EE970C7F000
(1487342255.785567) can0 092#6FBA714273748CC7
(1487342255.786575) can0 3CA#FE82684100000000
(1487342255.787566) can0 242#02901FB1CC000001
(1487342255.787566) can0 186#15F0021500590C00
(1487342255.787567) can0 187#D41408C800F00300
(1487342255.788566) can0 18A#0020180D14000000
(1487342255.788566) can0 076#3E80C0800FFF0000
(1487342255.788567) can0 077#111D07F77FF7FA73
(1487342255.788567) can0 07D#0000F0F0001FB7F9
(1487342255.789566) can0 213#FFFF000400025340
(1487342255.789567) can0 214#000000000000F0F0
(1487342255.789567) can0 216#15E168BD00000000
(1487342255.789568) can0 217#0F480F480EA80EA8
(1487342255.790689) can0 167#7282C810001B3E00
(1487342255.790690) can0 202#0477000060991174
(1487342255.790693) can0 204#C3E87D078F000000
(1487342255.790694) can0 33B#0000000000000000
(1487342255.790694) can0 3A8#0100271000000000
(1487342255.791688) can0 415#11D2CC1608000800
(1487342255.791689) can0 416#5700F70001000000
(1487342255.791689) can0 41D#8000600000000000
(1487342255.791689) can0 4B0#01008000F00000F0
(1487342255.793192) can0 078#0469000000000000
(1487342255.794190) can0 091#7EE17EEA6AC8F000
(1487342255.794191) can0 092#6FBC713E73837EC8
(1487342255.794191) can0 085#7F6C800016E07F71
(1487342255.796563) can0 3D8#0000000080456030
(1487342255.797562) can0 3CD#0000000000000000
(1487342255.798564) can0 217#0F540F540EB40EB4
(1487342255.798564) can0 3A7#0E401A045F700000
(1487342255.799563) can0 047#2000000000000000
(1487342255.800563) can0 165#50C3500000000000
(1487342255.800564) can0 167#7282C810001B3E00
(1487342255.800564) can0 200#00007F7A831A0000
(1487342255.801565) can0 202#0467080060991183
(1487342255.801565) can0 204#C3E87D0797000000
(1487342255.801566) can0 230#200600009D000000
(1487342255.801566) can0 42F#7D04002E67720785
(1487342255.803314) can0 091#7EE07EEB69C9F000
(1487342255.804313) can0 092#6FBD7136738780C9
(1487342255.804314) can0 082#9608140087804000
(1487342255.804315) can0 085#7F6C800015F07F71
(1487342255.804315) can0 3CC#3000000000000000
(1487342255.807064) can0 186#162A021200590C00
(1487342255.808064) can0 187#D41408C800F00300
(1487342255.808065) can0 076#3E80C0800FFF0000
(1487342255.808065) can0 077#113A07F87FF7FE72
(1487342255.809033) can0 07D#0000FF00002027FB
(1487342255.809035) can0 213#FFFF000400025540
(1487342255.809035) can0 214#000000000000FF00
(1487342255.809036) can0 216#25F078CC00000000
(1487342255.810064) can0 217#0F5C0F5C0EC40EC0
(1487342255.810064) can0 3A8#0100271000000000
(1487342255.810065) can0 167#7282CB10001B3D00
(1487342255.810065) can0 202#0459100060991190
(1487342255.811063) can0 204#C3E87D07A2000000
(1487342255.811063) can0 415#11F1D0F608000800
(1487342255.811064) can0 41D#8000600000000000
(1487342255.811064) can0 4B0#01008000000000FF
(1487342255.813033) can0 3A6#0E401A045F700000
(1487342255.814064) can0 078#0168800000000000
(1487342255.814065) can0 091#7EDB7EE96FCAF000
(1487342255.814065) can0 085#7F6D800023007F71
(1487342255.814065) can0 092#6FBD7132737F8BCA
(1487342255.815190) can0 422#000000933802FE02
(1487342255.815190) can0 423#CA20000000000000
(1487342255.815191) can0 430#37000ED5C88B7700
(1487342255.816152) can0 084#11000030241B0900
(1487342255.817183) can0 3CA#FE82684100000000
(1487342255.818200) can0 217#0F640F680ED00EC8
(1487342255.819699) can0 047#2000000000000000
(1487342255.820698) can0 165#50C3500000000000
(1487342255.820699) can0 167#7282C910001B3C00
(1487342255.820700) can0 200#00007F7983150000
(1487342255.820700) can0 202#04481800609911A0
(1487342255.821701) can0 204#C3E87D07A8000000
(1487342255.821702) can0 230#200600009D000000
(1487342255.823323) can0 091#7ED67EE775CBF000
(1487342255.824324) can0 092#6FBE7139737A87CB
(1487342255.824325) can0 082#9808140487804000
(1487342255.824326) can0 085#7F6D800022107F71
(1487342255.826326) can0 242#02901FB8CC000001
(1487342255.827292) can0 3B3#4048020F10050002
(1487342255.827293) can0 40A#C1023130373639FF
(1487342255.827293) can0 186#162A021200590C00
(1487342255.827294) can0 187#D41408C800F00300
(1487342255.828448) can0 42C#8C40000009B00000
(1487342255.828449) can0 076#3E81C0800FFF0000
(1487342255.828454) can0 077#115607F77FF7FE6F
(1487342255.828455) can0 07D#0000FE10002017F9
(1487342255.829451) can0 213#FFFF000400025840
(1487342255.829452) can0 214#000000000000FE10
(1487342255.829453) can0 216#340088DB00000000
(1487342255.829454) can0 217#0F740F780EDC0ED4
(1487342255.830448) can0 083#0020000000000000
(1487342255.830449) can0 167#7282C910001B3C00
(1487342255.830450) can0 2A1#FFFFFFFF00000000
(1487342255.830451) can0 202#043A2000609911AD
(1487342255.831448) can0 3A8#0100271000000000
(1487342255.831449) can0 204#C3E87D07B1000000
(1487342255.831450) can0 415#1202D4E308000800
(1487342255.831450) can0 41D#8000600000000000
(1487342255.831451) can0 261#0000000000000000
(1487342255.832448) can0 42F#7D04002E6770079A
(1487342255.832448) can0 4B0#01008000100000FE
(1487342255.833452) can0 091#7ED27EE877CCF000
(1487342255.834448) can0 078#0168800000000000
(1487342255.834449) can0 085#7F6D800021207F71
(1487342255.834450) can0 092#6FC17145738071CC
(1487342255.834450) can0 3CC#3000000000000000
(1487342255.837698) can0 217#0F840F840EE80EE0
(1487342255.838698) can0 455#A000000000000000
(1487342255.839823) can0 047#2000000000000000
(1487342255.839824) can0 165#50C3500000000000
(1487342255.840823) can0 167#7282C510001B3900
(1487342255.840824) can0 200#00007F7983120000
(1487342255.840825) can0 202#042B2800609911BB
(1487342255.840825) can0 204#C3E87D07B6000000
(1487342255.841813) can0 230#200600009D000000
(1487342255.843314) can0 091#7ED07EE977CDF000
(1487342255.844313) can0 092#6FC2714B738A5FCD
(1487342255.844314) can0 082#9A08140487804000
(1487342255.844314) can0 085#7F6D800020307F71
(1487342255.846528) can0 3CA#FE82684100000000
(1487342255.847522) can0 186#165F020F00590C00
(1487342255.847522) can0 187#E31408C800000300
(1487342255.848564) can0 076#3E82C0800FFF0000
(1487342255.848565) can0 077#117207F77FF80274
(1487342255.848565) can0 07D#0000FD20002017F6
(1487342255.848566) can0 213#FFFF000400025A40
(1487342255.849567) can0 214#000000000000FD20
(1487342255.849569) can0 216#441096EB00000000
(1487342255.849569) can0 217#0F980F940EF00EEC
(1487342255.849570) can0 33B#0000000000000000
(1487342255.850539) can0 167#7282BF10001B3600
(1487342255.850540) can0 202#041E3000609911C7
(1487342255.850541) can0 204#C3E87D07BB000000
(1487342255.850541) can0 3A8#0100271000000000
(1487342255.851512) can0 415#1229D8BB08000800
(1487342255.851513) can0 41D#8000600000000000
(1487342255.851513) can0 4B0#01008000200000FD
(1487342255.853316) can0 078#0068000000000000
(1487342255.854438) can0 091#7ED27EEC71CEF000
(1487342255.854439) can0 085#7F6D80001F407F71
(1487342255.854440) can0 092#6FC57148738563CE
(1487342255.857549) can0 217#0FA80FA80EF80F00
(1487342255.859439) can0 047#2000000000000000
(1487342255.860438) can0 05C#007000F5201E0000
(1487342255.860439) can0 165#50C3500000000000
(1487342255.860440) can0 167#7282BF10001B3600
(1487342255.861441) can0 200#00007F7983100000
(1487342255.861443) can0 202#040D3800609911D7
(1487342255.861443) can0 204#C3E87D07C1000000
(1487342255.861444) can0 230#200600009D000000
(1487342255.862566) can0 42F#7D04002E676A07B0
(1487342255.863563) can0 091#7EDD7EEF62CFF000
(1487342255.864566) can0 092#6FC9714673697CCF
(1487342255.864567) can0 082#9908140087804000
(1487342255.864568) can0 085#7F6D80001E507F71
(1487342255.864568) can0 3CC#3000000000000000
(1487342255.866324) can0 242#02901FB8CC000001
(1487342255.867325) can0 186#168B020D00590C00
(1487342255.867326) can0 187#E31408C800000300
(1487342255.868448) can0 076#3E82C0800FFF0000
(1487342255.868449) can0 077#118E07F97FF80675
(1487342255.868450) can0 07D#0000FC30002037F6
(1487342255.869448) can0 213#FFFF000400025C40
(1487342255.869449) can0 214#000000000000FC30
(1487342255.869449) can0 216#5521A6FA00000000
(1487342255.869450) can0 217#0FB40FBC0F040F0C
(1487342255.870448) can0 3A8#0100271100000000
(1487342255.870449) can0 167#7282B910001B3500
(1487342255.870450) can0 202#04FF4000609911E4
(1487342255.870451) can0 204#C3E87D07C8000000
(1487342255.871449) can0 415#1255DC8E08000800
(1487342255.871450) can0 41D#8000600000000000
(1487342255.871450) can0 4B0#01008000300000FC
(1487342255.872821) can0 05D#8357975F39000000
(1487342255.873951) can0 091#7EF27EF348D0F000
(1487342255.873952) can0 078#0168800000000000
(1487342255.873952) can0 085#7F6D80001D607F71
(1487342255.874948) can0 092#6FC8714A734A97D0
(1487342255.875948) can0 42C#8C40000009B00000
(1487342255.876948) can0 3CA#FE81384000000000
(1487342255.877898) can0 217#0FC40FCC0F0C0F14
(1487342255.879574) can0 047#2000000000000000
(1487342255.880574) can0 165#50C3500000000000
(1487342255.880575) can0 167#7282B610001B3300
(1487342255.881577) can0 178#0000021A0E77CE77
(1487342255.881578) can0 200#00007F79830C0000
(1487342255.881579) can0 202#04EB4800609911F7
(1487342255.882573) can0 204#C3E87D07D0000000
(1487342255.882574) can0 230#200600009D000000
(1487342255.882575) can0 261#0000000000000000
(1487342255.883538) can0 05A#00000045E6E10000
(1487342255.883540) can0 04A#0200000000000000
(1487342255.883540) can0 04B#00C0D8D8D8D8C000
(1487342255.884574) can0 04C#105FFFC000000000
(1487342255.884575) can0 082#9908140087804000
(1487342255.884575) can0 085#7F6D80001C707F71
(1487342255.884576) can0 091#7F057EF135D1F000
(1487342255.885703) can0 092#6FBD7153733EA4D1
(1487342255.886700) can0 186#16B1020B00580C00
(1487342255.886701) can0 187#E31408C800000300
(1487342255.887698) can0 18A#0020180D14000000
(1487342255.888698) can0 076#3E82C0800FFF0000
(1487342255.888699) can0 077#11AB07FB7FF80676
(1487342255.888700) can0 07D#0000FB40001F27FF
(1487342255.888700) can0 213#FFFF000400025E40
(1487342255.889698) can0 214#000000000000FB40
(1487342255.889699) can0 216#6531B60A00000000
(1487342255.889699) can0 217#0FDC0FD40F180F18
(1487342255.889700) can0 3A8#0100271100000000
(1487342255.890699) can0 167#7282B610001B3300
(1487342255.890699) can0 415#1279E06908000800
(1487342255.890700) can0 202#04DA500060991206
(1487342255.890701) can0 204#C3E87D07D2000000
(1487342255.890701) can0 416#5800F60001000000
(1487342255.891698) can0 41D#8000600000000000
(1487342255.891699) can0 4B0#01008000400000FB
(1487342255.891699) can0 42F#7D04002E676607C4
(1487342255.891700) can0 5B3#B300FFFFFFFFFFFF
(1487342255.893205) can0 078#0569800000000000
(1487342255.894200) can0 091#7F137EEE29D2F000
(1487342255.894201) can0 092#6FAC7156734CA3D2
(1487342255.894201) can0 085#7F6D80001B807F71
(1487342255.894202) can0 3CC#3000000000000000
(1487342255.897698) can0 217#0FF40FDC0F240F20
(1487342255.899447) can0 047#2000000000000000
(1487342255.900573) can0 165#50C3500000000000
(1487342255.900574) can0 167#7282B110001B3300
(1487342255.900575) can0 200#00007F7A830A0000
(1487342255.900575) can0 202#04C6580060991219
(1487342255.901577) can0 204#C3E87D07D9000000
(1487342255.901583) can0 230#200600009D000000
(1487342255.903323) can0 091#7F167EEC27D3F000
(1487342255.904324) can0 092#6FA27152736696D3
(1487342255.904325) can0 082#9708140087804000
(1487342255.904326) can0 085#7F6D80001A907F71
(1487342255.906202) can0 186#16DA020800580C00
(1487342255.907323) can0 187#E31408C800000300
(1487342255.907324) can0 242#02901FACCC000001
(1487342255.907325) can0 3CA#FE81384000000000
(1487342255.908323) can0 076#3E82C0800FFF0000
(1487342255.908324) can0 077#11C707F97FF7EA79
(1487342255.908325) can0 07D#0000FA50001F3809
(1487342255.909339) can0 213#FFFF000400025F40
(1487342255.909340) can0 214#000000000000FA50
(1487342255.909340) can0 216#7542C51A00000000
(1487342255.909341) can0 217#10000FE80F300F30
(1487342255.910322) can0 33B#0000000000000000
(1487342255.910323) can0 167#7282AF10001B3200
(1487342255.910324) can0 202#04B5600060991229
(1487342255.910324) can0 204#C3E87D07DB000000
(1487342255.911323) can0 3A8#0100271100000000
(1487342255.911324) can0 415#129FE44208000800
(1487342255.911324) can0 41D#8000600000000000
(1487342255.911325) can0 4B0#01008000500000FA
(1487342255.912949) can0 091#7F0C7EEE2ED4F000
(1487342255.913950) can0 078#0068000000000000
(1487342255.913951) can0 092#6FAC714D737383D4
(1487342255.913951) can0 085#7F6D800019A07F71
(1487342255.914914) can0 422#000000933802FE02
(1487342255.914915) can0 423#CA20000000000000
(1487342255.914916) can0 430#37000ED5C88B7700
(1487342255.917576) can0 217#10080FF40F400F3C
(1487342255.919574) can0 047#2000000000000000
(1487342255.920574) can0 165#50C3500000000000
(1487342255.920575) can0 167#7282AF10001B3200
(1487342255.920575) can0 200#00007F7A83080000
(1487342255.921576) can0 202#04A168006099123C
(1487342255.921577) can0 204#C3E87D07DD000000
(1487342255.921578) can0 230#200600009D000000
(1487342255.922573) can0 42F#7D04002E676407D1
(1487342255.923573) can0 091#7EF87EF23ED5F000
(1487342255.923574) can0 092#6FBE714D737172D5
(1487342255.924574) can0 082#9908140487804000
(1487342255.924575) can0 085#7F6D800018B07F71
(1487342255.924576) can0 3CC#3000000000000000
(1487342255.926066) can0 186#16DA020800580C00
(1487342255.927031) can0 187#E31408C800000300
(1487342255.927032) can0 42C#8C40000009B00000
(1487342255.928031) can0 076#3E82C0800FFF0000
(1487342255.928032) can0 077#11E307F97FF7EA77
(1487342255.929034) can0 07D#0000F960001FE806
(1487342255.929035) can0 213#FFFF000400026040
(1487342255.929036) can0 214#000000000000F960
(1487342255.929036) can0 216#8652D52A00000000
(1487342255.930163) can0 217#101010040F4C0F4C
(1487342255.930164) can0 083#0020000000000000
(1487342255.930165) can0 167#7282AE10001B3000
(1487342255.930165) can0 202#049070006099124C
(1487342255.931189) can0 204#C3E87D07E4000000
(1487342255.931190) can0 2A1#FFFFFFFF00000000
(1487342255.931191) can0 3A8#0100271100000000
(1487342255.931191) can0 415#12B6E82A08000800
(1487342255.932188) can0 261#0000000000000000
(1487342255.932189) can0 41D#8000600000000000
(1487342255.932190) can0 4B0#01008000600000F9
(1487342255.933160) can0 091#7EE87EF44BD6F000
(1487342255.934163) can0 092#6FC4715273696ED6
(1487342255.934164) can0 078#0168800000000000
(1487342255.934164) can0 085#7F6E800015C07F72
(1487342255.936565) can0 3CA#FE81383F00000000
(1487342255.937567) can0 217#101C10100F5C0F5C
(1487342255.938689) can0 455#A000000000000000
(1487342255.939689) can0 047#2000000000000000
(1487342255.940690) can0 165#50C3500000000000
(1487342255.940691) can0 167#7282A910001B2F00
(1487342255.940691) can0 200#00007F7B83050000
(1487342255.940692) can0 202#047D78006099125E
(1487342255.941694) can0 204#C3E87D07EB000000
(1487342255.941695) can0 230#200600009D000000
(1487342255.942938) can0 091#7EE37EF54ED7F000
(1487342255.943940) can0 092#6FBB7157735E7CD7
(1487342255.943941) can0 082#9808140087804000
(1487342255.943942) can0 085#7F6E800015D07F71
(1487342255.945941) can0 186#16FA020600580C00
(1487342255.946938) can0 187#E21408C800100300
(1487342255.946939) can0 242#02901FA7CD000001
(1487342255.947943) can0 076#3E82C0800FFF0000
(1487342255.948933) can0 077#11FF07FB7FF80278
(1487342255.948935) can0 07D#0000F870001FB7FD
(1487342255.948936) can0 213#FFFF000400026140
(1487342255.948936) can0 214#000000000000F870
(1487342255.949949) can0 216#9663E53900000000
(1487342255.949951) can0 217#102410200F680F68
(1487342255.949951) can0 3A8#0100271100000000
(1487342255.949951) can0 167#7282A910001B2F00
(1487342255.949952) can0 415#12D2EC0D08000800
(1487342255.950949) can0 202#047E00006099126C
(1487342255.950950) can0 204#C3E87D07EE000000
(1487342255.950950) can0 41D#8000600000000000
(1487342255.950951) can0 4B0#01008000700000F8
(1487342255.951951) can0 42F#7D04002E676007DE
(1487342255.953329) can0 078#0168800000000000
(1487342255.954322) can0 091#7EE77EF44AD8F000
(1487342255.954324) can0 085#7F6E800014E07F71
(1487342255.954324) can0 092#6FB27154735293D8
(1487342255.954325) can0 3CC#3000000000000000
(1487342255.957704) can0 217#102810300F740F74
(1487342255.959573) can0 047#2000000000000000
(1487342255.960574) can0 05C#001000FB201E0000
(1487342255.960575) can0 165#50C3500000000000
(1487342255.960575) can0 167#7282A610001B2F00
(1487342255.960576) can0 200#00007F7A83030000
(1487342255.961576) can0 202#046C08006099127D
(1487342255.961577) can0 204#C3E87D07F1000000
(1487342255.961578) can0 230#200600009D000000
(1487342255.963449) can0 091#7EE57EF44BD9F000
(1487342255.964448) can0 092#6FB6714E734B9BD9
(1487342255.964449) can0 082#9808140487804000
(1487342255.964449) can0 085#7F6E800013F07F71
(1487342255.965826) can0 186#1710020400580C00
(1487342255.966823) can0 187#E21408C800100300
(1487342255.966824) can0 3CA#FE81684800000000
(1487342255.967824) can0 076#3E83C0800FFF0000
(1487342255.968826) can0 077#121C07FB7FF7F279
(1487342255.968827) can0 07D#0000F780001F47FC
(1487342255.968827) can0 213#FFFF000400026340
(1487342255.968828) can0 214#000000000000F780
(1487342255.969823) can0 216#A773F54900000000
(1487342255.969824) can0 217#1028103C0F800F80
(1487342255.969825) can0 33B#0000000000000000
(1487342255.969826) can0 3A8#0100271100000000
(1487342255.970823) can0 167#7282A710001B2E00
(1487342255.970824) can0 202#045D10006099128B
(1487342255.970825) can0 204#C3E87D07F9000000
(1487342255.970826) can0 415#12EBF0F308010801
(1487342255.971825) can0 41D#8000600000000000
(1487342255.971826) can0 4B0#01008000800000F7
(1487342255.972949) can0 05D#8357BF5E30000000
(1487342255.973948) can0 078#0068000000000000
(1487342255.973949) can0 091#7ED97EF456DAF000
(1487342255.973950) can0 085#7F6F800021007F71
(1487342255.974948) can0 092#6FC0714B734C92DA
(1487342255.976448) can0 42C#8C40000009B00000
(1487342255.977578) can0 217#103410400F8C0F8C
(1487342255.979452) can0 047#2000000000000000
(1487342255.980573) can0 165#50C3500000000000
(1487342255.980579) can0 167#7282A710001B2E00
(1487342255.981577) can0 178#000002140E77CE77
(1487342255.981578) can0 200#00007F7A83020000
(1487342255.982574) can0 202#044C18006099129B
(1487342255.982575) can0 204#C3E87D07FD000000
(1487342255.982575) can0 230#200600009D000000
(1487342255.982576) can0 261#0000000000000000
(1487342255.983572) can0 05A#00000045EC810000
(1487342255.983574) can0 04A#0200000000000000
(1487342255.983574) can0 04B#00C0D8D8D8D8C000
(1487342255.983575) can0 04C#105FFFC000000000
(1487342255.984573) can0 082#9A08140487804000
(1487342255.984574) can0 085#7F7080001F107F71
(1487342255.984575) can0 091#7ECC7EF561DBF000
(1487342255.984575) can0 092#6FC6715273567ADB
(1487342255.985577) can0 168#0000000000000000
(1487342255.985577) can0 3CC#3000000000000000
(1487342255.985578) can0 42F#7D04002E675F07ED
(1487342255.986573) can0 186#1724020200580C00
(1487342255.986573) can0 187#E21408C800100300
(1487342255.986574) can0 18A#0020180D14000000
(1487342255.987573) can0 242#02901FAFCC000001
(1487342255.988573) can0 076#3E83C0800FFF0000
(1487342255.988574) can0 077#123807FB7FF7FE76
(1487342255.988574) can0 07D#0000F690001F37F8
(1487342255.988575) can0 213#FFFF000400026440
(1487342255.989582) can0 214#000000000000F690
(1487342255.989583) can0 216#B884045900000000
(1487342255.989584) can0 217#104010500F9C0F94
(1487342255.989584) can0 3A8#0100271300000000
(1487342255.990698) can0 167#7282A410001B2E00
(1487342255.990699) can0 202#043E2000609912A8
(1487342255.990699) can0 204#C3E87D0802000000
(1487342255.990700) can0 415#12F9F4E408010801
(1487342255.991698) can0 416#5900F50001000000
(1487342255.991699) can0 41D#8000600000000000
(1487342255.991699) can0 4B0#01008000900000F6
(1487342255.993076) can0 078#0569800000000000
(1487342255.994073) can0 091#7EC97EF662DCF000
(1487342255.994074) can0 092#6FC6715C736065DC
(1487342255.994075) can0 085#7F7180001D207F71
(1487342255.996573) can0 3CA#FE81684800000000
(1487342255.997576) can0 217#1050105C0FA80F9C
(1487342255.998574) can0 3A7#0E401A045F700000
(1487342255.999574) can0 047#2000000000000000
(1487342256.000573) can0 165#50C3500000000000
(1487342256.000574) can0 167#7282A410001B2E00
(1487342256.000575) can0 200#00007F7A82FE0000
(1487342256.000575) can0 202#04302800609912B5
(1487342256.001702) can0 204#C3E87D0807000000
(1487342256.001704) can0 230#200600009D000000
(1487342256.003324) can0 091#7ECB7EF75EDDF000
(1487342256.004323) can0 092#6FC6715E736260DD
(1487342256.004324) can0 082#9D08140487804000
(1487342256.004325) can0 085#7F7180001C307F71
(1487342256.005438) can0 186#173A01FF00580C00
(1487342256.006439) can0 187#E21408C800100300
(1487342256.007815) can0 076#3E85C0800FFF0000
(1487342256.008813) can0 077#125507FB7FF8067B
(1487342256.008815) can0 07D#0000F5A0001F87F3
(1487342256.008815) can0 213#FFFF000400026540
(1487342256.008816) can0 214#000000000000F5A0
(1487342256.009818) can0 216#C995156900000000
(1487342256.009819) can0 217#105C106C0FB00FA8
(1487342256.009820) can0 3A8#0100271300000000
(1487342256.009821) can0 415#131EF8BD08010801
(1487342256.010813) can0 41D#8000600000000000
(1487342256.010814) can0 167#7282A410001B2E00
(1487342256.010815) can0 4B0#01008000A00000F5
(1487342256.010816) can0 202#04243000609912C0
(1487342256.011814) can0 204#C3E87D0809000000
(1487342256.011815) can0 42F#7D04002E675F0800
(1487342256.013035) can0 3A6#0E401A045F700000
(1487342256.014066) can0 078#0168800000000000
(1487342256.014067) can0 091#7ECC7EFA59DEF000
(1487342256.014067) can0 085#7F7180001B407F71
(1487342256.014068) can0 092#6FC7715673596FDE
(1487342256.015065) can0 3CC#3000000000000000
(1487342256.015066) can0 422#000000933802FE02
(1487342256.015067) can0 423#CA20000000000000
(1487342256.015067) can0 430#37000ED5C88B7700
(1487342256.017698) can0 217#106410780FB80FB4
(1487342256.019574) can0 047#2000000000000000
(1487342256.020574) can0 165#50C3500000000000
(1487342256.020575) can0 167#7282A410001B2D00
(1487342256.020575) can0 200#00007F7982FD0000
(1487342256.020576) can0 202#04143800609912CF
(1487342256.021577) can0 204#C3E87D080B000000
(1487342256.021578) can0 230#200600009D000000
(1487342256.022949) can0 091#7EC97EFA5BDFF000
(1487342256.023948) can0 092#6FC4715073527EDF
(1487342256.023949) can0 082#9E08140487804000
(1487342256.023949) can0 085#7F7180001A507F71
(1487342256.025328) can0 186#173A01FF00580C00
(1487342256.026325) can0 187#E21408C800100300
(1487342256.027324) can0 3CA#FE81684800000000
(1487342256.027325) can0 242#02901FA8CC000001
(1487342256.027326) can0 40A#C104014107F670C1
(1487342256.027327) can0 42C#8C40000009B00000
(1487342256.028323) can0 076#3E86C0800FFF0000
(1487342256.028324) can0 077#127207FC7FF80679
(1487342256.028324) can0 07D#0000F4B0001F67F4
(1487342256.029328) can0 213#FFFF000400026640
(1487342256.029329) can0 214#000000000000F4B0
(1487342256.029330) can0 216#D9A6257A00000000
(1487342256.029330) can0 217#1074107C0FC00FC0
(1487342256.030290) can0 083#0020000000000000
(1487342256.030291) can0 167#7282A210001B2C00
(1487342256.030291) can0 202#04064000609912DC
(1487342256.030292) can0 204#C3E87D080F000000
(1487342256.031326) can0 2A1#FFFFFFFF00000000
(1487342256.031327) can0 33B#0000000000000000
(1487342256.031328) can0 3A8#0100271400000000
(1487342256.031328) can0 261#0000000000000000
(1487342256.032324) can0 415#133AFCA008010801
(1487342256.032325) can0 41D#8000600000000000
(1487342256.032326) can0 4B0#01008000B00000F4
(1487342256.033325) can0 091#7EC97EF85CE0F000
(1487342256.034325) can0 078#0068000000000000
(1487342256.034326) can0 085#7F72800018607F71
(1487342256.034327) can0 092#6FBC715473587BE0
(1487342256.037577) can0 217#108410880FC80FC8
(1487342256.038574) can0 455#A000000000000000
(1487342256.039572) can0 047#2000000000000000
(1487342256.040698) can0 165#50C3500000000000
(1487342256.040699) can0 167#7282A210001B2C00
(1487342256.040700) can0 200#00007F7982FC0000
(1487342256.041700) can0 202#04F54800609912EC
(1487342256.041701) can0 204#C3E87D0818000000
(1487342256.041702) can0 230#200600009D000000
(1487342256.041703) can0 42F#7D04002E675D0809
(1487342256.043324) can0 091#7ED37EF455E1F000
(1487342256.044327) can0 092#6FB77159736969E1
(1487342256.044328) can0 082#9C08140087804000
(1487342256.044329) can0 085#7F72800017707F71
(1487342256.044329) can0 3CC#3000000000000000
(1487342256.045450) can0 186#174C01FD00580C00
(1487342256.046448) can0 187#E11408C800200300
(1487342256.047824) can0 076#3E86C0800FFF0000
(1487342256.048824) can0 077#128D07FC7FF7FE79
(1487342256.048825) can0 07D#0000F3C0001F67F3
(1487342256.048826) can0 213#FFFF000400026640
(1487342256.048826) can0 214#000000000000F3C0
(1487342256.049814) can0 216#EAB6358900000000
(1487342256.049815) can0 217#109410900FD40FD8
(1487342256.049816) can0 3A8#0100271600000000
(1487342256.049821) can0 415#1355C09408020802
(1487342256.050813) can0 167#7282A010001B2C00
(1487342256.050815) can0 202#04E75000609912F9
(1487342256.050815) can0 204#C3E87D081A000000
(1487342256.050816) can0 41D#8000600000000000
(1487342256.051814) can0 4B0#01008000C00000F3
(1487342256.053314) can0 078#0368800000000000
(1487342256.054313) can0 091#7EDF7EF24AE2F000
(1487342256.054314) can0 085#7F72800017807F70
(1487342256.054315) can0 092#6FB87156736F64E2
(1487342256.056564) can0 3CA#FE7E284800000000
(1487342256.057565) can0 217#1098109C0FE40FE4
(1487342256.059439) can0 047#2000000000000000
(1487342256.060440) can0 05C#00B000F1201E0000
(1487342256.060441) can0 165#50C3500000000000
(1487342256.060442) can0 167#7282A110001B2D00
(1487342256.060442) can0 200#00007F7982F90000
(1487342256.061567) can0 202#04D7580060991307
(1487342256.061568) can0 204#C3E87D0820000000
(1487342256.061568) can0 230#200600009D000000
(1487342256.063438) can0 091#7EE37EF344E3F000
(1487342256.064440) can0 092#6FBE714D736372E3
(1487342256.064441) can0 082#9D08140487804000
(1487342256.064441) can0 085#7F72800016907F70
(1487342256.065442) can0 186#175B01FB00580C00
(1487342256.065443) can0 187#E11408C800200300
(1487342256.066440) can0 242#02901FABCC000001
(1487342256.067814) can0 076#3E87C0800FFF0000
(1487342256.068813) can0 077#12A807FA7FF7FA79
(1487342256.068814) can0 07D#0000F2D0001FD7FA
(1487342256.068815) can0 213#FFFF000400026640
(1487342256.068816) can0 214#000000000000F2D0
(1487342256.069819) can0 216#FBC7469900000000
(1487342256.069820) can0 217#10A010A40FF00FF0
(1487342256.069821) can0 3A8#0100271600000000
(1487342256.069821) can0 167#7282A110001B2D00
(1487342256.070762) can0 415#136DC47B08020802
(1487342256.070764) can0 202#04C9600060991314
(1487342256.070765) can0 204#C3E87D0823000000
(1487342256.070766) can0 41D#8000600000000000
(1487342256.071814) can0 4B0#01008000D00000F2
(1487342256.072938) can0 42F#7D04002E675E0818
(1487342256.072939) can0 05D#8357A75E36000000
(1487342256.073938) can0 091#7EDF7EF446E4F000
(1487342256.073940) can0 078#0168800000000000
(1487342256.073940) can0 085#7F72800015A07F70
(1487342256.074939) can0 092#6FC3714973547FE4
(1487342256.074940) can0 169#0080C00000000000
(1487342256.074940) can0 3CC#3000000000000000
(1487342256.075939) can0 42C#8C40000009B00000
(1487342256.077567) can0 217#10AC10B010001000
(1487342256.079438) can0 047#2000000000000000
(1487342256.080563) can0 165#50C3500000000000
(1487342256.080565) can0 167#7282A210001B2B00
(1487342256.081563) can0 178#000002110E77CE77
(1487342256.081564) can0 200#00007F7882F70000
(1487342256.081565) can0 202#04B9680060991323
(1487342256.082563) can0 204#C3E87D0827000000
(1487342256.082564) can0 230#200600009D000000
(1487342256.082565) can0 261#0000000000000000
(1487342256.083563) can0 05A#00000045F2210000
(1487342256.083564) can0 04A#0200000000000000
(1487342256.083565) can0 04B#00C0D8D8D8D8C000
(1487342256.084564) can0 04C#105FFFC000000000
(1487342256.084565) can0 082#9B08140087804000
(1487342256.084566) can0 085#7F73800012B07F71
(1487342256.084566) can0 091#7ED97EF44BE5F000
(1487342256.084567) can0 092#6FC1714F73517DE5
(1487342256.085567) can0 186#176B01F900580C00
(1487342256.085568) can0 187#E11408C800200300
(1487342256.085569) can0 18A#0020180D14000000
(1487342256.086565) can0 3E5#0000000080000000
(1487342256.086567) can0 3CA#FE7E284800000000
(1487342256.087814) can0 076#3E87C0800FFF0000
(1487342256.088813) can0 077#12C307FB7FF80276
(1487342256.088814) can0 07D#0000F1E0001F57FA
(1487342256.088815) can0 213#FFFF000400026740
(1487342256.088816) can0 214#000000000000F1E0
(1487342256.089817) can0 216#0DD856AA00000000
(1487342256.089818) can0 217#10BC10B8100C100C
(1487342256.089819) can0 33B#0000000000000000
(1487342256.089820) can0 167#72829D10001B2B00
(1487342256.090813) can0 202#04AC70006099132F
(1487342256.090815) can0 204#C3E87D0832000000
(1487342256.090815) can0 3A8#0100271600000000
(1487342256.090816) can0 415#1381C86608020802
(1487342256.091814) can0 416#5A00F40001000000
(1487342256.091815) can0 41D#8000600000000000
(1487342256.091816) can0 4B0#01008000E00000F1
(1487342256.092938) can0 078#0469000000000000
(1487342256.093939) can0 091#7ED57EF34FE6F000
(1487342256.093941) can0 092#6FB97159735774E6
(1487342256.093941) can0 085#7F73800011C07F71
(1487342256.097568) can0 217#10C410C410181018
(1487342256.099689) can0 047#2000000000000000
(1487342256.100689) can0 165#50C3500000000000
(1487342256.100690) can0 167#72829D10001B2B00
(1487342256.100691) can0 200#00007F7882F60000
(1487342256.101688) can0 202#049E78006099133C
(1487342256.101689) can0 204#C3E87D0830000000
(1487342256.101690) can0 230#200600009D000000
(1487342256.101690) can0 42F#7D04002E675C0827
(1487342256.103313) can0 091#7ED97EF24BE7F000
(1487342256.104316) can0 092#6FB5715C735675E7
(1487342256.104317) can0 082#9908140487804000
(1487342256.104318) can0 085#7F73800010D07F71
(1487342256.104318) can0 3CC#3000000000000000
(1487342256.105317) can0 186#177B01F600580C00
(1487342256.105319) can0 187#E11408C800200300
(1487342256.106439) can0 242#02901FAACC000001
(1487342256.107814) can0 076#3E88C0800FFF0000
(1487342256.108813) can0 077#12DF07FB7FF7FA7A
(1487342256.108814) can0 07D#0000F0F0001F67F7
(1487342256.108815) can0 213#FFFF000400026740
(1487342256.108816) can0 214#000000000000F0F0
(1487342256.109817) can0 216#1EEB67BC00000000
(1487342256.109818) can0 217#10CC10CC10281028
(1487342256.109819) can0 3A8#0100271600000000
(1487342256.109819) can0 167#72829E10001B2B00
(1487342256.110814) can0 202#04A2000060991347
(1487342256.110815) can0 204#C3E87D0836000000
(1487342256.110815) can0 415#139FCC4708030803
(1487342256.110816) can0 41D#8000600000000000
(1487342256.111815) can0 4B0#01008000F00000F0
(1487342256.112814) can0 59E#9E00FFFFFFFFFFFF
(1487342256.113817) can0 091#7EDD7EF048E8F000
(1487342256.113818) can0 078#0168800000000000
(1487342256.113818) can0 092#6FB87156734E7FE8
(1487342256.113819) can0 085#7F7380000FE07F71
(1487342256.114939) can0 422#000000933802FE02
(1487342256.114940) can0 423#CA20000000000000
(1487342256.114941) can0 430#3F000ED5E88BF700
(1487342256.114942) can0 43A#0000020000000000
(1487342256.116564) can0 3CA#FE7E284800000000
(1487342256.117689) can0 217#10D410DC10341030
(1487342256.119564) can0 047#2000000000000000
(1487342256.120563) can0 165#50C3500000000000
(1487342256.120565) can0 167#72829D10001B2700
(1487342256.120565) can0 200#00007F7782F20000
(1487342256.120566) can0 202#0492080060991356
(1487342256.121548) can0 204#C3E87D083A000000
(1487342256.121549) can0 230#200600009D000000
(1487342256.123314) can0 091#7ED97EEF4CE9F000
(1487342256.124314) can0 092#6FBF714E734D80E9
(1487342256.124316) can0 082#9C08140087804000
(1487342256.124317) can0 085#7F7380000EF07F71
(1487342256.125317) can0 186#177B01F600580C00
(1487342256.125318) can0 187#E11408C800200300
(1487342256.126439) can0 42C#8C40000009B00000
(1487342256.127815) can0 076#3E88C0800FFF0000
(1487342256.128815) can0 077#12FC07FA7FF7FA79
(1487342256.128816) can0 07D#0000FF00001F37F9
(1487342256.128816) can0 213#FFFF000400026840
(1487342256.128817) can0 214#000000000000FF00
(1487342256.129817) can0 216#30FC78CB00000000
(1487342256.129818) can0 217#10E810E81044103C
(1487342256.129819) can0 3A8#0100271700000000
(1487342256.129820) can0 083#0020000000000000
(1487342256.130814) can0 167#72829D10001B2700
(1487342256.130815) can0 202#0485100060991362
(1487342256.130816) can0 204#C3E87D083E000000
(1487342256.130816) can0 2A1#FFFFFFFF00000000
(1487342256.131764) can0 415#13B3D03208030803
(1487342256.131765) can0 41D#8000600000000000
(1487342256.131766) can0 261#0000000000000000
(1487342256.131767) can0 42F#7D04002E67590836
(1487342256.132814) can0 4B0#01008000000000FF
(1487342256.133817) can0 091#7ED27EEF52EAF000
(1487342256.133818) can0 078#0168800000000000
(1487342256.133819) can0 085#7F7380001D007F71
(1487342256.134813) can0 092#6FC1714E735575EA
(1487342256.134814) can0 3CC#3000000000000000
(1487342256.137568) can0 217#10F010F410501048
(1487342256.138688) can0 455#A000000000000000
(1487342256.139689) can0 047#2000000000000000
(1487342256.140689) can0 165#50C3500000000000
(1487342256.140690) can0 167#72829510001B2800
(1487342256.140690) can0 200#00007F7682F10000
(1487342256.140691) can0 202#047718006099136F
(1487342256.141693) can0 204#C3E87D0846000000
(1487342256.141694) can0 230#200600009D000000
(1487342256.143313) can0 091#7ED07EEF53EBF000
(1487342256.144315) can0 092#6FBD715373596FEB
(1487342256.144316) can0 082#9A08140087804000
(1487342256.144317) can0 085#7F7380001C107F71
(1487342256.145317) can0 186#178901F400580C00
(1487342256.145319) can0 187#E01408C800300300
(1487342256.146439) can0 242#02901FAFCC000001
(1487342256.147438) can0 3CA#FE7E284800000000
(1487342256.148438) can0 076#3E88C0800FFF0000
(1487342256.148439) can0 077#131807F97FF80277
(1487342256.148440) can0 07D#0000FE10001F57F6
(1487342256.149442) can0 213#FFFF000400026940
(1487342256.149444) can0 214#000000000000FE10
(1487342256.149444) can0 216#420D88DC00000000
(1487342256.149445) can0 217#10F8110410581050
(1487342256.150439) can0 3A8#0100271700000000
(1487342256.150440) can0 33B#0000000000000000
(1487342256.150441) can0 167#72829710001B2800
(1487342256.150441) can0 202#046B20006099137A
(1487342256.150442) can0 204#C3E87D0849000000
(1487342256.151440) can0 415#13D5D40F08040804
(1487342256.151441) can0 41D#8000600000000000
(1487342256.151442) can0 4B0#01008000100000FE
(1487342256.153194) can0 078#0068000000000000
(1487342256.154189) can0 091#7ED77EF149ECF000
(1487342256.154190) can0 092#6FBE7156735172EC
(1487342256.154191) can0 085#7F7380001B207F71
(1487342256.157569) can0 217#1100111010641060
(1487342256.159813) can0 047#2000000000000000
(1487342256.160813) can0 05C#005000F7201E0000
(1487342256.160814) can0 165#50C3500000000000
(1487342256.160815) can0 167#72829710001B2800
(1487342256.161817) can0 200#00007F7682EE0000
(1487342256.161818) can0 202#045B280060991389
(1487342256.161819) can0 204#C3E87D084E000000
(1487342256.161820) can0 230#200600009D000000
(1487342256.162938) can0 42F#7D04002E67580841
(1487342256.163938) can0 091#7EDE7EF240EDF000
(1487342256.163945) can0 092#6FC1715373477BED
(1487342256.163945) can0 082#9808140087804000
(1487342256.164938) can0 085#7F7380001A307F71
(1487342256.164939) can0 3CC#3000000000000000
(1487342256.164940) can0 186#179201F200580C00
(1487342256.164941) can0 187#E01408C800300300
(1487342256.167815) can0 076#3E88C0800FFF0000
(1487342256.168813) can0 077#133507FA7FF7FE79
(1487342256.168814) can0 07D#0000FD20001F47F7
(1487342256.168815) can0 213#FFFF000400026940
(1487342256.168815) can0 214#000000000000FD20
(1487342256.169823) can0 216#531E99EE00000000
(1487342256.169824) can0 217#110C1118106C1064
(1487342256.169825) can0 3A8#0100271700000000
(1487342256.169825) can0 415#13EED8F508040804
(1487342256.170814) can0 167#72829610001B2700
(1487342256.170815) can0 202#044E300060991395
(1487342256.170815) can0 204#C3E87D0855000000
(1487342256.170816) can0 41D#8000600000000000
(1487342256.171815) can0 4B0#01008000200000FD
(1487342256.172939) can0 05D#83578F5F3B000000
(1487342256.173938) can0 078#0168800000000000
(1487342256.173939) can0 091#7EDD7EF33FEEF000
(1487342256.173940) can0 092#6FBC714D734785EE
(1487342256.173941) can0 085#7F73800019407F71
(1487342256.175814) can0 188#4000000000000000
(1487342256.176815) can0 42C#8C40000009B00000
(1487342256.176816) can0 3CA#FE7F285300000000
(1487342256.177942) can0 217#1120112010741070
(1487342256.177943) can0 596#9600FFFFFFFFFFFF
(1487342256.179438) can0 047#2000000000000000
(1487342256.180439) can0 165#50C3500000000000
(1487342256.180440) can0 167#72829510001B2700
(1487342256.181441) can0 178#000002140E77CE77
(1487342256.181442) can0 200#00007F7582EA0000
(1487342256.181443) can0 202#043E3800609913A4
(1487342256.182515) can0 204#C3E87D085A000000
(1487342256.182517) can0 230#200600009D000000
(1487342256.182518) can0 261#0000000000000000
(1487342256.183563) can0 05A#00000045E8C10000
(1487342256.183564) can0 04A#0200000000000000
(1487342256.184565) can0 04B#00C0D8D8D8D8C000
(1487342256.184566) can0 04C#105FFFC000000000
(1487342256.184566) can0 082#9308140087804000
(1487342256.184567) can0 085#7F73800018507F71
(1487342256.184567) can0 091#7EDE7EF33DEFF000
(1487342256.185567) can0 092#6FB2714A735583EF
(1487342256.185568) can0 186#179801EF00590C00
(1487342256.185569) can0 187#E01408C800300300
(1487342256.185569) can0 18A#0020180D14000000
(1487342256.186564) can0 242#02901FACCC000001
(1487342256.187813) can0 076#3E88C0800FFF0000
(1487342256.188814) can0 077#135007FB7FF7FE77
(1487342256.188815) can0 07D#0000FC30001F17F9
(1487342256.188816) can0 213#FFFF000400026940
(1487342256.188816) can0 214#000000000000FC30
(1487342256.189814) can0 216#6430AAFF00000000
(1487342256.189815) can0 217#112C112C107C107C
(1487342256.189816) can0 3A8#0100271700000000
(1487342256.189816) can0 167#72829510001B2700
(1487342256.190815) can0 415#1407DCDA08040804
(1487342256.190816) can0 202#04314000609913B0
(1487342256.190817) can0 204#C3E87D085A000000
(1487342256.190817) can0 416#5B00F30001000000
(1487342256.191815) can0 41D#8000600000000000
(1487342256.191816) can0 41E#0000000000000000
(1487342256.191817) can0 42F#7D04002E6757084E
(1487342256.191817) can0 4B0#01008000300000FC
(1487342256.193192) can0 078#0569800000000000
(1487342256.194188) can0 091#7EE47EEF3AF0F000
(1487342256.194189) can0 092#6FAD7149736875F0
(1487342256.194190) can0 085#7F73800017607F71
(1487342256.194191) can0 3CC#3000000000000000
(1487342256.197318) can0 456#8000000000000000
(1487342256.198317) can0 217#113C113810881088
(1487342256.198318) can0 3A7#0E401A045F700000
(1487342256.199565) can0 047#2000000000000000
(1487342256.200566) can0 165#50C3500000000000
(1487342256.200567) can0 167#72829510001B2700
(1487342256.200568) can0 200#00007F7482E60000
(1487342256.200568) can0 202#04224800609913BE
(1487342256.201567) can0 204#C3E87D0860000000
(1487342256.201568) can0 230#200600009D000000
(1487342256.203313) can0 091#7EE47EEC3CF1F000
(1487342256.204314) can0 092#6FB27148736F69F1
(1487342256.204315) can0 082#9408140087804000
(1487342256.204315) can0 085#7F73800016707F71
(1487342256.204316) can0 186#179F01ED00590C00
(1487342256.205320) can0 187#E01408C800300300
(1487342256.206314) can0 350#0000000000000000
(1487342256.207313) can0 3E0#0000000080000000
(1487342256.207315) can0 3CA#FE7F285300000000
(1487342256.208313) can0 076#3E88C0800FFF0000
(1487342256.208314) can0 077#136A07F97FF7EE76
(1487342256.208315) can0 07D#0000FB40001FB7FB
(1487342256.209318) can0 213#FFFF000400026840
(1487342256.209319) can0 214#000000000000FB40
(1487342256.209320) can0 216#7742BC1000000000
(1487342256.209321) can0 217#1144114010941094
(1487342256.210314) can0 3A8#0100271700000000
(1487342256.210315) can0 167#72829410001B2800
(1487342256.210316) can0 202#04155000609913CA
(1487342256.210316) can0 204#C3E87D0868000000
(1487342256.211439) can0 33B#0000000000000000
(1487342256.211440) can0 415#1429E0B708050805
(1487342256.211441) can0 41D#8000600000000000
(1487342256.211442) can0 4B0#01008000400000FB
(1487342256.212943) can0 078#0068000000000000
(1487342256.213941) can0 422#000000933802FE02
(1487342256.213942) can0 091#7ED97EE949F2F000
(1487342256.213942) can0 092#6FB9714573696AF2
(1487342256.213943) can0 085#7F73800015807F71
(1487342256.214939) can0 423#CA20000000000000
(1487342256.214940) can0 430#37000ED5C88B7700
(1487342256.214940) can0 3A6#0E401A045F700000
(1487342256.214941) can0 431#057B00A609800002
(1487342256.217692) can0 217#1150114C10A010A0
(1487342256.219690) can0 047#2000000000000000
(1487342256.220689) can0 165#50C3500000000000
(1487342256.220689) can0 167#72829410001B2800
(1487342256.220690) can0 200#00007F7482E50000
(1487342256.221692) can0 202#04045800609913DA
(1487342256.221693) can0 204#C3E87D0869000000
(1487342256.221694) can0 230#200600009D000000
(1487342256.221695) can0 42F#7D04002E67580860
(1487342256.223276) can0 091#7ECB7EE956F3F000
(1487342256.224314) can0 092#6FBB7142736370F3
(1487342256.224315) can0 082#9308140087804000
(1487342256.224316) can0 085#7F73800014907F71
(1487342256.224317) can0 186#179F01ED00590C00
(1487342256.225314) can0 187#E01408C800300300
(1487342256.225315) can0 3CC#3000000000000000
(1487342256.226564) can0 242#02901FB0CC000001
(1487342256.227813) can0 076#3E88C0800FFF0000
(1487342256.228818) can0 077#138407F87FF7FA74
(1487342256.228820) can0 07D#0000FA50001FB7F8
(1487342256.228820) can0 213#FFFF000400026840
(1487342256.228821) can0 214#000000000000FA50
(1487342256.229773) can0 216#8853CD2000000000
(1487342256.229774) can0 217#115C115C10AC10AC
(1487342256.229774) can0 3A8#0100271700000000
(1487342256.229775) can0 083#0020000000000000
(1487342256.230770) can0 167#72829610001B2500
(1487342256.230771) can0 202#04F66000609913E7
(1487342256.230772) can0 2A1#FFFFFFFF00000000
(1487342256.230772) can0 204#C3E87D0875000000
(1487342256.231770) can0 3EB#7E0414021B200000
(1487342256.231771) can0 261#0000000000000000
(1487342256.231772) can0 40A#C110409060250000
(1487342256.231772) can0 415#143EE4A108050805
(1487342256.232895) can0 41D#8000600000000000
(1487342256.232896) can0 42C#8C40000009B00000
(1487342256.232896) can0 4B0#01008000500000FA
(1487342256.233939) can0 091#7EC17EEA5EF4F000
(1487342256.233940) can0 092#6FB97140736373F4
(1487342256.233941) can0 078#0168800000000000
(1487342256.234938) can0 085#7F73800013A07F71
(1487342256.236564) can0 3CA#FE7F285300000000
(1487342256.237647) can0 217#1164116810B810C0
(1487342256.238644) can0 455#A000000000000000
(1487342256.239644) can0 047#2000000000000000
(1487342256.240824) can0 165#50C3500000000000
(1487342256.240825) can0 167#72829010001B2400
(1487342256.240826) can0 200#00007F7282DE0000
(1487342256.240826) can0 202#04E76800609913F5
(1487342256.241826) can0 204#C3E87D0875000000
(1487342256.241827) can0 230#200600009D000000
(1487342256.243324) can0 091#7EBF7EEA5FF5F000
(1487342256.244323) can0 092#6FB6714473686CF5
(1487342256.244324) can0 082#9508140087804000
(1487342256.244325) can0 085#7F73800012B07F71
(1487342256.244325) can0 186#17A701EA00590C00
(1487342256.245452) can0 187#DF1408C800400300
(1487342256.247823) can0 076#3E88C0800FFF0000
(1487342256.248823) can0 077#139F07F87FF7FA73
(1487342256.248824) can0 07D#0000F960001F97F1
(1487342256.248825) can0 213#FFFF000400026840
(1487342256.248825) can0 214#000000000000F960
(1487342256.249823) can0 216#9A66DE3200000000
(1487342256.249823) can0 217#116C116C10C410C8
(1487342256.249824) can0 3A8#0100271700000000
(1487342256.249824) can0 167#72829010001B2400
(1487342256.250824) can0 415#145AE88408050805
(1487342256.250826) can0 202#04D9700060991401
(1487342256.250826) can0 204#C3E87D0878000000
(1487342256.250827) can0 41D#8000600000000000
(1487342256.251824) can0 4B0#01008000600000F9
(1487342256.251825) can0 42F#7D04002E6754086E
(1487342256.253200) can0 078#0168800000000000
(1487342256.254198) can0 091#7EC27EE85DF6F000
(1487342256.254199) can0 092#6FB67146736B66F6
(1487342256.254200) can0 085#7F73800011C07F71
(1487342256.254200) can0 3CC#3000000000000000
(1487342256.257702) can0 217#1174117410D410D4
(1487342256.259573) can0 047#2000000000000000
(1487342256.260572) can0 05C#00F000ED201E0000
(1487342256.260573) can0 165#50C3500000000000
(1487342256.260574) can0 167#72828E10001B2600
(1487342256.260574) can0 200#00007F7182D90000
(1487342256.261573) can0 202#04CA78006099140F
(1487342256.261574) can0 204#C3E87D0882000000
(1487342256.261575) can0 230#200600009D000000
(1487342256.263323) can0 186#17AF01E800590C00
(1487342256.264323) can0 091#7EC87EE658F7F000
(1487342256.264324) can0 082#9A08140487804000
(1487342256.264324) can0 085#7F73800010D07F71
(1487342256.264325) can0 092#6FB7714473676AF7
(1487342256.265326) can0 187#DF1408C800400300
(1487342256.266448) can0 242#02901FB1CC000001
(1487342256.267448) can0 3CA#FE7EC85400000000
(1487342256.268448) can0 076#3E88C0800FFF0000
(1487342256.268449) can0 077#13BA07F77FF7F675
(1487342256.268449) can0 07D#0000F870001FC7F1
(1487342256.269450) can0 213#FFFF000400026840
(1487342256.269451) can0 214#000000000000F870
(1487342256.269452) can0 216#AC77EF4400000000
(1487342256.269452) can0 217#117C118410E410E0
(1487342256.270448) can0 3A8#0100271700000000
(1487342256.270449) can0 167#72829110001B2400
(1487342256.270454) can0 202#04CD00006099141B
(1487342256.270455) can0 204#C3E87D0883000000
(1487342256.270455) can0 265#2001010410000000
(1487342256.271448) can0 33B#0000000000000000
(1487342256.271449) can0 415#1469EC7408050805
(1487342256.271449) can0 41D#8000600000000000
(1487342256.271450) can0 453#3257364570646166
(1487342256.272448) can0 4B0#01008000700000F8
(1487342256.273452) can0 05D#8357B75F31000000
(1487342256.273453) can0 078#0068000000000000
(1487342256.273454) can0 091#7ED17EE54FF8F000
(1487342256.274573) can0 092#6FB9714173636EF8
(1487342256.274574) can0 085#7F7380000FE07F71
(1487342256.276197) can0 42C#8C40000009B00000
(1487342256.277576) can0 217#1184119010F010EC
(1487342256.279576) can0 047#2000000000000000
(1487342256.280574) can0 165#50C3500000000000
(1487342256.280575) can0 167#72829110001B2400
(1487342256.281577) can0 178#000002140E77CE77
(1487342256.281578) can0 200#00007F6F82D50000
(1487342256.282573) can0 202#04BF080060991428
(1487342256.282573) can0 204#C3E87D088B000000
(1487342256.282574) can0 230#200600009D000000
(1487342256.282575) can0 261#0000000000000000
(1487342256.283574) can0 05A#00000045EE610000
(1487342256.283575) can0 04A#0200000000000000
(1487342256.283575) can0 04B#00C0D8D8D8D8C000
(1487342256.284575) can0 04C#105FFFC000000000
(1487342256.284576) can0 082#9E08140887804000
(1487342256.284576) can0 085#7F7380000EF07F71
(1487342256.284577) can0 091#7ED97EE744F9F000
(1487342256.285576) can0 092#6FBA7141736768F9
(1487342256.285577) can0 186#17B401E500590C00
(1487342256.285578) can0 187#DF1408C800400300
(1487342256.285578) can0 18A#0020180D14000000
(1487342256.286699) can0 3CC#3000000000000000
(1487342256.286700) can0 42F#7D04002E6754087B
(1487342256.287824) can0 076#3E88C0800FFF0000
(1487342256.288822) can0 077#13D507F67FF7FA73
(1487342256.288823) can0 07D#0000F780001F97F6
(1487342256.288824) can0 213#FFFF000400026840
(1487342256.288825) can0 214#000000000000F780
(1487342256.289952) can0 216#BE8A005500000000
(1487342256.289953) can0 217#1190119810FC10F4
(1487342256.289954) can0 3A8#0100271700000000
(1487342256.289955) can0 167#72828E10001B2600
(1487342256.290950) can0 202#04B3100060991433
(1487342256.290951) can0 204#C3E87D088F000000
(1487342256.290952) can0 415#1485F05708050805
(1487342256.290953) can0 416#5C00F20001000000
(1487342256.291949) can0 41D#8000600000000000
(1487342256.291950) can0 4B0#01008000800000F7
(1487342256.292949) can0 078#0569800000000000
(1487342256.293950) can0 091#7EE17EE939FAF000
(1487342256.293951) can0 092#6FB97146737159FA
(1487342256.293952) can0 085#7F7380001D007F71
(1487342256.296574) can0 3CA#FE7EC85400000000
(1487342256.297512) can0 217#119811A4110410FC
(1487342256.299449) can0 047#2000000000000000
(1487342256.300449) can0 165#50C3500000000000
(1487342256.300450) can0 167#72829010001B2800
(1487342256.300451) can0 200#00007F6E82D00000
(1487342256.300451) can0 202#04A5180060991440
(1487342256.301574) can0 204#C3E87D0893000000
(1487342256.301575) can0 230#200600009D000000
(1487342256.303073) can0 186#17B501E300590C00
(1487342256.304074) can0 187#DF1408C800400300
(1487342256.304075) can0 091#7EEA7EEB2DFBF000
(1487342256.304075) can0 082#9D08140487804000
(1487342256.304076) can0 085#7F7380001C107F71
(1487342256.305018) can0 092#6FB7714D73764EFB
(1487342256.306447) can0 242#02901FAFCC000001
(1487342256.307824) can0 076#3E88C0800FFF0000
(1487342256.308824) can0 077#13F007F87FF7FA75
(1487342256.308825) can0 07D#0000F690001FD7FB
(1487342256.308825) can0 213#FFFF000400026840
(1487342256.308826) can0 214#000000000000F690
(1487342256.309822) can0 216#D19C116600000000
(1487342256.309823) can0 217#11A011AC11101108
(1487342256.309824) can0 3A8#0100271700000000
(1487342256.309824) can0 167#72829010001B2800
(1487342256.310824) can0 415#149CF43F08060806
(1487342256.310824) can0 202#049920006099144B
(1487342256.310825) can0 204#C3E87D0898000000
(1487342256.310825) can0 41D#8000600000000000
(1487342256.311823) can0 4B0#01008000900000F6
(1487342256.311823) can0 42F#7D04002E6757088F
(1487342256.313061) can0 078#0168800000000000
(1487342256.314067) can0 422#000000933802FE02
(1487342256.314067) can0 091#7EF17EEB25FCF000
(1487342256.314068) can0 085#7F7380001B207F71
(1487342256.314068) can0 092#6FB4715073744FFC
(1487342256.315068) can0 3CC#3000000000000000
(1487342256.315069) can0 423#CA20000000000000
(1487342256.315069) can0 430#37000ED5C88B7700
(1487342256.317689) can0 217#11B411B411141110
(1487342256.319567) can0 047#2000000000000000
(1487342256.320563) can0 165#50C3500000000000
(1487342256.320564) can0 167#72829510001B2800
(1487342256.320564) can0 200#00007F6D82CF0000
(1487342256.320564) can0 202#048A280060991459
(1487342256.321519) can0 204#C3E87D089F000000
(1487342256.321519) can0 230#200600009D000000
(1487342256.322771) can0 186#17B501E300590C00
(1487342256.323868) can0 187#DF1408C800400300
(1487342256.323869) can0 091#7EF67EE921FDF000
(1487342256.323869) can0 092#6FAE714E737555FD
(1487342256.323870) can0 082#9E08140087804000
(1487342256.324871) can0 085#7F7380001A307F71
(1487342256.326509) can0 3CA#FE7EC85400000000
(1487342256.327508) can0 3B3#4048020F10050002
(1487342256.327509) can0 3C3#60C0000000004000
(1487342256.327509) can0 42C#8C40000009B00000
(1487342256.328508) can0 076#3E88C0800FFF0000
(1487342256.328509) can0 077#140B07F87FF7F677
(1487342256.328509) can0 07D#0000F5A0001FE7FF
(1487342256.328510) can0 213#FFFF000400026840
(1487342256.329560) can0 214#000000000000F5A0
(1487342256.329561) can0 216#E2AE247700000000
(1487342256.329561) can0 217#11C811C01120111C
(1487342256.329561) can0 3A8#0100271700000000
(1487342256.330561) can0 083#0020000000000000
(1487342256.330562) can0 167#72829510001B2700
(1487342256.330562) can0 202#047E300060991464
(1487342256.330563) can0 204#C3E87D08A1000000
(1487342256.331561) can0 2A1#FFFFFFFF00000000
(1487342256.331561) can0 33B#0000000000000000
(1487342256.331562) can0 261#0000000000000000
(1487342256.331562) can0 415#14B5F82508060806
(1487342256.332563) can0 41D#8000600000000000
(1487342256.332563) can0 4B0#01008000A00000F5
(1487342256.333688) can0 078#0068000000000000
(1487342256.333689) can0 091#7EFC7EE61DFEF000
(1487342256.334685) can0 092#6FA8714C737E53FE
(1487342256.334686) can0 085#7F7380001A407F70
(1487342256.337560) can0 217#11D811D011281128
(1487342256.338685) can0 3E2#0000000080000000
(1487342256.339685) can0 455#A000000000000000
(1487342256.340661) can0 047#2000000000000000
(1487342256.340661) can0 165#50C3500000000000
(1487342256.340662) can0 167#72829510001B2700
(1487342256.341687) can0 200#00007F6C82CF0000
(1487342256.341688) can0 202#0470380060991471
(1487342256.341688) can0 204#C3E87D08A9000000
(1487342256.341689) can0 230#200600009D000000
(1487342256.342686) can0 42F#7D04002E6757089C
(1487342256.343687) can0 091#7F027EE219FFF000
(1487342256.343688) can0 186#17B501E000590C00
(1487342256.343688) can0 092#6FA77148738055FF
(1487342256.343688) can0 187#DE1408C800500300
(1487342256.344685) can0 082#9F08140487804000
(1487342256.344686) can0 085#7F73800019507F70
(1487342256.344686) can0 3CC#3000000000000000
(1487342256.346435) can0 242#02901FAFCC000001
(1487342256.347811) can0 076#3E88C0800FFF0000
(1487342256.348810) can0 077#142507F77FF7E677
(1487342256.348811) can0 07D#0000F4B000201801
(1487342256.348811) can0 213#FFFF000400026840
(1487342256.348811) can0 214#000000000000F4B0
(1487342256.349814) can0 216#F5C0358A00000000
(1487342256.349814) can0 217#11E011E011381138
(1487342256.349815) can0 3A8#0100271700000000
(1487342256.349815) can0 415#14DFFCFA08060806
(1487342256.350811) can0 167#72829410001B2900
(1487342256.350812) can0 202#046440006099147C
(1487342256.350812) can0 204#C3E87D08AB000000
(1487342256.350812) can0 41D#8000600000000000
(1487342256.351936) can0 4B0#01008000B00000F4
(1487342256.353069) can0 078#0168800000000000
(1487342256.354064) can0 091#7F037EE31600F000
(1487342256.354065) can0 092#6FB0714573715D00
(1487342256.354065) can0 085#7F74800016607F71
(1487342256.356562) can0 3CA#FE63483200000000
(1487342256.357565) can0 217#11E811E811401140
(1487342256.359810) can0 047#2000000000000000
(1487342256.360810) can0 05C#009000F3201E0000
(1487342256.360810) can0 165#50C3500000000000
(1487342256.360811) can0 167#72829710001B2A00
(1487342256.360811) can0 200#00007F6A82CD0000
(1487342256.361817) can0 202#045348006099148C
(1487342256.361818) can0 204#C3E87D08B5000000
(1487342256.361818) can0 230#200600009D000000
(1487342256.362936) can0 186#17B501DD00590C00
(1487342256.363935) can0 187#DE1408C800500300
(1487342256.363936) can0 091#7EFD7EE61901F000
(1487342256.363936) can0 092#6FB67144735D6B01
(1487342256.363936) can0 082#9E08140087804000
(1487342256.364936) can0 085#7F74800015707F71
(1487342256.367812) can0 076#3E88C0800FFF0000
(1487342256.368811) can0 077#143F07F67FF7F274
(1487342256.368811) can0 07D#0000F3C0001FD804
(1487342256.368812) can0 213#FFFF000400026840
(1487342256.368812) can0 214#000000000000F3C0
(1487342256.369813) can0 216#07D3489B00000000
(1487342256.369813) can0 217#11F811F8114C1150
(1487342256.369814) can0 3A8#0100271700000000
(1487342256.369814) can0 415#14F5C0F308060806
(1487342256.370810) can0 167#72829710001B2A00
(1487342256.370811) can0 41D#8000600000000000
(1487342256.370811) can0 202#044450006099149A
(1487342256.370811) can0 204#C3E87D08B8000000
(1487342256.371810) can0 4B0#01008000C00000F3
(1487342256.371811) can0 42F#7D04002E675A08A9
(1487342256.372936) can0 05D#83579F5E38000000
(1487342256.373938) can0 078#0168800000000000
(1487342256.373939) can0 091#7EF67EE71E02F000
(1487342256.373939) can0 092#6FB3714773586F02
(1487342256.373940) can0 085#7F75800012807F72
(1487342256.374936) can0 3CC#3000000000000000
(1487342256.376562) can0 42C#8C40000009B00000
(1487342256.377563) can0 217#12041204115C1160
(1487342256.379810) can0 047#2000000000000000
(1487342256.380811) can0 165#50C3500000000000
(1487342256.380812) can0 167#72829A10001B2800
(1487342256.381813) can0 178#000002140E77CE77
(1487342256.381813) can0 200#00007F6882CB0000
(1487342256.381814) can0 202#04345800609914A9
(1487342256.382811) can0 204#C3E87D08BE000000
(1487342256.382812) can0 230#200600009D000000
(1487342256.382815) can0 261#0000000000000000
(1487342256.382815) can0 05A#00000045F4010000
(1487342256.383812) can0 04A#0200000000000000
(1487342256.383812) can0 186#17B501D900590C00
(1487342256.383813) can0 04B#00C0D8D8D8D8C000
(1487342256.383813) can0 04C#105FFFC000000000
(1487342256.384811) can0 082#9C08140487804000
(1487342256.384811) can0 085#7F75800012907F71
(1487342256.384812) can0 091#7EF87EE31F03F000
(1487342256.384812) can0 092#6FAF714C73636203
(1487342256.385935) can0 187#DE1408C800500300
(1487342256.385936) can0 18A#0020180D14000000
(1487342256.386935) can0 3CA#FE63483200000000
(1487342256.386936) can0 242#02901FB2CC000001
(1487342256.387936) can0 076#3E89C0800FFF0000
(1487342256.388936) can0 077#145A07F77FF7F275
(1487342256.388937) can0 07D#0000F2D0001F6800
(1487342256.388937) can0 213#FFFF000400026840
(1487342256.388937) can0 214#000000000000F2D0
(1487342256.389937) can0 216#1AE559AE00000000
(1487342256.389938) can0 217#120C12101168116C
(1487342256.389938) can0 3A8#0100271700000000
(1487342256.389939) can0 33B#0000000000000000
(1487342256.390936) can0 167#72829610001B2800
(1487342256.390936) can0 202#04276000609914B5
(1487342256.390937) can0 204#C3E87D08BE000000
(1487342256.390937) can0 415#1515C4D108060806
(1487342256.390937) can0 416#5D00F10001000000
(1487342256.391936) can0 41D#8000600000000000
(1487342256.391936) can0 4B0#01008000D00000F2
(1487342256.392935) can0 078#0469000000000000
(1487342256.393933) can0 091#7EFE7EE01B04F000
(1487342256.393933) can0 092#6FAF714B736C5904
(1487342256.393934) can0 085#7F75800011A07F71
(1487342256.397560) can0 217#1214121C11781174
(1487342256.398557) can0 3A7#0E401A045F700000
(1487342256.399807) can0 047#2000000000000000
(1487342256.400807) can0 165#50C3500000000000
(1487342256.400808) can0 167#72829610001B2800
(1487342256.400808) can0 200#00007F6682C90000
(1487342256.401809) can0 202#04166800609914C5
(1487342256.401810) can0 204#C3E87D08C7000000
(1487342256.401810) can0 230#200600009D000000
(1487342256.401810) can0 42F#7D04002E675808BB
(1487342256.402934) can0 186#17B501D600590C00
(1487342256.402935) can0 187#DE1408C800500300
(1487342256.403932) can0 091#7F037EDF1505F000
(1487342256.403933) can0 092#6FB17144736D5C05
(1487342256.403933) can0 082#A008140887804000
(1487342256.404932) can0 085#7F75800010B07F71
(1487342256.404933) can0 3CC#3000000000000000
(1487342256.407807) can0 076#3E8AC0800FFF0000
(1487342256.408807) can0 077#147507F57FF7EE76
(1487342256.408807) can0 07D#0000F1E0001FC802
(1487342256.408807) can0 213#FFFF000400026840
(1487342256.408808) can0 214#000000000000F1E0
(1487342256.409809) can0 216#2CF86CBF00000000
(1487342256.409809) can0 217#1224122811881180
(1487342256.409809) can0 3A8#0100271900000000
(1487342256.409810) can0 415#152BC8BA08060806
(1487342256.410808) can0 167#72829610001B2A00
(1487342256.410808) can0 202#04087000609914D2
(1487342256.410809) can0 204#C3E87D08CB000000
(1487342256.410809) can0 41D#8000600000000000
(1487342256.411807) can0 4B0#01008000E00000F1
(1487342256.412932) can0 078#0168800000000000
(1487342256.413933) can0 422#000000933802FE02
(1487342256.413933) can0 091#7F087EE00E06F000
(1487342256.413934) can0 092#6FB4713F736B5F06
(1487342256.413934) can0 085#7F7580000FC07F71
(1487342256.414932) can0 3A6#0E401A045F700000
(1487342256.414932) can0 423#CA20000000000000
(1487342256.414933) can0 430#37000ED5C88B7700
(1487342256.416557) can0 3CA#FE63483200000000
(1487342256.417684) can0 217#123812341194118C
(1487342256.419807) can0 047#2000000000000000
(1487342256.420807) can0 165#50C3500000000000
(1487342256.420808) can0 167#72829910001B2800
(1487342256.420808) can0 200#00007F6482C60000
(1487342256.420808) can0 202#04F87800609914E1
(1487342256.421809) can0 204#C3E87D08D5000000
(1487342256.421810) can0 230#200600009D000000
(1487342256.422807) can0 186#17B501D600590C00
(1487342256.422808) can0 187#DE1408C800500300
(1487342256.423805) can0 091#7F137EE00207F000
(1487342256.423806) can0 092#6FB4714573665D07
(1487342256.423806) can0 082#9F08140487804000
(1487342256.424932) can0 085#7F7680000CD07F72
(1487342256.426308) can0 242#02901FB1CC000001
(1487342256.427432) can0 40A#C000000805F4EF00
(1487342256.427433) can0 42C#8C40000009B00000
(1487342256.428432) can0 076#3E8AC0800FFF0000
(1487342256.428433) can0 077#149107F57FF7F673
(1487342256.428433) can0 07D#0000F0F0001FC805
(1487342256.429434) can0 213#FFFF000400026840
(1487342256.429435) can0 214#000000000000F0F0
(1487342256.429435) can0 216#3F0B7DD100000000
(1487342256.429435) can0 217#1244124011A01198
(1487342256.430432) can0 3A8#0100271900000000
(1487342256.430432) can0 083#0020000000000000
(1487342256.430433) can0 167#72829910001B2800
(1487342256.430433) can0 2A1#FFFFFFFF00000000
(1487342256.430433) can0 202#04FB0000609914ED
(1487342256.431432) can0 415#154FCC9508060806
(1487342256.431432) can0 204#C3E87D08D9000000
(1487342256.431432) can0 41D#8000600000000000
(1487342256.431433) can0 261#0000000000000000
(1487342256.432432) can0 4B0#01008000F00000F0
(1487342256.432432) can0 42F#7D04002E675808C7
(1487342256.433436) can0 078#0168800000000000
(1487342256.433437) can0 091#7F1D7EE1F608F000
(1487342256.434432) can0 092#6FB4714C735B6008
(1487342256.434433) can0 085#7F7680000CE07F71
(1487342256.434433) can0 3CC#3000000000000000
(1487342256.437559) can0 217#1248125011A811A0
(1487342256.438682) can0 455#A000000000000000
(1487342256.439808) can0 047#2000000000000000
(1487342256.440808) can0 165#50C3500000000000
(1487342256.440808) can0 167#72829510001B2900
(1487342256.440808) can0 200#00007F6382C50000
(1487342256.440809) can0 202#04EA0800609914FD
(1487342256.441810) can0 204#C3E87D08E2000000
(1487342256.441810) can0 230#200600009D000000
(1487342256.442933) can0 186#17B501D200590C00
(1487342256.442933) can0 187#DD1408C800600300
(1487342256.443932) can0 091#7F1D7EE5F109F000
(1487342256.443933) can0 092#6FB4714B734F6C09
(1487342256.443933) can0 082#A008140487804000
(1487342256.444932) can0 085#7F7680000BF07F71
(1487342256.446932) can0 3CA#FE63483200000000
(1487342256.447932) can0 076#3E8BC0800FFF0000
(1487342256.448932) can0 077#14AC07F57FF7F677
(1487342256.448932) can0 07D#0000FF00001F780C
(1487342256.448933) can0 213#FFFF000400026840
(1487342256.448933) can0 214#000000000000FF00
(1487342256.449933) can0 216#531D8FE400000000
(1487342256.449933) can0 217#1254126011B411AC
(1487342256.449934) can0 3A8#0100271900000000
(1487342256.449934) can0 33B#0000000000000000
(1487342256.449934) can0 167#72829710001B2A00
(1487342256.450932) can0 202#04DB10006099150A
(1487342256.450933) can0 204#C3E87D08E6000000
(1487342256.450933) can0 415#1568D07B08060806
(1487342256.450933) can0 41D#8000600000000000
(1487342256.451933) can0 4B0#01008000000000FF
(1487342256.453060) can0 078#0068000000000000
(1487342256.454058) can0 091#7F187EE9F10AF000
(1487342256.454058) can0 092#6FB17143734C790A
(1487342256.454058) can0 085#7F7680001A007F71
(1487342256.457559) can0 217#1268126811B811B4
(1487342256.459807) can0 047#2000000000000000
(1487342256.460806) can0 05C#003000F9201E0000
(1487342256.460807) can0 165#50C3500000000000
(1487342256.460807) can0 167#72829710001B2A00
(1487342256.461810) can0 200#00007F6282C40000
(1487342256.461811) can0 202#04CA18006099151A
(1487342256.461811) can0 204#C3E87D08ED000000
(1487342256.461811) can0 230#200600009D000000
(1487342256.462806) can0 42F#7D04002E675908DF
(1487342256.462807) can0 186#17B501CE00590C00
(1487342256.462807) can0 187#DD1408C800600300
(1487342256.463806) can0 091#7F1A7EE9EE0BF000
(1487342256.463807) can0 092#6FAA7140735A740B
(1487342256.464807) can0 082#9E08140087804000
(1487342256.464807) can0 085#7F76800019107F71
(1487342256.464807) can0 3CC#3000000000000000
(1487342256.466309) can0 242#02901FB1CC000001
(1487342256.467807) can0 076#3E8BC0800FFF0000
(1487342256.468807) can0 077#14C707F87FF7F274
(1487342256.468807) can0 07D#0000FE10001F380A
(1487342256.468808) can0 213#FFFF000400026840
(1487342256.468808) can0 214#000000000000FE10
(1487342256.469809) can0 216#6631A2F500000000
(1487342256.469809) can0 217#127C126C11C011BC
(1487342256.469809) can0 3A8#0100271A00000000
(1487342256.469810) can0 167#72829810001B2B00
(1487342256.470809) can0 202#04BD200060991526
(1487342256.470809) can0 204#C3E87D08F3000000
(1487342256.470809) can0 415#1587D45B08060806
(1487342256.470810) can0 41D#8000600000000000
(1487342256.471932) can0 4B0#01008000100000FE
(1487342256.472932) can0 05D#8357875F3D000000
(1487342256.473932) can0 078#0168800000000000
(1487342256.473933) can0 091#7F227EE4EA0CF000
(1487342256.473933) can0 092#6FA47144736E610C
(1487342256.473934) can0 085#7F76800018207F71
(1487342256.476537) can0 3CA#FE66F82D00000000
(1487342256.477559) can0 42C#8C40000009B00000
(1487342256.478557) can0 217#1284127411CC11C8
(1487342256.479557) can0 047#2000000000000000
(1487342256.480558) can0 165#50C3500000000000
(1487342256.480559) can0 167#72829B10001B2800
(1487342256.481559) can0 178#000002190E77CE77
(1487342256.481560) can0 200#00007F6082C20000
(1487342256.481560) can0 202#04AC280060991536
(1487342256.482557) can0 204#C3E87D08FB000000
(1487342256.482557) can0 230#200600009D000000
(1487342256.482558) can0 186#17B501C700590C00
(1487342256.482558) can0 187#DD1408C800600300
(1487342256.483682) can0 18A#0020180D14000000
(1487342256.483683) can0 05A#00000045EAA10000
(1487342256.483683) can0 261#0000000000000000
(1487342256.483683) can0 04A#0200000000000000
(1487342256.483684) can0 04B#00C0D8D8D8D8C000
(1487342256.484683) can0 04C#105FFFC000000000
(1487342256.484683) can0 082#9D08140887804000
(1487342256.484683) can0 085#7F76800017307F71
(1487342256.484684) can0 091#7F257EE0EA0DF000
(1487342256.485683) can0 092#6FAA714873764E0D
(1487342256.487808) can0 076#3E8BC0800FFF0000
(1487342256.488807) can0 077#14E007F67FF7E274
(1487342256.488807) can0 07D#0000FD20001FC80E
(1487342256.488807) can0 213#FFFF000400026740
(1487342256.488808) can0 214#000000000000FD20
(1487342256.489813) can0 216#7844B50800000000
(1487342256.489814) can0 217#1288128411D811D4
(1487342256.489814) can0 3A8#0100271A00000000
(1487342256.489814) can0 167#72829B10001B2800
(1487342256.490808) can0 415#15A1D84008060806
(1487342256.490811) can0 202#049E300060991543
(1487342256.490812) can0 204#C3E87D08FF000000
(1487342256.490812) can0 416#5E00F00001000000
(1487342256.491933) can0 41D#8000600000000000
(1487342256.491933) can0 4B0#01008000200000FD
(1487342256.491934) can0 42F#7D04002E675908ED
(1487342256.492932) can0 078#0569800000000000
(1487342256.493931) can0 091#7F1B7EE2F10EF000
(1487342256.493932) can0 092#6FB971497372410E
(1487342256.493932) can0 085#7F76800016407F71
(1487342256.494932) can0 3CC#3000000000000000
(1487342256.495934) can0 3EB#7E0414021C200000
(1487342256.497557) can0 217#1294129011E411E4
(1487342256.499557) can0 047#2000000000000000
(1487342256.500557) can0 165#50C3500000000000
(1487342256.500558) can0 167#72829510001B2900
(1487342256.500558) can0 200#00007F6082C00000
(1487342256.500558) can0 202#048D380060991553
(1487342256.501559) can0 204#C3E87D0905000000
(1487342256.501560) can0 230#200600009D000000
(1487342256.502557) can0 186#17B501BE00590C00
(1487342256.502558) can0 187#DD1408C800600300
(1487342256.503557) can0 091#7F057EE9FF0FF000
(1487342256.503558) can0 092#6FBD71457372400F
(1487342256.504558) can0 082#9E08140087804000
(1487342256.504558) can0 085#7F77800013507F72
(1487342256.506308) can0 242#02901FB2CC000001
(1487342256.507307) can0 3CA#FE66F82D00000000
(1487342256.508434) can0 076#3E8BC0800FFF0000
(1487342256.508435) can0 077#14FA07F57FF7FA76
(1487342256.508435) can0 07D#0000FC30001FD80B
(1487342256.509440) can0 213#FFFF000400026740
(1487342256.509440) can0 214#000000000000FC30
(1487342256.509441) can0 216#8C58C61A00000000
(1487342256.509441) can0 217#12A412A011F011F0
(1487342256.510432) can0 3A8#0100271A00000000
(1487342256.510433) can0 167#72829610001B2A00
(1487342256.510433) can0 202#048040006099155F
(1487342256.510433) can0 204#C3E87D0907000000
(1487342256.511437) can0 33B#0000000000000000
(1487342256.511437) can0 415#15B9DC2708070807
(1487342256.511437) can0 41D#8000600000000000
(1487342256.511438) can0 4B0#01008000300000FC
(1487342256.512932) can0 078#0068000000000000
(1487342256.513933) can0 422#000000933802FE02
(1487342256.513933) can0 091#7EF87EEB0A10F000
(1487342256.513934) can0 092#6FB37146737D3D10
(1487342256.513934) can0 085#7F77800013607F71
(1487342256.514932) can0 423#CA20000000000000
(1487342256.514932) can0 430#37000ED5C88B7700
(1487342256.517558) can0 217#12B412B411FC11FC
(1487342256.519557) can0 047#2000000000000000
(1487342256.520556) can0 165#50C3500000000000
(1487342256.520557) can0 167#72829610001B2A00
(1487342256.520557) can0 200#00007F5E82BF0000
(1487342256.521558) can0 202#047048006099156E
(1487342256.521559) can0 204#C3E87D090E000000
(1487342256.521559) can0 230#200600009D000000
(1487342256.521559) can0 42F#7D04002E67590901
(1487342256.522557) can0 186#17B501BE00590C00
(1487342256.522558) can0 187#DD1408C800600300
(1487342256.523558) can0 091#7F037EE50311F000
(1487342256.523558) can0 092#6FAE714D73843311
(1487342256.524558) can0 082#9C08140487804000
(1487342256.524558) can0 085#7F77800012707F71
(1487342256.524558) can0 3CC#3000000000000000
(1487342256.526435) can0 42C#8C40000009B00000
(1487342256.527807) can0 076#3E89C0800FFF0000
(1487342256.528807) can0 077#151407F87FF7F275
(1487342256.528808) can0 07D#0000FB4000201800
(1487342256.528808) can0 213#FFFF000400026740
(1487342256.528808) can0 214#000000000000FB40
(1487342256.529810) can0 216#9F6BD82D00000000
(1487342256.529813) can0 217#12B812C4120C120C
(1487342256.529813) can0 3A8#0100271A00000000
(1487342256.529814) can0 081#0000000000000000
(1487342256.530808) can0 083#0020000000000000
(1487342256.530808) can0 167#72829910001B2900
(1487342256.530808) can0 202#046350006099157A
(1487342256.530809) can0 204#C3E87D0911000000
(1487342256.531808) can0 2A1#FFFFFFFF00000000
(1487342256.531808) can0 261#0000000000000000
(1487342256.531808) can0 3E6#0001040880000000
(1487342256.531809) can0 415#15E3E0FC08070807
(1487342256.532933) can0 41D#8000600000000000
(1487342256.532933) can0 4B0#01008000400000FB
(1487342256.533932) can0 078#0168800000000000
(1487342256.533933) can0 091#7F167EE0F412F000
(1487342256.533933) can0 092#6FB57153737F2A12
(1487342256.533933) can0 085#7F77800011807F71
(1487342256.536557) can0 3CA#FE66F82D00000000
(1487342256.537808) can0 217#12C012D4121C1214
(1487342256.538807) can0 455#A000000000000000
(1487342256.539808) can0 047#2000000000000000
(1487342256.540807) can0 165#50C3500000000000
(1487342256.540808) can0 167#72829610001B2900
(1487342256.540808) can0 200#00007F5C82BC0000
(1487342256.540808) can0 202#045058006099158C
(1487342256.540809) can0 204#C3E87D0914000000
(1487342256.541810) can0 230#200600009D000000
(1487342256.541810) can0 186#17B501B400590C00
(1487342256.542807) can0 187#DC1408C800700300
(1487342256.543806) can0 091#7F1C7EDFEE13F000
(1487342256.543807) can0 092#6FBF715373712D13
(1487342256.543807) can0 082#A208140887804000
(1487342256.544807) can0 085#7F77800010907F71
(1487342256.546435) can0 242#02901FB4CC000001
(1487342256.547786) can0 076#3E86C0800FFF0000
(1487342256.548807) can0 077#153007F57FF7F678
(1487342256.548807) can0 07D#0000FA500020180A
(1487342256.548808) can0 213#FFFF000400026840
(1487342256.548808) can0 214#000000000000FA50
(1487342256.549807) can0 216#B37DEB4000000000
(1487342256.549807) can0 217#12D812E012281224
(1487342256.549807) can0 3A8#0100271900000000
(1487342256.549808) can0 415#15FAE4E408070807
(1487342256.550807) can0 167#72829610001B2900
(1487342256.550808) can0 41D#8000600000000000
(1487342256.550808) can0 202#044160006099159A
(1487342256.550808) can0 204#C3E87D0919000000
(1487342256.551808) can0 4B0#01008000500000FA
(1487342256.551809) can0 42F#7D04002E67590911
(1487342256.552932) can0 078#0168800000000000
(1487342256.553932) can0 091#7F207EE2E614F000
(1487342256.553932) can0 092#6FC0714F73653B14
(1487342256.553932) can0 085#7F7980000CA07F72
(1487342256.554932) can0 3CC#3000000000000000
(1487342256.557560) can0 217#12EC12EC12341230
(1487342256.559683) can0 047#2000000000000000
(1487342256.560807) can0 05C#00D000EF201E0000
(1487342256.560808) can0 165#50C3500000000000
(1487342256.560808) can0 167#72829710001B2A00
(1487342256.560808) can0 200#00007F5C82BA0000
(1487342256.561808) can0 202#04306800609915AA
(1487342256.561809) can0 204#C3E87D091B000000
(1487342256.561809) can0 230#200600009D000000
(1487342256.561809) can0 186#17B501AA00590C00
(1487342256.562806) can0 187#DC1408C800700300
(1487342256.563807) can0 091#7F307EE5D215F000
(1487342256.563808) can0 092#6FBA714B73604915
(1487342256.563808) can0 082#9E08140087804000
(1487342256.564807) can0 085#7F7980000CB07F71
(1487342256.566559) can0 3CA#FE66F82D00000000
(1487342256.567807) can0 076#3E86C0800FFF0000
(1487342256.568808) can0 077#154C07F67FF7FE77
(1487342256.568809) can0 07D#0000F960001FA80D
(1487342256.568811) can0 213#FFFF000400026840
(1487342256.568811) can0 214#000000000000F960
(1487342256.569809) can0 216#C691FF5200000000
(1487342256.569810) can0 217#12F012F412441238
(1487342256.569810) can0 3A8#0100271600000000
(1487342256.569810) can0 33B#0000000000000000
(1487342256.570807) can0 167#72829A10001B2A00
(1487342256.570807) can0 202#04227000609915B7
(1487342256.570807) can0 204#C3E87D0925000000
(1487342256.570808) can0 415#1624E8B808070807
(1487342256.571933) can0 41D#8000600000000000
(1487342256.571934) can0 4B0#01008000600000F9
(1487342256.572932) can0 078#0068000000000000
(1487342256.573933) can0 05D#8357AF5B37000000
(1487342256.573934) can0 091#7F3F7EE5C216F000
(1487342256.573934) can0 092#6FB67149735A5416
(1487342256.573934) can0 085#7F7A80000AC07F71
(1487342256.575932) can0 42C#8C40000009B00000
(1487342256.577561) can0 217#12F4130012481248
(1487342256.579557) can0 047#2000000000000000
(1487342256.580557) can0 165#50C3500000000000
(1487342256.580558) can0 167#72829A10001B2A00
(1487342256.581558) can0 178#000002120E77CE77
(1487342256.581559) can0 186#17B501A000590C00
(1487342256.581559) can0 187#DC1408C800700300
(1487342256.582558) can0 18A#0020180D14000000
(1487342256.582558) can0 200#00007F5B82B90000
(1487342256.582559) can0 202#04107800609915C8
(1487342256.582559) can0 204#C3E87D0926000000
(1487342256.583557) can0 230#200600009D000000
(1487342256.583557) can0 05A#00000045F0410000
(1487342256.583558) can0 261#0000000000000000
(1487342256.583558) can0 04A#0200000000000000
(1487342256.584556) can0 04B#00C0D8D8D8D8C000
(1487342256.584557) can0 04C#105FFFC000000000
(1487342256.584557) can0 082#A208140C87804000
(1487342256.584558) can0 085#7F7A800009D07F71
(1487342256.585560) can0 091#7F3F7EE6C017F000
(1487342256.585560) can0 092#6FB3714A735B5417
(1487342256.585561) can0 3CC#3000000000000000
(1487342256.585561) can0 42F#7D04002E675A0919
(1487342256.587057) can0 242#02901FB5CC000001
(1487342256.588058) can0 076#3E87C0800FFF0000
(1487342256.589059) can0 077#156807F67FF7F676
(1487342256.589060) can0 07D#0000F870001F6817
(1487342256.589060) can0 213#FFFF000400026840
(1487342256.589060) can0 214#000000000000F870
(1487342256.590058) can0 216#DAA5126500000000
(1487342256.590059) can0 217#130C130C12501250
(1487342256.590059) can0 3A8#0100271600000000
(1487342256.590059) can0 167#72829910001B2A00
(1487342256.590060) can0 202#04100000609915D7
(1487342256.591057) can0 204#C3E87D092B000000
(1487342256.591058) can0 415#1630ECAB08060806
(1487342256.591058) can0 416#5F00EF0001000000
(1487342256.591058) can0 41D#8000600000000000
(1487342256.592056) can0 4B0#01008000700000F8
(1487342256.593060) can0 078#0569800000000000
(1487342256.594058) can0 091#7F347EE7C918F000
(1487342256.594059) can0 092#6FAD714973684D18
(1487342256.594059) can0 085#7F7A800008E07F71
(1487342256.596557) can0 3CA#FE78F81C00000000
(1487342256.597559) can0 217#1324131812581258
(1487342256.598557) can0 3A7#0E401A045F700000
(1487342256.599557) can0 047#2000000000000000
(1487342256.600556) can0 165#50C3500000000000
(1487342256.600556) can0 167#72829910001B2B00
(1487342256.600556) can0 200#00007F5A82B60000
(1487342256.600557) can0 202#04000800609915E6
(1487342256.601684) can0 204#C3E87D092F000000
(1487342256.601685) can0 230#200600009D000000
(1487342256.601685) can0 186#17B2019300590C00
(1487342256.601686) can0 187#DC1408C800700300
(1487342256.603308) can0 091#7F2E7EE5D019F000
(1487342256.604307) can0 092#6FA7714673714C19
(1487342256.604308) can0 082#9E08140087804000
(1487342256.604308) can0 085#7F7B800006F07F71
(1487342256.607808) can0 076#3E89C0800FFF0000
(1487342256.608806) can0 077#158307F77FF7EE76
(1487342256.608807) can0 07D#0000F780001FA813
(1487342256.608807) can0 213#FFFF000400026840
(1487342256.608807) can0 214#000000000000F780
(1487342256.609809) can0 216#EEB9247900000000
(1487342256.609810) can0 217#1330132012601260
(1487342256.609810) can0 3A8#0100271600000000
(1487342256.609810) can0 167#72829910001B2B00
(1487342256.610808) can0 415#165FF07B08060806
(1487342256.610808) can0 202#04F31000609915F2
(1487342256.610809) can0 204#C3E87D0931000000
(1487342256.610809) can0 41D#8000600000000000
(1487342256.611807) can0 4B0#01008000800000F7
(1487342256.611808) can0 42F#7D04002E675B0927
(1487342256.612808) can0 078#0168800000000000
(1487342256.613935) can0 422#000000933802FE02
(1487342256.613935) can0 3A6#0E401A045F700000
(1487342256.613936) can0 091#7F2D7EE1D41AF000
(1487342256.613936) can0 085#7F7B800015007F71
(1487342256.614932) can0 092#6FAB7140736A541A
(1487342256.614932) can0 3CC#3000000000000000
(1487342256.614932) can0 423#CA20000000000000
(1487342256.614933) can0 430#37000ED5C88B7700
(1487342256.617812) can0 217#133013241270126C
(1487342256.619431) can0 047#2000000000000000
(1487342256.620434) can0 165#50C3500000000000
(1487342256.620434) can0 167#72829C10001B2C00
(1487342256.620435) can0 200#00007F5982B50000
(1487342256.620435) can0 202#04DF180060991604
(1487342256.621559) can0 204#C3E87D0937000000
(1487342256.621559) can0 186#17B2019300590C00
(1487342256.621559) can0 187#DC1408C800700300
(1487342256.621560) can0 230#200600009D000000
(1487342256.623307) can0 091#7F247EE2DB1BF000
(1487342256.624307) can0 092#6FBB713D735C541B
(1487342256.624307) can0 082#A008140487804000
(1487342256.624307) can0 085#7F7B800014107F71
(1487342256.626308) can0 242#02901FB6CC000001
(1487342256.627433) can0 3CA#FE78F81C00000000
(1487342256.627434) can0 40A#C100334641365030
(1487342256.627434) can0 42C#8C40000009B00000
(1487342256.628405) can0 076#3E8AC0800FFF0000
(1487342256.628406) can0 077#159D07F57FF7EA73
(1487342256.628406) can0 07D#0000F690001FB811
(1487342256.629434) can0 213#FFFF000400026740
(1487342256.629434) can0 214#000000000000F690
(1487342256.629435) can0 216#00CC378B00000000
(1487342256.629435) can0 217#1338133012781278
(1487342256.630433) can0 3A8#0100271900000000
(1487342256.630433) can0 083#0020000000000000
(1487342256.630434) can0 167#72829D10001B2B00
(1487342256.630434) can0 202#04CF200060991613
(1487342256.630434) can0 204#C3E87D093C000000
(1487342256.631432) can0 2A1#FFFFFFFF00000000
(1487342256.631433) can0 33B#0000000000000000
(1487342256.631433) can0 261#0000000000000000
(1487342256.631433) can0 415#166BF46E08060806
(1487342256.632434) can0 41D#8000600000000000
(1487342256.632434) can0 4B0#01008000900000F6
(1487342256.633559) can0 078#0068000000000000
(1487342256.633559) can0 091#7F117EE7E81CF000
(1487342256.633560) can0 092#6FBF713D7358531C
(1487342256.634557) can0 085#7F7B800014207F70
(1487342256.637560) can0 217#1344134012841288
(1487342256.638686) can0 455#A000000000000000
(1487342256.639807) can0 047#2000000000000000
(1487342256.640808) can0 165#50C3500000000000
(1487342256.640809) can0 186#17B0018600590C00
(1487342256.640811) can0 167#72829D10001B2B00
(1487342256.640812) can0 187#DB1408C800800300
(1487342256.641809) can0 200#00007F5882B40000
(1487342256.641810) can0 202#04C0280060991621
(1487342256.641810) can0 204#C3E87D0944000000
(1487342256.641810) can0 230#200600009D000000
(1487342256.642932) can0 42F#7D04002E675B0937
(1487342256.643933) can0 091#7EFE7EEBF71DF000
(1487342256.643933) can0 092#6FB77141735C521D
(1487342256.643933) can0 082#A008140887804000
(1487342256.644932) can0 085#7F7C800011307F71
(1487342256.644933) can0 3CC#3000000000000000
(1487342256.647807) can0 076#3E8AC0800FFF0000
(1487342256.648810) can0 077#15B607F77FF7FE72
(1487342256.648811) can0 07D#0000F5A0001F6808
(1487342256.648812) can0 213#FFFF000400026740
(1487342256.648812) can0 214#000000000000F5A0
(1487342256.649809) can0 216#14E04A9E00000000
(1487342256.649809) can0 217#1348134812901294
(1487342256.649810) can0 3A8#0100271900000000
(1487342256.649810) can0 167#72829A10001B2B00
(1487342256.650808) can0 202#04B330006099162D
(1487342256.650809) can0 204#C3E87D0949000000
(1487342256.650809) can0 415#1685F85308060806
(1487342256.650809) can0 41D#8000600000000000
(1487342256.651807) can0 4B0#01008000A00000F5
(1487342256.652809) can0 078#0168800000000000
(1487342256.653934) can0 091#7EFA7EECF91EF000
(1487342256.653934) can0 092#6FB57143735A531E
(1487342256.653935) can0 085#7F7C800010407F71
(1487342256.656807) can0 3CA#FE78F81C00000000
(1487342256.657809) can0 217#13441354129812A0
(1487342256.659556) can0 047#2000000000000000
(1487342256.660557) can0 05C#007000F5201E0000
(1487342256.660557) can0 165#50C3500000000000
(1487342256.660558) can0 167#72829C10001B2C00
(1487342256.660558) can0 200#00007F5782B20000
(1487342256.661559) can0 186#17B2017800590C00
(1487342256.661560) can0 187#DB1408C800800300
(1487342256.661560) can0 202#04A438006099163B
(1487342256.661560) can0 204#C3E87D094C000000
(1487342256.662557) can0 230#200600009D000000
(1487342256.663557) can0 091#7F017EE7F51FF000
(1487342256.663557) can0 092#6FBB71417356521F
(1487342256.664558) can0 082#A108140887804000
(1487342256.664559) can0 085#7F7D80000E507F71
(1487342256.666434) can0 242#02901FB7CC000001
(1487342256.667807) can0 076#3E8AC0800FFF0000
(1487342256.668806) can0 077#15D007F97FF7F674
(1487342256.668807) can0 07D#0000F4B0001F6801
(1487342256.668807) can0 213#FFFF000400026740
(1487342256.668807) can0 214#000000000000F4B0
(1487342256.669807) can0 216#28F45EB200000000
(1487342256.669807) can0 217#1350135C12A812A8
(1487342256.669808) can0 3A8#0100271900000000
(1487342256.669808) can0 167#72829C10001B2C00
(1487342256.670809) can0 415#168EFC4908060806
(1487342256.670809) can0 202#0497400060991647
(1487342256.670810) can0 204#C3E87D0952000000
(1487342256.670810) can0 41D#8000600000000000
(1487342256.671811) can0 4B0#01008000B00000F4
(1487342256.672807) can0 42F#7D04002E675B0944
(1487342256.673811) can0 078#0168800000000000
(1487342256.673812) can0 05D#8357975840000000
(1487342256.673812) can0 091#7F067EE3F320F000
(1487342256.673812) can0 092#6FC2713C73614420
(1487342256.673812) can0 085#7F7D80000D607F71
(1487342256.674933) can0 3CC#3000000000000000
(1487342256.675932) can0 42C#8C40000009B00000
(1487342256.677559) can0 217#1370136412B812B8
(1487342256.679557) can0 047#2000000000000000
(1487342256.680056) can0 165#50C3500000000000
(1487342256.681060) can0 186#17B3016D00580C00
(1487342256.681062) can0 187#DB1408C800800300
(1487342256.681063) can0 167#72829C10001B2900
(1487342256.681063) can0 178#000002160E78CE77
(1487342256.682059) can0 18A#0020180D14000000
(1487342256.682059) can0 200#00007F5682AF0000
(1487342256.682060) can0 202#048A480060991653
(1487342256.682060) can0 204#C3E87D095C000000
(1487342256.683057) can0 230#200600009D000000
(1487342256.683058) can0 261#0000000000000000
(1487342256.683058) can0 05A#00000045E6E10000
(1487342256.684183) can0 04A#0200000000000000
(1487342256.684184) can0 04B#00C0D8D8D8D8C000
(1487342256.684184) can0 04C#105FFFC000000000
(1487342256.684185) can0 082#9F08140487804000
(1487342256.685184) can0 085#7F7D80000C707F71
(1487342256.685184) can0 091#7F107EE4E721F000
(1487342256.685185) can0 092#6FC2713B73772E21
(1487342256.686557) can0 3CA#FE7A981700000000
(1487342256.687808) can0 076#3E8CC0800FFF0000
(1487342256.688807) can0 077#15EA07F67FF80272
(1487342256.688808) can0 07D#0000F3C0001F8805
(1487342256.688808) can0 213#FFFF000400026740
(1487342256.688808) can0 214#000000000000F3C0
(1487342256.689809) can0 216#3D0870C500000000
(1487342256.689809) can0 217#1388137012C412C0
(1487342256.689810) can0 3A8#0100271900000000
(1487342256.689810) can0 33B#0000000000000000
(1487342256.690807) can0 167#72829710001B2B00
(1487342256.690807) can0 202#047F50006099165D
(1487342256.690808) can0 204#C3E87D0963000000
(1487342256.690808) can0 415#16B2C03408060806
(1487342256.691808) can0 416#5000FE0001000000
(1487342256.691809) can0 41D#8000600000000000
(1487342256.691809) can0 4B0#01008000C00000F3
(1487342256.692932) can0 078#0469000000000000
(1487342256.693932) can0 091#7F217EEBCE22F000
(1487342256.693933) can0 092#6FC1713A737D2922
(1487342256.693933) can0 085#7F7D80000B807F71
(1487342256.697559) can0 217#1384137C12D012CC
(1487342256.699401) can0 047#2000000000000000
(1487342256.700558) can0 165#50C3500000000000
(1487342256.700559) can0 186#17B4016300580C00
(1487342256.700559) can0 167#72829710001B2B00
(1487342256.700559) can0 187#DB1408C800800300
(1487342256.701559) can0 200#00007F5582AE0000
(1487342256.701559) can0 202#047158006099166A
(1487342256.701560) can0 204#C3E87D0967000000
(1487342256.701560) can0 230#200600009D000000
(1487342256.702557) can0 42F#7D04002E675A0957
(1487342256.703557) can0 091#7F267EF4BF23F000
(1487342256.703557) can0 092#6FC4713973663D23
(1487342256.704556) can0 082#A108140C87804000
(1487342256.704557) can0 085#7F7D80000A907F71
(1487342256.704557) can0 3CC#3000000000000000
(1487342256.706434) can0 242#02901FB7CC000001
(1487342256.707807) can0 076#3E8CC0800FFF0000
(1487342256.708807) can0 077#160507F87FF80271
(1487342256.708808) can0 07D#0000F2D00020080D
(1487342256.708808) can0 213#FFFF000400026740
(1487342256.708808) can0 214#000000000000F2D0
(1487342256.709807) can0 216#511C84D900000000
(1487342256.709808) can0 217#1380138812DC12D4
(1487342256.709808) can0 3A8#0100271C00000000
(1487342256.709808) can0 167#72829A10001B2B00
(1487342256.710807) can0 202#0464600060991676
(1487342256.710808) can0 204#C3E87D096B000000
(1487342256.710808) can0 415#16D2C41308060806
(1487342256.710808) can0 41D#8000600000000000
(1487342256.711808) can0 4B0#01008000D00000F2
(1487342256.712932) can0 078#0168800000000000
(1487342256.713889) can0 422#000000933802FE02
(1487342256.713890) can0 423#CA20000000000000
(1487342256.713891) can0 091#7F177EF6CB24F000
(1487342256.713894) can0 092#6FBF714073514F24
(1487342256.713895) can0 085#7F7E800008A07F71
(1487342256.714932) can0 430#37000ED5C88B7700
(1487342256.714932) can0 454#3646200372204242
(1487342256.716556) can0 3CA#FE7A981700000000
(1487342256.717807) can0 217#138C139412E412E0
(1487342256.719557) can0 047#2000000000000000
(1487342256.720557) can0 186#17B4016300580C00
(1487342256.720557) can0 165#50C3500000000000
(1487342256.720557) can0 167#72829A10001B2900
(1487342256.720558) can0 187#DB1408C800800300
(1487342256.721559) can0 200#00007F5482AB0000
(1487342256.721559) can0 202#0454680060991685
(1487342256.721559) can0 204#C3E87D0970000000
(1487342256.721560) can0 230#200600009D000000
(1487342256.723308) can0 091#7F087EF4DB25F000
(1487342256.724308) can0 092#6FB17149735D4725
(1487342256.724308) can0 082#9F08140087804000
(1487342256.724308) can0 085#7F7F800006B07F71
(1487342256.727061) can0 42C#8C40000009B00000
(1487342256.728184) can0 076#3E8CC0800FFF0000
(1487342256.728184) can0 077#161F07FB7FF7FE73
(1487342256.729183) can0 07D#0000F1E0001F480A
(1487342256.729184) can0 213#FFFF000400026640
(1487342256.729184) can0 214#000000000000F1E0
(1487342256.729185) can0 216#653097EB00000000
(1487342256.730182) can0 217#13A0139C12E812EC
(1487342256.730183) can0 3A8#0100271C00000000
(1487342256.730183) can0 415#16DEC80608070807
(1487342256.730183) can0 083#0020000000000000
(1487342256.731182) can0 167#72829A10001B2900
(1487342256.731182) can0 202#0446700060991692
(1487342256.731183) can0 204#C3E87D0978000000
(1487342256.731183) can0 2A1#FFFFFFFF00000000
(1487342256.731183) can0 41D#8000600000000000
(1487342256.732181) can0 261#0000000000000000
(1487342256.732182) can0 4B0#01008000E00000F1
(1487342256.732182) can0 42F#7D04002E67590969
(1487342256.733184) can0 078#0168800000000000
(1487342256.734181) can0 091#7F107EEED826F000
(1487342256.734182) can0 092#6FA9714D73782F26
(1487342256.734182) can0 085#7F80800004C07F71
(1487342256.734182) can0 3CC#3000000000000000
(1487342256.737560) can0 217#13B013A812F012F4
(1487342256.738559) can0 455#A000000000000000
(1487342256.739683) can0 186#17B1015C00580C00
(1487342256.740681) can0 187#DA1408C800900300
(1487342256.740682) can0 047#2000000000000000
(1487342256.740682) can0 165#50C3500000000000
(1487342256.740682) can0 167#72829710001B2A00
(1487342256.741683) can0 200#00007F5482AB0000
(1487342256.741684) can0 202#043978006099169E
(1487342256.741684) can0 204#C3E87D0977000000
(1487342256.741685) can0 230#200600009D000000
(1487342256.742932) can0 091#7F2C7EECBD27F000
(1487342256.743932) can0 092#6FB57149737C2227
(1487342256.743932) can0 082#9A08140C87804000
(1487342256.743933) can0 085#7F80800003D07F71
(1487342256.746434) can0 242#02901FB9CC000001
(1487342256.747432) can0 3CA#FE7A981600000000
(1487342256.748433) can0 076#3E8EC0800FFF0000
(1487342256.748433) can0 077#163807F97FF7EA77
(1487342256.748434) can0 07D#0000F0F0001FF808
(1487342256.749433) can0 213#FFFF000400026640
(1487342256.749434) can0 214#000000000000F0F0
(1487342256.749434) can0 216#7944ABFF00000000
(1487342256.749435) can0 217#13B813B813001300
(1487342256.750432) can0 3A8#0100271C00000000
(1487342256.750433) can0 167#72829810001B2B00
(1487342256.750433) can0 202#043E0000609916A8
(1487342256.750433) can0 204#C3E87D0979000000
(1487342256.750434) can0 33B#0000000000000000
(1487342256.751433) can0 415#1704CCDE08070807
(1487342256.751436) can0 41D#8000600000000000
(1487342256.751436) can0 4B0#01008000F00000F0
(1487342256.752682) can0 078#0068000000000000
(1487342256.753684) can0 091#7F3F7EF1A428F000
(1487342256.753685) can0 092#6FCB714073672928
(1487342256.754684) can0 085#7F80800002E07F71
(1487342256.757560) can0 217#13CC13C81308130C
(1487342256.759557) can0 047#2000000000000000
(1487342256.760556) can0 186#17AF015500580C00
(1487342256.760557) can0 05C#001000FB201E0000
(1487342256.760557) can0 165#50C3500000000000
(1487342256.760557) can0 167#72829810001B2B00
(1487342256.761560) can0 187#DA1408C800900300
(1487342256.761561) can0 200#00007F5382AB0000
(1487342256.761561) can0 202#042E0800609916B7
(1487342256.761561) can0 204#C3E87D097E000000
(1487342256.762557) can0 230#200600009D000000
(1487342256.762557) can0 42F#7D04002E675A0973
(1487342256.763559) can0 091#7F3E7EFA9B29F000
(1487342256.763560) can0 092#6FCD713F73523C29
(1487342256.764556) can0 082#A208141487804000
(1487342256.764557) can0 085#7F828000FEF07F72
(1487342256.764557) can0 3CC#3000000000000000
(1487342256.767809) can0 076#3E8FC0800FFF0000
(1487342256.768807) can0 077#165207FA7FF80A73
(1487342256.768808) can0 07D#0000FF00001FA817
(1487342256.768808) can0 213#FFFF000400026640
(1487342256.768808) can0 214#000000000000FF00
(1487342256.769934) can0 216#8E5ABF1300000000
(1487342256.769935) can0 217#13E013D413141318
(1487342256.769935) can0 3A8#0100271D00000000
(1487342256.769935) can0 167#72829A10001B2B00
(1487342256.770933) can0 202#04201000609916C4
(1487342256.770933) can0 204#C3E87D0983000000
(1487342256.770933) can0 415#1728D0B908070807
(1487342256.770934) can0 41D#8000600000000000
(1487342256.771932) can0 4B0#01008000000000FF
(1487342256.772932) can0 078#0168800000000000
(1487342256.773932) can0 05D#8357BF5B33000000
(1487342256.773932) can0 091#7F327EFCA42AF000
(1487342256.773933) can0 092#6FBA714A7351442A
(1487342256.773933) can0 085#7F8480000C007F71
(1487342256.776060) can0 42C#8C40000009B00000
(1487342256.777061) can0 3CA#FE7067E400000000
(1487342256.778056) can0 217#13E413DC13241328
(1487342256.779182) can0 186#17AE014E00590C00
(1487342256.780182) can0 187#DA1408C800900300
(1487342256.780183) can0 18A#0020180D14000000
(1487342256.780183) can0 047#2000000000000000
(1487342256.780183) can0 165#50C3500000000000
(1487342256.781184) can0 167#72829A10001B2900
(1487342256.781185) can0 178#000002110E77CE77
(1487342256.782184) can0 200#00007F5182A80000
(1487342256.782184) can0 202#040F1800609916D4
(1487342256.782184) can0 204#C3E87D0988000000
(1487342256.783185) can0 230#200600009D000000
(1487342256.783186) can0 261#0000000000000000
(1487342256.783186) can0 05A#00000045EC810000
(1487342256.784307) can0 04A#0200000000000000
(1487342256.784307) can0 04B#00C0D8D8D8D8C000
(1487342256.784307) can0 04C#105FFFC000000000
(1487342256.784308) can0 082#9908140087804000
(1487342256.784308) can0 085#7F8580000A107F71
(1487342256.785308) can0 091#7F2E7EF5AE2BF000
(1487342256.785309) can0 092#6FAF715273593E2B
(1487342256.786682) can0 242#02901FBACC000001
(1487342256.787808) can0 076#3E91C0800FFF0000
(1487342256.788807) can0 077#166C07FD7FF7FE76
(1487342256.788808) can0 07D#0000FE10001F4813
(1487342256.788808) can0 213#FFFF000400026640
(1487342256.788808) can0 214#000000000000FE10
(1487342256.789809) can0 216#A26ED32600000000
(1487342256.789810) can0 217#13E013E813301338
(1487342256.789813) can0 3A8#0100271F00000000
(1487342256.789813) can0 167#72829A10001B2900
(1487342256.790806) can0 415#1740D4A008080808
(1487342256.790807) can0 202#04002000609916E2
(1487342256.790807) can0 204#C3E87D0988000000
(1487342256.790807) can0 416#5100FD0001000000
(1487342256.791932) can0 41D#8000600000000000
(1487342256.791932) can0 4B0#01008000100000FE
(1487342256.791933) can0 42F#7D04002E67590983
(1487342256.792932) can0 078#0569800000000000
(1487342256.793932) can0 091#7F2C7EF3B12CF000
(1487342256.793932) can0 092#6FB6714C735A3B2C
(1487342256.793932) can0 085#7F85800009207F71
(1487342256.794933) can0 3CC#3000000000000000
(1487342256.796557) can0 3D8#0000000080456030
(1487342256.797559) can0 3CD#0000000000000000
(1487342256.798557) can0 217#13E413F413401344
(1487342256.798557) can0 3A7#0E401A045F700000
(1487342256.799558) can0 186#17AE014E00590C00
(1487342256.799558) can0 187#DA1408C800900300
(1487342256.799559) can0 047#2000000000000000
(1487342256.800558) can0 165#50C3500000000000
(1487342256.800558) can0 167#72829510001B2A00
(1487342256.800558) can0 200#00007F5082A60000
(1487342256.801557) can0 202#04F02800609916F1
(1487342256.801557) can0 204#C3E87D098B000000
(1487342256.801558) can0 230#200600009D000000
(1487342256.803307) can0 091#7F247EF7B42DF000
(1487342256.804308) can0 092#6FC8713E73543C2D
(1487342256.804309) can0 082#A208141487804000
(1487342256.804309) can0 085#7F85800008307F71
(1487342256.806557) can0 3CA#FE7067E400000000
(1487342256.807807) can0 076#3E94C0800FFF0000
(1487342256.808807) can0 077#168807FB7FF7F677
(1487342256.808807) can0 07D#0000FD20001F6811
(1487342256.808807) can0 213#FFFF000400026740
(1487342256.808808) can0 214#000000000000FD20
(1487342256.809811) can0 216#B682E73A00000000
(1487342256.809811) can0 217#13F413FC134C1350
(1487342256.809811) can0 3A8#0100272000000000
(1487342256.809812) can0 415#174AD89508090809
(1487342256.810810) can0 167#72829810001B2B00
(1487342256.810811) can0 202#04E23000609916FE
(1487342256.810811) can0 204#C3E87D098E000000
(1487342256.810811) can0 33B#0000000000000000
(1487342256.811807) can0 41D#8000600000000000
(1487342256.811808) can0 4B0#01008000200000FD
(1487342256.812809) can0 078#0068000000000000
(1487342256.813936) can0 422#000000933802FE02
(1487342256.813936) can0 423#CA20000000000000
(1487342256.813937) can0 091#7F1B7F00B22EF000
(1487342256.813937) can0 092#6FD2713B7354342E
(1487342256.813937) can0 085#7F87800004407F72
(1487342256.814932) can0 430#37000ED5C88B7700
(1487342256.814933) can0 3A6#0E401A045F700000
(1487342256.815933) can0 084#11000030241C0900
(1487342256.817809) can0 217#14041404135C135C
(1487342256.818934) can0 186#17AD014800590C00
(1487342256.819932) can0 187#DA1408C800900300
(1487342256.819932) can0 047#2000000000000000
(1487342256.820936) can0 165#50C3500000000000
(1487342256.820937) can0 167#72829810001B2B00
(1487342256.820937) can0 200#00007F4F82A60000
(1487342256.821931) can0 202#04D338006099170B
(1487342256.821932) can0 204#C3E87D0996000000
(1487342256.821932) can0 230#200600009D000000
