(1487168660.390461) vcan1 186#140701FA008505FA
(1487168660.391646) vcan1 18A#00201A0114000000
(1487168660.392626) vcan1 085#7C55800058607C54
(1487168660.392968) vcan1 091#7EF47F2B6D70F000
(1487168660.393275) vcan1 092#6FD36FC473506E70
(1487168660.393698) vcan1 3CA#8280087800000000
(1487168660.393988) vcan1 422#000000933802FE02
(1487168660.394281) vcan1 3A8#0100271300000000
(1487168660.394827) vcan1 167#72801C10001A2A00
(1487168660.395147) vcan1 077#19D208057FF82A01
(1487168660.395435) vcan1 07D#0000F1E0001FA7F9
(1487168660.395772) vcan1 202#040A2000608519D5
(1487168660.396062) vcan1 204#C0007D036D000000
(1487168660.396418) vcan1 216#3CD1131700000000
(1487168660.396724) vcan1 217#161C16281614161C
(1487168660.397073) vcan1 415#19DBC80608030803
(1487168660.397413) vcan1 430#37000CF3C88DF700
(1487168660.397774) vcan1 4B0#01008000E00000F1
(1487168660.399185) vcan1 3C3#62C0000000000000
(1487168660.401320) vcan1 082#6708140089804000
(1487168660.402516) vcan1 085#7C54800058707C54
(1487168660.402861) vcan1 091#7EF77F2C6871F000
(1487168660.403111) vcan1 092#6FCC6FC3734D7871
(1487168660.403557) vcan1 217#161C162C161C1618
(1487168660.404660) vcan1 165#10CD460000000000
(1487168660.404897) vcan1 167#72801C10001A2A00
(1487168660.405128) vcan1 200#00007FF080220000
(1487168660.405998) vcan1 202#04082800608519D6
(1487168660.406228) vcan1 204#C0007D036D000000
(1487168660.410188) vcan1 186#140701FA008505FA
(1487168660.412387) vcan1 085#7C53800058807C54
(1487168660.412757) vcan1 091#7EF07F2C6E72F000
(1487168660.413471) vcan1 092#6FC56FC273527A72
(1487168660.414649) vcan1 167#72801C10001A2A00
(1487168660.414994) vcan1 077#19D308067FF81E03
(1487168660.415208) vcan1 07D#0000F0F0001F17FF
(1487168660.415668) vcan1 202#04073000608519D6
(1487168660.415931) vcan1 204#C0007D036D000000
(1487168660.416792) vcan1 216#53E8282E00000000
(1487168660.417020) vcan1 217#161C162C16201618
(1487168660.417224) vcan1 415#19DDCC0308020802
(1487168660.417517) vcan1 42F#7D04002E661C036D
(1487168660.417706) vcan1 4B0#01008000F00000F0
(1487168660.418980) vcan1 242#05B32003CE000001
(1487168660.422302) vcan1 082#6508140089804000
(1487168660.422708) vcan1 085#7C5180005A907C53
(1487168660.423269) vcan1 091#7EE87F2C7573F000
(1487168660.423895) vcan1 092#6FC46FC1735A7373
(1487168660.424455) vcan1 3CA#8280087800000000
(1487168660.424713) vcan1 217#1620163016241618
(1487168660.424970) vcan1 165#10CD460000000000
(1487168660.425535) vcan1 167#72801C10001A2A00
(1487168660.425733) vcan1 178#000002000E79CA79
(1487168660.425916) vcan1 200#00007FF080210000
(1487168660.426509) vcan1 202#04053800608519D7
(1487168660.426683) vcan1 204#C0007D036E000000
(1487168660.428693) vcan1 3C3#7EC0000000000000
(1487168660.430910) vcan1 186#140601FA008505FA
(1487168660.432193) vcan1 085#7C50800059A07C54
(1487168660.433475) vcan1 091#7EDD7F2A8174F000
(1487168660.433705) vcan1 092#6FC96FBD73626974
(1487168660.434331) vcan1 077#19D508067FF81603
(1487168660.434532) vcan1 07D#0000FF00001F57FC
(1487168660.435456) vcan1 167#72801C10001A2A00
(1487168660.435675) vcan1 202#04034000608519D8
(1487168660.435933) vcan1 204#C0007D036E000000
(1487168660.436138) vcan1 216#6AFF3F4500000000
(1487168660.436379) vcan1 217#162016301624161C
(1487168660.436532) vcan1 415#19E1D0FE08010801
(1487168660.436680) vcan1 4B0#01008000000000FF
(1487168660.442303) vcan1 091#7ECB7F289475F000
(1487168660.442515) vcan1 082#6308140089804000
(1487168660.442725) vcan1 085#7C4E80005BB07C53
(1487168660.442970) vcan1 092#6FCD6FB8735E6D75
(1487168660.443248) vcan1 217#1620162C16201620
(1487168660.444365) vcan1 165#10CD460000000000
(1487168660.444594) vcan1 167#72801C10001A2A00
(1487168660.444901) vcan1 200#00007FF080210000
(1487168660.445179) vcan1 202#04014800608519D9
(1487168660.445436) vcan1 204#C0007D036E000000
(1487168660.445640) vcan1 42F#7D04002E661C036E
(1487168660.450037) vcan1 186#140501FA008505FA
(1487168660.452383) vcan1 085#7C4E800059C07C54
(1487168660.452643) vcan1 091#7EBE7F25A376F000
(1487168660.453386) vcan1 092#6FCF6FB973527576
(1487168660.453592) vcan1 3CA#8280087800000000
(1487168660.454502) vcan1 167#72801C10001A2A00
(1487168660.454718) vcan1 076#3E7CC0800FFF0000
(1487168660.454949) vcan1 077#19D708057FF81E00
(1487168660.455156) vcan1 07D#0000FE10001F67F3
(1487168660.455401) vcan1 202#04FF5000608519DA
(1487168660.455607) vcan1 204#C0007D036F000000
(1487168660.455865) vcan1 216#8116565C00000000
(1487168660.456026) vcan1 217#1624162C16141628
(1487168660.456179) vcan1 415#19E0D4FE08000800
(1487168660.456573) vcan1 4B0#01008000100000FE
(1487168660.458877) vcan1 242#05B32005CE000001
(1487168660.461082) vcan1 091#7EBA7F23A877F000
(1487168660.462108) vcan1 082#6208140089804000
(1487168660.462330) vcan1 085#7C4D800059D07C54
(1487168660.462563) vcan1 092#6FCF6FB973557177
(1487168660.463198) vcan1 217#1624163016101624
(1487168660.464257) vcan1 165#10CD460000000000
(1487168660.464473) vcan1 167#72801C10001A2A00
(1487168660.464685) vcan1 200#00007FF080210000
(1487168660.464915) vcan1 202#04FD5800608519DB
(1487168660.465320) vcan1 204#C0007D036F000000
(1487168660.469740) vcan1 186#140501FA008505FA
(1487168660.473216) vcan1 085#7C4C800059E07C54
(1487168660.473459) vcan1 091#7EBC7F20A878F000
(1487168660.473680) vcan1 092#6FCB6FB9736B5E78
(1487168660.474164) vcan1 3A8#0100270D00000000
(1487168660.474405) vcan1 167#72801C10001A2A00
(1487168660.474592) vcan1 076#3E7AC0800FFF0000
(1487168660.474819) vcan1 077#19D908037FF82200
(1487168660.475275) vcan1 07D#0000FD20001F47ED
(1487168660.475515) vcan1 202#04FC6000608519DB
(1487168660.475808) vcan1 204#C0007D036E000000
(1487168660.476144) vcan1 216#972D6D7100000000
(1487168660.476362) vcan1 217#16281630160C1628
(1487168660.476528) vcan1 415#19E6D8F708000800
(1487168660.476682) vcan1 42F#7D04002E661C036E
(1487168660.477440) vcan1 4B0#01008000200000FD
(1487168660.481989) vcan1 082#6208140089804000
(1487168660.482996) vcan1 085#7C4C800058F07C54
(1487168660.483291) vcan1 091#7EBA7F1DAC79F000
(1487168660.483524) vcan1 092#6FC86FBC73844479
(1487168660.483772) vcan1 217#1628163016101624
(1487168660.484067) vcan1 165#10CD460000000000
(1487168660.484283) vcan1 167#72801C10001A2A00
(1487168660.484481) vcan1 200#00007FF080210000
(1487168660.485092) vcan1 202#04F96800608519DD
(1487168660.485274) vcan1 204#C0007D036E000000
(1487168660.485472) vcan1 3CA#8280087800000000
(1487168660.489497) vcan1 186#140401FA008505FA
(1487168660.490763) vcan1 18A#00201A0114000000
(1487168660.491704) vcan1 085#7C4C800067007C54
(1487168660.492812) vcan1 091#7EB17F19B87AF000
(1487168660.493057) vcan1 092#6FC66FBD738A3E7A
(1487168660.493817) vcan1 422#000000933802FE02
(1487168660.494040) vcan1 3A8#0100270A00000000
(1487168660.494283) vcan1 430#37000CF3C88D7700
(1487168660.494909) vcan1 076#3E78C0800FFF0000
(1487168660.495126) vcan1 077#19DA08017FF81E00
(1487168660.495347) vcan1 07D#0000FC30001FA7ED
(1487168660.495567) vcan1 167#72801C10001A2A00
(1487168660.496018) vcan1 202#04F77000608519DE
(1487168660.496250) vcan1 204#C0007D036E000000
(1487168660.496552) vcan1 216#AD44848800000000
(1487168660.497076) vcan1 217#162416301610161C
(1487168660.497287) vcan1 415#19E8DCF407FF07FF
(1487168660.497510) vcan1 4B0#01008000300000FC
(1487168660.499308) vcan1 242#05B32006CE000001
(1487168660.501489) vcan1 082#6408140489804000
(1487168660.502532) vcan1 085#7C4C800066107C54
(1487168660.502794) vcan1 091#7EA47F16C77BF000
(1487168660.503068) vcan1 092#6FC56FBA737E4D7B
(1487168660.503710) vcan1 217#1624162C16141618
(1487168660.504857) vcan1 165#10CD460000000000
(1487168660.505092) vcan1 167#72801C10001A2A00
(1487168660.505838) vcan1 200#00007FF080210000
(1487168660.506233) vcan1 202#04F57800608519DF
(1487168660.506563) vcan1 204#C0007D036E000000
(1487168660.506938) vcan1 42F#7D04002E661C036E
(1487168660.510175) vcan1 186#140401FA008505FA
(1487168660.512391) vcan1 085#7C4C800065207C54
(1487168660.512633) vcan1 091#7E957F16D57CF000
(1487168660.512865) vcan1 092#6FC66FB77376567C
(1487168660.513071) vcan1 3CA#827FF87200000000
(1487168660.513387) vcan1 3A8#0100270900000000
(1487168660.513635) vcan1 167#72801C10001A2A00
(1487168660.514491) vcan1 076#3E78C0800FFF0000
(1487168660.514701) vcan1 077#19DA07FF7FF81601
(1487168660.514928) vcan1 07D#0000FB40001FF7E6
(1487168660.515155) vcan1 202#04030000608519E0
(1487168660.515389) vcan1 204#C0007D036E000000
(1487168660.515677) vcan1 216#C45A9B9F00000000
(1487168660.515902) vcan1 217#1620163016181618
(1487168660.516589) vcan1 415#19E1E0FA07FE07FE
(1487168660.516797) vcan1 4B0#01008000400000FB
(1487168660.522122) vcan1 091#7E857F16E47DF000
(1487168660.522323) vcan1 082#6608140089804000
(1487168660.522531) vcan1 085#7C4C800064307C54
(1487168660.523299) vcan1 092#6FC96FB6737A4F7D
(1487168660.524396) vcan1 217#16201634161C1618
(1487168660.524637) vcan1 165#10CD460000000000
(1487168660.525448) vcan1 167#72801C10001A2A00
(1487168660.525679) vcan1 178#000002000E79CA79
(1487168660.525897) vcan1 200#00007FF080200000
(1487168660.526129) vcan1 202#04020800608519E0
(1487168660.526438) vcan1 204#C0007D036F000000
(1487168660.529737) vcan1 186#140C01FA008505FA
(1487168660.530923) vcan1 085#7C4C800063407C54
(1487168660.532021) vcan1 091#7E7B7F16ED7EF000
(1487168660.532260) vcan1 092#6FCE6FB57382427E
(1487168660.533068) vcan1 3A8#0100270900000000
(1487168660.533327) vcan1 167#72801C10001A2A00
(1487168660.534138) vcan1 076#3E78C0800FFF0000
(1487168660.534361) vcan1 077#19D907FF7FF819FF
(1487168660.534581) vcan1 07D#0000FA50001FE7DC
(1487168660.534829) vcan1 202#04011000608519E0
(1487168660.535045) vcan1 204#C0007D036F000000
(1487168660.535296) vcan1 216#DB71B1B600000000
(1487168660.535458) vcan1 217#162416301620161C
(1487168660.536195) vcan1 415#19E4E4F607FD07FD
(1487168660.536360) vcan1 42F#7D04002E661C036E
(1487168660.536563) vcan1 4B0#01008000500000FA
(1487168660.538495) vcan1 242#05B32001CE000001
(1487168660.541683) vcan1 082#6708140089804000
(1487168660.542745) vcan1 085#7C4C800062507C54
(1487168660.543010) vcan1 091#7E7B7F14EE7FF000
(1487168660.543252) vcan1 092#6FD06FB373883B7F
(1487168660.543463) vcan1 3CA#827FF87200000000
(1487168660.543814) vcan1 217#162816341620161C
(1487168660.544896) vcan1 165#10CD460000000000
(1487168660.545127) vcan1 167#72801C10001A2A00
(1487168660.545348) vcan1 200#00007FF080200000
(1487168660.545583) vcan1 202#04001800608519E0
(1487168660.545923) vcan1 204#C0007D036E000000
(1487168660.549228) vcan1 186#140C01FA008505FA
(1487168660.551340) vcan1 085#7C4C800061607C54
(1487168660.552463) vcan1 091#7E7D7F13EC80F000
(1487168660.552700) vcan1 092#6FCE6FB0738B3C80
(1487168660.553534) vcan1 3A8#0100270900000000
(1487168660.553780) vcan1 076#3E78C0800FFF0000
(1487168660.554544) vcan1 077#19D907FF7FF821FF
(1487168660.554760) vcan1 07D#0000F960002037D9
(1487168660.555000) vcan1 167#72801C10001A2A00
(1487168660.555237) vcan1 202#04FE2000608519E1
(1487168660.555712) vcan1 204#C0007D036E000000
(1487168660.555930) vcan1 216#F287C7CD00000000
(1487168660.556739) vcan1 217#1628163416201620
(1487168660.556961) vcan1 415#19EAE8EF07FC07FC
(1487168660.557182) vcan1 4B0#01008000600000F9
(1487168660.561187) vcan1 091#7E857F11E581F000
(1487168660.562274) vcan1 082#6708140089804000
(1487168660.562497) vcan1 085#7C4C800060707C54
(1487168660.562727) vcan1 092#6FC96FB173894181
(1487168660.563377) vcan1 217#1628163016181624
(1487168660.564505) vcan1 165#10CD460000000000
(1487168660.564730) vcan1 167#72801C10001A2A00
(1487168660.564948) vcan1 200#00007FF080200000
(1487168660.565611) vcan1 202#04FC2800608519E2
(1487168660.565827) vcan1 204#C0007D036E000000
(1487168660.566676) vcan1 42F#7D04002E661C036E
(1487168660.568916) vcan1 186#141001FA008505FA
(1487168660.572221) vcan1 085#7C4C80005F807C54
(1487168660.572459) vcan1 091#7E957F0FD682F000
(1487168660.572689) vcan1 092#6FC66FB673864182
(1487168660.572894) vcan1 3CA#827FF87200000000
(1487168660.573245) vcan1 3A8#0100270900000000
(1487168660.573473) vcan1 167#72801C10001A2A00
(1487168660.574366) vcan1 076#3E78C0800FFF0000
(1487168660.574580) vcan1 077#19D907FF7FF819FF
(1487168660.574795) vcan1 07D#0000F870002037DC
(1487168660.575053) vcan1 202#04FA3000608519E3
(1487168660.575441) vcan1 204#C0007D036E000000
(1487168660.575673) vcan1 216#099EDEE400000000
(1487168660.576634) vcan1 217#162C163016141624
(1487168660.576863) vcan1 415#19E7ECF107FB07FB
(1487168660.577667) vcan1 4B0#01008000700000F8
(1487168660.578763) vcan1 242#05B32001CE000001
(1487168660.579906) vcan1 40A#C000000740C19A00
(1487168660.582139) vcan1 082#6608140089804000
(1487168660.582360) vcan1 085#7C4C80005E907C54
(1487168660.583225) vcan1 091#7EAB7F0CC283F000
(1487168660.583455) vcan1 092#6FC76FB973853D83
(1487168660.583700) vcan1 217#1628162C16101628
(1487168660.584334) vcan1 165#10CD460000000000
(1487168660.584556) vcan1 167#72801C10001A2A00
(1487168660.584770) vcan1 200#00007FF080200000
(1487168660.585442) vcan1 202#04F93800608519E3
(1487168660.585659) vcan1 204#C0007D036E000000
(1487168660.588715) vcan1 186#141201FA008505FA
(1487168660.589848) vcan1 18A#00201A0114000000
(1487168660.592049) vcan1 085#7C4C80005DA07C54
(1487168660.592288) vcan1 091#7EC07F08B084F000
(1487168660.592518) vcan1 092#6FC96FBA73853984
(1487168660.592717) vcan1 422#000000933802FE02
(1487168660.593116) vcan1 430#37000CF3C88D7700
(1487168660.593319) vcan1 3A8#0100270900000000
(1487168660.593575) vcan1 167#72801C10001A2A00
(1487168660.594199) vcan1 076#3E78C0800FFF0000
(1487168660.594402) vcan1 077#19DA07FD7FF819FF
(1487168660.594617) vcan1 07D#0000F780002027E9
(1487168660.594867) vcan1 202#04F74000608519E4
(1487168660.595306) vcan1 204#C0007D036E000000
(1487168660.595570) vcan1 216#20B5F5FB00000000
(1487168660.596423) vcan1 217#1628162C16181624
(1487168660.596640) vcan1 415#19E7F0F007FA07FA
(1487168660.596856) vcan1 42F#7D04002E661B036E
(1487168660.597056) vcan1 4B0#01008000800000F7
(1487168660.601829) vcan1 082#6508140089804000
(1487168660.602957) vcan1 085#7C4C80005CB07C54
(1487168660.603197) vcan1 091#7ED07F05A285F000
(1487168660.603427) vcan1 092#6FC86FB873823E85
(1487168660.603631) vcan1 3CA#827FF87200000000
(1487168660.603974) vcan1 217#1628163016181620
(1487168660.604197) vcan1 165#10CD460000000000
(1487168660.604377) vcan1 167#72801B10001A2A00
(1487168660.604551) vcan1 200#00007FF080200000
(1487168660.605083) vcan1 202#04F64800608519E4
(1487168660.605265) vcan1 204#C0007D036E000000
(1487168660.608438) vcan1 186#141201FA008505FA
(1487168660.611753) vcan1 085#7C4C80005BC07C54
(1487168660.612888) vcan1 091#7EDB7F059686F000
(1487168660.613126) vcan1 092#6FC26FB373814986
(1487168660.613330) vcan1 3A8#0100270900000000
(1487168660.613938) vcan1 167#72801C10001A2A00
(1487168660.614141) vcan1 076#3E78C0800FFF0000
(1487168660.614348) vcan1 077#19DB07FB7FF81A00
(1487168660.614563) vcan1 07D#0000F690002017F4
(1487168660.614813) vcan1 202#04F55000608519E4
(1487168660.615009) vcan1 204#C0007D036E000000
(1487168660.615176) vcan1 216#36CC0C1000000000
(1487168660.615320) vcan1 217#162416301618161C
(1487168660.616177) vcan1 415#19E6F4F007FA07FA
(1487168660.616493) vcan1 4B0#01008000900000F6
(1487168660.619413) vcan1 242#05B32001CE000001
(1487168660.621592) vcan1 082#6508140089804000
(1487168660.622695) vcan1 085#7C4C80005AD07C54
(1487168660.622946) vcan1 091#7EE17F088C87F000
(1487168660.623190) vcan1 092#6FBE6FB0738F4187
(1487168660.623785) vcan1 217#16241634161C1618
(1487168660.624917) vcan1 165#10CD460000000000
(1487168660.625145) vcan1 167#72801C10001A2A00
(1487168660.625985) vcan1 178#000002000E79CA79
(1487168660.626205) vcan1 200#00007FF0801F0000
(1487168660.626437) vcan1 202#04F45800608519E4
(1487168660.626650) vcan1 204#C0007D036F000000
(1487168660.627064) vcan1 42F#7D04002E661B036E
(1487168660.628199) vcan1 186#141301FA008505FA
(1487168660.631515) vcan1 085#7C4C800059E07C54
(1487168660.632687) vcan1 091#7EE07F0D8788F000
(1487168660.632913) vcan1 092#6FBD6FB073A22E88
(1487168660.633113) vcan1 3CA#827FF87100000000
(1487168660.633680) vcan1 3A8#0100270900000000
(1487168660.633921) vcan1 167#72801B10001A2900
(1487168660.634112) vcan1 076#3E7AC0800FFF0000
(1487168660.634773) vcan1 077#19DA07FC7FF80DFF
(1487168660.634997) vcan1 07D#0000F5A0002047F9
(1487168660.635225) vcan1 202#04F36000608519E4
(1487168660.635476) vcan1 204#C0007D036F000000
(1487168660.635920) vcan1 216#4DE2232700000000
(1487168660.636137) vcan1 217#1624163416241618
(1487168660.636998) vcan1 415#19E6F8EF07F907F9
(1487168660.637221) vcan1 4B0#01008000A00000F5
(1487168660.641433) vcan1 091#7ED97F118989F000
(1487168660.642499) vcan1 082#6508140089804000
(1487168660.642717) vcan1 085#7C4C800058F07C54
(1487168660.642958) vcan1 092#6FBC6FB173A42B89
(1487168660.643622) vcan1 217#162416341624161C
(1487168660.644723) vcan1 165#10CD460000000000
(1487168660.644938) vcan1 167#72801B10001A2A00
(1487168660.645147) vcan1 200#00007FF0801F0000
(1487168660.645827) vcan1 202#04F26800608519E4
(1487168660.646042) vcan1 204#C0007D036E000000
(1487168660.648002) vcan1 186#141401FA008505FA
(1487168660.652413) vcan1 085#7C4C800067007C54
(1487168660.652653) vcan1 091#7ED27F118F8AF000
(1487168660.652884) vcan1 092#6FBE6FB27395368A
(1487168660.653483) vcan1 3A8#0100270A00000000
(1487168660.653731) vcan1 167#72801B10001A2A00
(1487168660.654583) vcan1 076#3E7AC0800FFF0000
(1487168660.654810) vcan1 077#19DA07FF7FF80DFF
(1487168660.655028) vcan1 07D#0000F4B00020A7F7
(1487168660.655260) vcan1 202#04F17000608519E4
(1487168660.655682) vcan1 204#C0007D036E000000
(1487168660.655950) vcan1 216#64F9393E00000000
(1487168660.656804) vcan1 217#1624163016241620
(1487168660.657017) vcan1 415#19E5FCEF07F907F9
(1487168660.657228) vcan1 42F#7D04002E661B036F
(1487168660.657425) vcan1 4B0#01008000B00000F4
(1487168660.659000) vcan1 242#05B31FFFCE000001
(1487168660.661182) vcan1 082#6508140489804000
(1487168660.662313) vcan1 085#7C4C800066107C54
(1487168660.662595) vcan1 091#7ED07F0F928BF000
(1487168660.662924) vcan1 092#6FBF6FB17381498B
(1487168660.663143) vcan1 3CA#827FF87100000000
(1487168660.663394) vcan1 217#1628163016241624
(1487168660.664485) vcan1 165#10CD460000000000
(1487168660.664702) vcan1 167#72801B10001A2A00
(1487168660.664916) vcan1 200#00007FF0801F0000
(1487168660.665590) vcan1 202#04F07800608519E4
(1487168660.665804) vcan1 204#C0007D036E000000
(1487168660.667766) vcan1 186#141101FA008505FA
(1487168660.672200) vcan1 085#7C4C800065207C54
(1487168660.672459) vcan1 091#7ECD7F0B988CF000
(1487168660.672688) vcan1 092#6FBD6FB17375568C
(1487168660.673275) vcan1 3A8#0100270A00000000
(1487168660.673522) vcan1 167#72801B10001A2900
(1487168660.674374) vcan1 076#3E7AC0800FFF0000
(1487168660.674584) vcan1 077#19DA07FE7FF811FF
(1487168660.674793) vcan1 07D#0000F3C0002007F4
(1487168660.675037) vcan1 202#04FF0000608519E4
(1487168660.675467) vcan1 204#C0007D036E000000
(1487168660.675735) vcan1 216#7B10505500000000
(1487168660.676644) vcan1 217#1628162C16201624
(1487168660.676880) vcan1 415#19E6C0FD07F907F9
(1487168660.677679) vcan1 4B0#01008000C00000F3
(1487168660.680995) vcan1 082#6608140089804000
(1487168660.682121) vcan1 085#7C4C800064307C54
(1487168660.683256) vcan1 091#7ECE7F08998DF000
(1487168660.683497) vcan1 092#6FBC6FB4737A4E8D
(1487168660.683750) vcan1 217#1628162C16181624
(1487168660.684339) vcan1 165#10CD460000000000
(1487168660.684559) vcan1 167#72801B10001A2900
(1487168660.685432) vcan1 200#00007FF0801F0000
(1487168660.685669) vcan1 202#04FE0800608519E4
(1487168660.685881) vcan1 204#C0007D036E000000
(1487168660.686528) vcan1 42F#7D04002E661B036E
(1487168660.688854) vcan1 186#141001FA008505FA
(1487168660.689897) vcan1 18A#00201A0114000000
(1487168660.692090) vcan1 085#7C4C800063407C54
(1487168660.692313) vcan1 3CA#827FF87100000000
(1487168660.692549) vcan1 091#7ED07F06988EF000
(1487168660.692781) vcan1 092#6FC06FB57389398E
(1487168660.693239) vcan1 422#000000933802FE02
(1487168660.693532) vcan1 3A8#0100270A00000000
(1487168660.693754) vcan1 430#37000CF3C88D7700
(1487168660.694231) vcan1 076#3E7AC0800FFF0000
(1487168660.694439) vcan1 077#19DA07FC7FF80DFF
(1487168660.694644) vcan1 07D#0000F2D0001FD7F3
(1487168660.694861) vcan1 167#72801B10001A2900
(1487168660.695374) vcan1 202#04FD1000608519E4
(1487168660.695579) vcan1 204#C0007D036E000000
(1487168660.695833) vcan1 216#9227676C00000000
(1487168660.696519) vcan1 217#1628162C16181624
(1487168660.696741) vcan1 415#19E4C4FE07F907F9
(1487168660.696955) vcan1 4B0#01008000D00000F2
(1487168660.698711) vcan1 242#05B31FFFCE000001
(1487168660.700906) vcan1 082#6608140089804000
(1487168660.702030) vcan1 085#7C4C800062507C54
(1487168660.702263) vcan1 091#7ED07F06978FF000
(1487168660.703143) vcan1 092#6FC66FB373902D8F
(1487168660.704242) vcan1 217#1624162C16141624
(1487168660.704516) vcan1 165#10CD460000000000
(1487168660.704722) vcan1 167#72801B10001A2900
(1487168660.704932) vcan1 200#00007FF0801F0000
(1487168660.705353) vcan1 202#04FC1800608519E4
(1487168660.705568) vcan1 204#C0007D036E000000
(1487168660.707527) vcan1 186#141001FA008505FA
(1487168660.711892) vcan1 085#7C4C800061607C54
(1487168660.712117) vcan1 091#7ECE7F069890F000
(1487168660.712340) vcan1 092#6FC96FB073893390
(1487168660.712989) vcan1 3A8#0100270A00000000
(1487168660.713241) vcan1 167#72801B10001A2900
(1487168660.714083) vcan1 076#3E7AC0800FFF0000
(1487168660.714295) vcan1 077#19DA07FB7FF819FF
(1487168660.714499) vcan1 07D#0000F1E0002057F4
(1487168660.714742) vcan1 202#04FC2000608519E3
(1487168660.715136) vcan1 204#C0007D036E000000
(1487168660.715388) vcan1 216#A93E7D8300000000
(1487168660.716255) vcan1 217#1624162816181620
(1487168660.716475) vcan1 415#19E2C8FF07F907F9
(1487168660.717327) vcan1 42F#7D04002E661B036E
(1487168660.717531) vcan1 4B0#01008000E00000F1
(1487168660.720627) vcan1 05D#83579F5F37000000
(1487168660.721738) vcan1 082#6608140089804000
(1487168660.721960) vcan1 085#7C4C800060707C54
(1487168660.722194) vcan1 091#7ED57F088E91F000
(1487168660.722869) vcan1 092#6FC76FAF737D4191
(1487168660.723082) vcan1 3CA#827FF87100000000
(1487168660.723943) vcan1 217#1620162816181620
(1487168660.725107) vcan1 165#10CD460000000000
(1487168660.725318) vcan1 167#72801B10001A2900
(1487168660.725517) vcan1 178#000002000E79CA79
(1487168660.726117) vcan1 200#00007FF0801F0000
(1487168660.726386) vcan1 202#04FB2800608519E3
(1487168660.726593) vcan1 204#C0007D036E000000
(1487168660.728308) vcan1 186#140F01FA008505FA
(1487168660.731574) vcan1 085#7C4C80005F807C54
(1487168660.732726) vcan1 091#7EE97F087992F000
(1487168660.732942) vcan1 092#6FC46FB073734C92
(1487168660.733746) vcan1 3A8#0100270A00000000
(1487168660.733982) vcan1 167#72801B10001A2900
(1487168660.734855) vcan1 076#3E7AC0800FFF0000
(1487168660.735052) vcan1 077#19DA07FC7FF819FE
(1487168660.735249) vcan1 07D#0000F0F0001FF7F5
(1487168660.735469) vcan1 202#04FB3000608519E2
(1487168660.735670) vcan1 204#C0007D036E000000
(1487168660.735927) vcan1 216#BE54949A00000000
(1487168660.736140) vcan1 217#1620162C161C1618
(1487168660.736349) vcan1 415#19DECC0207F907F9
(1487168660.736939) vcan1 4B0#01008000F00000F0
(1487168660.739161) vcan1 242#05B31FFFCE000001
(1487168660.741367) vcan1 091#7F037F085D93F000
(1487168660.742413) vcan1 082#6708140089804000
(1487168660.742612) vcan1 085#7C4C80005E907C54
(1487168660.742837) vcan1 092#6FBF6FB4736C5393
(1487168660.744610) vcan1 217#161C162C1624161C
(1487168660.744815) vcan1 165#10CD460000000000
(1487168660.745012) vcan1 167#72801B10001A2900
(1487168660.745214) vcan1 200#00007FF0801F0000
(1487168660.745674) vcan1 202#04FB3800608519E1
(1487168660.745870) vcan1 204#C0007D036E000000
(1487168660.746070) vcan1 42F#7D04002E661B036E
(1487168660.746749) vcan1 186#140E01FA008505FA
(1487168660.752289) vcan1 085#7C4C80005DA07C54
(1487168660.752512) vcan1 3CA#827FE87100000000
(1487168660.752744) vcan1 091#7F157F094994F000
(1487168660.752980) vcan1 092#6FB86FB873685994
(1487168660.753339) vcan1 3A8#0100270A00000000
(1487168660.754407) vcan1 076#3E7AC0800FFF0000
(1487168660.754620) vcan1 077#19D907FC7FF811FF
(1487168660.754852) vcan1 07D#0000FF00001FA803
(1487168660.755082) vcan1 167#72801B10001A2900
(1487168660.755530) vcan1 202#04FB4000608519E0
(1487168660.755800) vcan1 204#C0007D036E000000
(1487168660.756095) vcan1 216#D56BABAF00000000
(1487168660.756598) vcan1 217#1620162C1624161C
(1487168660.756822) vcan1 415#19DFD00007F907F9
(1487168660.757051) vcan1 4B0#01008000000000FF
(1487168660.760935) vcan1 091#7F177F0A4595F000
(1487168660.761993) vcan1 082#6708140089804000
(1487168660.762215) vcan1 085#7C4C80005CB07C54
(1487168660.762454) vcan1 092#6FB06FB973695E95
(1487168660.763114) vcan1 217#1620162C1624161C
(1487168660.764193) vcan1 165#10CD460000000000
(1487168660.764421) vcan1 167#72801B10001A2900
(1487168660.764641) vcan1 200#00007FF0801F0000
(1487168660.764891) vcan1 202#04FA4800608519E0
(1487168660.765284) vcan1 204#C0007D036E000000
(1487168660.767463) vcan1 186#140E01FA008505FA
(1487168660.771808) vcan1 085#7C4C80005BC07C54
(1487168660.772047) vcan1 091#7F0F7F0B4B96F000
(1487168660.772285) vcan1 092#6FAE6FB4736D6096
(1487168660.772902) vcan1 3A8#0100270A00000000
(1487168660.773157) vcan1 167#72801B10001A2900
(1487168660.773998) vcan1 076#3E7AC0800FFF0000
(1487168660.774222) vcan1 077#19DA07FC7FF7FE00
(1487168660.774446) vcan1 07D#0000FE10001FA809
(1487168660.774691) vcan1 202#04FA5000608519DF
(1487168660.775097) vcan1 204#C0007D036E000000
(1487168660.775378) vcan1 216#EC81C2C600000000
(1487168660.776330) vcan1 217#1620162C16241620
(1487168660.777269) vcan1 415#19E1D4FD07F907F9
(1487168660.777493) vcan1 42F#7D04002E661B036E
(1487168660.777718) vcan1 4B0#01008000100000FE
(1487168660.779437) vcan1 242#05B31FFFCE000001
(1487168660.782750) vcan1 082#6608140089804000
(1487168660.782990) vcan1 085#7C4C80005AD07C54
(1487168660.783228) vcan1 091#7EFF7F0C5A97F000
(1487168660.783833) vcan1 092#6FB16FAE73705F97
(1487168660.784054) vcan1 3CA#827FE87100000000
(1487168660.784913) vcan1 165#10CD460000000000
(1487168660.785137) vcan1 167#72801B10001A2900
(1487168660.785359) vcan1 200#00007FF0801F0000
(1487168660.785602) vcan1 202#04F95800608519DF
(1487168660.786000) vcan1 204#C0007D036E000000
(1487168660.786234) vcan1 217#1620162C16181620
(1487168660.787091) vcan1 186#140D01FA008505FA
(1487168660.788303) vcan1 18A#00201A0114000000
(1487168660.792535) vcan1 085#7C4C800059E07C54
(1487168660.792792) vcan1 091#7EF27F0B6798F000
(1487168660.793030) vcan1 092#6FB96FAD73705798
(1487168660.793624) vcan1 422#000000933802FE02
(1487168660.793849) vcan1 430#37000CF3C88D7700
(1487168660.794061) vcan1 3A8#0100270A00000000
(1487168660.794736) vcan1 167#72801B10001A2900
(1487168660.794961) vcan1 076#3E7AC0800FFF0000
(1487168660.795180) vcan1 077#19DA07FD7FF7FDFF
(1487168660.795400) vcan1 07D#0000FD20001FB801
(1487168660.795624) vcan1 202#04F86000608519DF
(1487168660.795812) vcan1 204#C0007D036E000000
(1487168660.796051) vcan1 216#0398D8DD00000000
(1487168660.796249) vcan1 217#1620162816181624
(1487168660.796439) vcan1 415#19DFD8FE07FA07FA
(1487168660.796610) vcan1 4B0#01008000200000FD
(1487168660.801206) vcan1 082#6608140489804000
(1487168660.802290) vcan1 085#7C4C800058F07C54
(1487168660.802530) vcan1 091#7EEE7F0B6A99F000
(1487168660.802767) vcan1 092#6FC26FB273675199
(1487168660.803391) vcan1 217#1624162816141624
(1487168660.804523) vcan1 165#10CD460000000000
(1487168660.804747) vcan1 167#72801B10001A2900
(1487168660.804967) vcan1 200#00007FF0801F0000
(1487168660.805568) vcan1 202#04F76800608519DF
(1487168660.805789) vcan1 204#C0007D036E000000
(1487168660.806633) vcan1 42F#7D04002E661B036E
(1487168660.807745) vcan1 186#140D01FA008505FA
(1487168660.812074) vcan1 085#7C4C800067007C54
(1487168660.812294) vcan1 3CA#827FE87100000000
(1487168660.812533) vcan1 091#7EF47F0B639AF000
(1487168660.812769) vcan1 092#6FC76FB67359559A
(1487168660.813144) vcan1 3A8#0100270A00000000
(1487168660.814265) vcan1 167#72801B10001A2900
(1487168660.814476) vcan1 076#3E7AC0800FFF0000
(1487168660.814694) vcan1 077#19DA07FD7FF811FF
(1487168660.814931) vcan1 07D#0000FC30001F97FD
(1487168660.815375) vcan1 202#04F67000608519DF
(1487168660.815596) vcan1 204#C0007D036D000000
(1487168660.815875) vcan1 216#1AAFEFF400000000
(1487168660.816460) vcan1 217#1624162416141624
(1487168660.816681) vcan1 415#19DFDCFD07FA07FA
(1487168660.817542) vcan1 4B0#01008000300000FC
(1487168660.818656) vcan1 242#05B32000CE000001
(1487168660.821918) vcan1 091#7EFF7F0C569BF000
(1487168660.822996) vcan1 082#6508140089804000
(1487168660.823218) vcan1 085#7C4C800066107C54
(1487168660.823456) vcan1 092#6FC46FB77356599B
(1487168660.823707) vcan1 217#1620162816141620
(1487168660.824099) vcan1 165#10CD460000000000
(1487168660.824309) vcan1 167#72801B10001A2900
(1487168660.824520) vcan1 178#000001FF0E79CA79
(1487168660.825195) vcan1 200#00007FF080200000
(1487168660.825434) vcan1 202#04F67800608519DE
(1487168660.825653) vcan1 204#C0007D036D000000
(1487168660.827358) vcan1 186#140A01FA008505FA
(1487168660.832780) vcan1 085#7C4C800065207C54
(1487168660.833019) vcan1 091#7F047F0D4E9CF000
(1487168660.833269) vcan1 092#6FBE6FB4735E599C
(1487168660.833870) vcan1 3A8#0100270A00000000
(1487168660.834124) vcan1 167#72801B10001A2900
(1487168660.834333) vcan1 076#3E7AC0800FFF0000
(1487168660.835017) vcan1 077#19DB07FD7FF81600
(1487168660.835246) vcan1 07D#0000FB40001F4801
(1487168660.835485) vcan1 202#04050000608519DE
(1487168660.835704) vcan1 204#C0007D036E000000
(1487168660.836105) vcan1 216#31C6060B00000000
(1487168660.836337) vcan1 217#161C16281618161C
(1487168660.836536) vcan1 415#19DCE0FF07FA07FA
(1487168660.836737) vcan1 42F#7D04002E661B036E
(1487168660.836926) vcan1 4B0#01008000400000FB
(1487168660.841441) vcan1 091#7F047F0E4C9DF000
(1487168660.842484) vcan1 082#6508140089804000
(1487168660.842708) vcan1 085#7C4C800064307C54
(1487168660.842961) vcan1 092#6FBB6FB1736E4E9D
(1487168660.843176) vcan1 3CA#827FC87100000000
(1487168660.843596) vcan1 217#1620162C161C1618
(1487168660.844699) vcan1 165#10CD460000000000
(1487168660.844922) vcan1 167#72801B10001A2900
(1487168660.845142) vcan1 200#00007FF080200000
(1487168660.845797) vcan1 202#04050800608519DD
(1487168660.846018) vcan1 204#C0007D036D000000
(1487168660.846880) vcan1 186#140801FA008505FA
(1487168660.852367) vcan1 085#7C4C800063407C54
(1487168660.852629) vcan1 091#7EFE7F0E529EF000
(1487168660.852870) vcan1 092#6FBC6FB27379409E
(1487168660.853438) vcan1 3A8#0100270A00000000
(1487168660.854532) vcan1 167#72801B10001A2800
(1487168660.854743) vcan1 076#3E7AC0800FFF0000
(1487168660.854984) vcan1 077#19DA07FE7FF809FF
(1487168660.855234) vcan1 07D#0000FA50001FB803
(1487168660.855476) vcan1 202#04041000608519DD
(1487168660.855668) vcan1 204#C0007D036D000000
(1487168660.855849) vcan1 216#48DD1C2200000000
(1487168660.856730) vcan1 217#161C163016201618
(1487168660.856952) vcan1 415#19DEE4FC07FA07FA
(1487168660.857181) vcan1 4B0#01008000500000FA
(1487168660.858893) vcan1 242#05B32003CE000001
(1487168660.861038) vcan1 082#6408140089804000
(1487168660.862130) vcan1 085#7C4C800062507C54
(1487168660.862369) vcan1 091#7EF67F0E599FF000
(1487168660.862607) vcan1 092#6FBE6FB673763C9F
(1487168660.863245) vcan1 217#1620162C1624161C
(1487168660.864321) vcan1 165#10CD460000000000
(1487168660.864544) vcan1 167#72801B10001A2800
(1487168660.864771) vcan1 200#00007FF080200000
(1487168660.865429) vcan1 202#04031800608519DD
(1487168660.865650) vcan1 204#C0007D036D000000
(1487168660.866484) vcan1 42F#7D04002E661B036E
(1487168660.866712) vcan1 186#140601FA008505FA
(1487168660.871923) vcan1 085#7C4B800062607C54
(1487168660.872148) vcan1 3CA#827FC87100000000
(1487168660.872387) vcan1 091#7EF47F0F59A0F000
(1487168660.872624) vcan1 092#6FBF6FB9736746A0
(1487168660.873020) vcan1 3A8#0100270A00000000
(1487168660.874114) vcan1 167#72801B10001A2900
(1487168660.874325) vcan1 076#3E7AC0800FFF0000
(1487168660.874542) vcan1 077#19DA07FE7FF80DFF
(1487168660.874764) vcan1 07D#0000F960001FD7FF
(1487168660.875217) vcan1 202#04022000608519DD
(1487168660.875425) vcan1 204#C0007D036D000000
(1487168660.875675) vcan1 216#5FF4333900000000
(1487168660.876333) vcan1 217#1624163016241620
(1487168660.876572) vcan1 415#19E0E8F907FA07FA
(1487168660.877390) vcan1 4B0#01008000600000F9
(1487168660.880633) vcan1 3C3#7EC0000000000000
(1487168660.882902) vcan1 082#6208140089804000
(1487168660.883113) vcan1 085#7C4B800061707C54
(1487168660.883951) vcan1 091#7EF67F1055A1F000
(1487168660.884176) vcan1 092#6FBD6FB9735A54A1
(1487168660.884444) vcan1 217#1624162C16241624
(1487168660.884670) vcan1 165#10CD460000000000
(1487168660.884878) vcan1 167#72801B10001A2900
(1487168660.885094) vcan1 200#00007FF080200000
(1487168660.885260) vcan1 202#04012800608519DD
(1487168660.885417) vcan1 204#C0007D036D000000
(1487168660.886093) vcan1 186#140501FA008505FA
(1487168660.887252) vcan1 18A#00201A0114000000
(1487168660.892642) vcan1 422#000000933802FE02
(1487168660.892867) vcan1 085#7C4B800060807C54
(1487168660.893119) vcan1 091#7EF97F1051A2F000
(1487168660.893357) vcan1 092#6FB86FB773585CA2
(1487168660.893565) vcan1 430#3F000CF3E88D7700
(1487168660.893780) vcan1 3A8#0100270A00000000
(1487168660.894033) vcan1 167#72801B10001A2900
(1487168660.894254) vcan1 076#3E79C0800FFF0000
(1487168660.894409) vcan1 077#19DA07FE7FF81200
(1487168660.894565) vcan1 07D#0000F870001F97FF
(1487168660.894825) vcan1 202#04003000608519DD
(1487168660.894982) vcan1 204#C0007D036D000000
(1487168660.895893) vcan1 216#76094A4E00000000
(1487168660.896069) vcan1 217#1624162C16201624
(1487168660.896238) vcan1 415#19E4ECF407FA07FA
(1487168660.897012) vcan1 42F#7D04002E661B036D
(1487168660.897226) vcan1 4B0#01008000700000F8
(1487168660.899174) vcan1 242#05B32002CE000001
(1487168660.901309) vcan1 082#6208140089804000
(1487168660.902402) vcan1 085#7C4B80005F907C54
(1487168660.902663) vcan1 091#7EFA7F0F50A3F000
(1487168660.902922) vcan1 092#6FB96FB8735D54A3
(1487168660.903138) vcan1 3CA#827FC87100000000
(1487168660.903522) vcan1 217#1624162816181628
(1487168660.904634) vcan1 165#10CD460000000000
(1487168660.904857) vcan1 167#72801B10001A2800
(1487168660.905686) vcan1 200#00007FF080200000
(1487168660.905930) vcan1 202#04FE3800608519DE
(1487168660.906150) vcan1 204#C0007D036D000000
(1487168660.906789) vcan1 186#140501FA008505FA
(1487168660.912268) vcan1 085#7C4B80005EA07C54
(1487168660.913356) vcan1 091#7EFE7F0F4BA4F000
(1487168660.913585) vcan1 092#6FBF6FB9735851A4
(1487168660.913791) vcan1 3A8#0100270A00000000
(1487168660.914033) vcan1 167#72801A10001A2800
(1487168660.914408) vcan1 076#3E79C0800FFF0000
(1487168660.914621) vcan1 077#19DB07FE7FF80A00
(1487168660.914837) vcan1 07D#0000F780001F6800
(1487168660.915057) vcan1 202#04FC4000608519DF
(1487168660.915258) vcan1 204#C0007D036E000000
(1487168660.915497) vcan1 216#8D20606500000000
(1487168660.915695) vcan1 217#1628162816181624
(1487168660.915860) vcan1 415#19E0F0F707FA07FA
(1487168660.916591) vcan1 4B0#01008000800000F7
(1487168660.920987) vcan1 05D#8357AF5E34000000
(1487168660.922065) vcan1 082#6208140089804000
(1487168660.922276) vcan1 085#7C4B80005DB07C54
(1487168660.922501) vcan1 091#7F0A7F0F3DA5F000
(1487168660.923196) vcan1 092#6FC76FB8734D54A5
(1487168660.923409) vcan1 169#0081C00000000000
(1487168660.924299) vcan1 217#1624162C16181624
(1487168660.924521) vcan1 165#10CD460000000000
(1487168660.925394) vcan1 167#72801A10001A2800
(1487168660.925606) vcan1 178#000002000E79CA79
(1487168660.926491) vcan1 200#00007FF080200000
(1487168660.926721) vcan1 202#04FB4800608519DF
(1487168660.926948) vcan1 204#C0007D036E000000
(1487168660.927162) vcan1 186#140801FA008505FA
(1487168660.927605) vcan1 42F#7D04002E661B036D
(1487168660.932025) vcan1 085#7C4B80005CC07C54
(1487168660.932263) vcan1 3CA#827FC87100000000
(1487168660.933126) vcan1 091#7F207F0F26A6F000
(1487168660.933366) vcan1 092#6FC86FB573485AA6
(1487168660.933572) vcan1 3A8#0100270A00000000
(1487168660.933816) vcan1 167#72801A10001A2900
(1487168660.934105) vcan1 076#3E79C0800FFF0000
(1487168660.934283) vcan1 077#19DC07FE7FF81A00
(1487168660.934464) vcan1 07D#0000F690001F1805
(1487168660.934657) vcan1 202#04FB5000608519DE
(1487168660.935238) vcan1 204#C0007D036E000000
(1487168660.935496) vcan1 216#A237777C00000000
(1487168660.936360) vcan1 217#1624162816141620
(1487168660.936570) vcan1 415#19E3F4F307FA07FA
(1487168660.936783) vcan1 4B0#01008000900000F6
(1487168660.939703) vcan1 242#05B32001CE000001
(1487168660.941909) vcan1 082#6308140089804000
(1487168660.942995) vcan1 085#7C4B80005BD07C54
(1487168660.943238) vcan1 091#7F357F100FA7F000
(1487168660.943469) vcan1 092#6FC36FB5734F57A7
(1487168660.944013) vcan1 217#1624162C161C1620
(1487168660.944226) vcan1 165#10CD460000000000
(1487168660.945122) vcan1 167#72801B10001A2800
(1487168660.945333) vcan1 200#00007FF080200000
(1487168660.945558) vcan1 202#04F95800608519DF
(1487168660.945765) vcan1 204#C0007D036E000000
(1487168660.947293) vcan1 186#140A01FA008505FA
(1487168660.951990) vcan1 085#7C4B80005AE07C54
(1487168660.952240) vcan1 091#7F407F1102A8F000
(1487168660.952474) vcan1 092#6FBF6FB7735651A8
(1487168660.952871) vcan1 3A8#0100270A00000000
(1487168660.953962) vcan1 167#72801B10001A2800
(1487168660.954175) vcan1 076#3E79C0800FFF0000
(1487168660.954387) vcan1 077#19DC07FE7FF815FF
(1487168660.954601) vcan1 07D#0000F5A0001F2812
(1487168660.955082) vcan1 202#04F86000608519DF
(1487168660.955319) vcan1 204#C0007D036E000000
(1487168660.956069) vcan1 216#B94E8E9300000000
(1487168660.956283) vcan1 217#1620162C16201620
(1487168660.956499) vcan1 415#19DFF8F607FA07FA
(1487168660.956710) vcan1 42F#7D04002E661B036E
(1487168660.957206) vcan1 4B0#01008000A00000F5
(1487168660.961641) vcan1 082#6308140089804000
(1487168660.962726) vcan1 085#7C4B800059F07C54
(1487168660.962983) vcan1 091#7F427F1000A9F000
(1487168660.963217) vcan1 092#6FBD6FB8735255A9
(1487168660.963423) vcan1 3CA#827FB86E00000000
(1487168660.963798) vcan1 217#162416341620161C
(1487168660.964930) vcan1 165#10CD460000000000
(1487168660.965169) vcan1 167#72801B10001A2900
(1487168660.965398) vcan1 200#00007FF080200000
(1487168660.965645) vcan1 202#04F76800608519DF
(1487168660.965935) vcan1 204#C0007D036E000000
(1487168660.967080) vcan1 186#140801FA008505FA
(1487168660.972480) vcan1 085#7C4A80006A007C53
(1487168660.972734) vcan1 091#7F437F0FFFAAF000
(1487168660.972982) vcan1 092#6FBC6FB7734B5DAA
(1487168660.973537) vcan1 3A8#0100270A00000000
(1487168660.974637) vcan1 167#72801B10001A2800
(1487168660.974874) vcan1 076#3E79C0800FFF0000
(1487168660.975109) vcan1 077#19DC07FE7FF80E00
(1487168660.975342) vcan1 07D#0000F4B0001F3816
(1487168660.975589) vcan1 202#04F67000608519DF
(1487168660.975817) vcan1 204#C0007D036E000000
(1487168660.976004) vcan1 216#D065A5AA00000000
(1487168660.976182) vcan1 217#1624163416241620
(1487168660.976722) vcan1 415#19E5FCEF07FA07FA
(1487168660.976916) vcan1 4B0#01008000B00000F4
(1487168660.978921) vcan1 242#05B32003CE000001
(1487168660.983146) vcan1 082#6308140089804000
(1487168660.983376) vcan1 085#7C4A800069107C53
(1487168660.983623) vcan1 091#7F447F0C00ABF000
(1487168660.983870) vcan1 092#6FB96FB5734F5DAB
(1487168660.984094) vcan1 217#162816341628161C
(1487168660.984319) vcan1 165#10CD460000000000
(1487168660.984515) vcan1 167#72801B10001A2800
(1487168660.984711) vcan1 200#00007FF080200000
(1487168660.985278) vcan1 202#04F57800608519DF
(1487168660.985479) vcan1 204#C0007D036E000000
(1487168660.986347) vcan1 42F#7D04002E661B036E
(1487168660.986710) vcan1 186#140601FA008505FA
(1487168660.987126) vcan1 18A#00201A0114000000
(1487168660.991789) vcan1 422#000000933802FE02
(1487168660.992034) vcan1 085#7C4A800068207C53
(1487168660.992283) vcan1 091#7F3F7F0A06ACF000
(1487168660.992529) vcan1 092#6FB96FB3735D50AC
(1487168660.992877) vcan1 3CA#827FB86E00000000
(1487168660.993122) vcan1 430#37000CF3C88D7700
(1487168660.993291) vcan1 3A8#0100270A00000000
(1487168660.993881) vcan1 167#72801B10001A2800
(1487168660.994036) vcan1 076#3E78C0800FFF0000
(1487168660.994228) vcan1 077#19DC07FD7FF80E00
(1487168660.994428) vcan1 07D#0000F3C0001F1817
(1487168660.995036) vcan1 202#04030000608519E0
(1487168660.995260) vcan1 204#C0007D036E000000
(1487168660.996142) vcan1 216#E77CBCC100000000
(1487168660.996405) vcan1 217#1628163016241620
(1487168660.996613) vcan1 415#19E8C0FB07FA07FA
(1487168660.996843) vcan1 4B0#01008000C00000F3
(1487168661.001505) vcan1 091#7F317F0A13ADF000
(1487168661.002722) vcan1 082#6208140089804000
(1487168661.003134) vcan1 085#7C4A800067307C53
(1487168661.003467) vcan1 092#6FBB6FB1736745AD
(1487168661.003753) vcan1 217#1628162C16201620
(1487168661.004767) vcan1 165#10CD460000000000
(1487168661.005014) vcan1 167#72801B10001A2800
(1487168661.005256) vcan1 200#00007FF080200000
(1487168661.005820) vcan1 202#04010800608519E1
(1487168661.005983) vcan1 204#C0007D036E000000
(1487168661.006834) vcan1 186#140601FA008505FA
(1487168661.012269) vcan1 085#7C4A800066407C53
(1487168661.012511) vcan1 091#7F1F7F0B23AEF000
(1487168661.013382) vcan1 092#6FBD6FB2736A3EAE
(1487168661.013605) vcan1 3A8#0100270900000000
(1487168661.014483) vcan1 167#72801B10001A2800
(1487168661.014698) vcan1 076#3E78C0800FFF0000
(1487168661.014942) vcan1 077#19DC07FC7FF809FF
(1487168661.015163) vcan1 07D#0000F2D0001F9811
(1487168661.015394) vcan1 202#04FF1000608519E2
(1487168661.015577) vcan1 204#C0007D036E000000
(1487168661.015762) vcan1 216#FE93D2D800000000
(1487168661.015920) vcan1 217#1628163016181624
(1487168661.016556) vcan1 415#19E4C4FE07FA07FA
(1487168661.016878) vcan1 42F#7D04002E661B036E
(1487168661.017080) vcan1 4B0#01008000D00000F2
(1487168661.018721) vcan1 242#05B32003CE000001
(1487168661.021966) vcan1 082#6008140089804000
(1487168661.022181) vcan1 085#7C4A800065507C53
(1487168661.022409) vcan1 091#7F107F0C30AFF000
(1487168661.023088) vcan1 092#6FC26FB273683AAF
(1487168661.023302) vcan1 3CA#827FB86E00000000
(1487168661.024241) vcan1 217#1628162C16181628
(1487168661.024470) vcan1 165#10CD460000000000
(1487168661.025239) vcan1 167#72801A10001A2800
(1487168661.025448) vcan1 178#000002000E79CA79
(1487168661.025646) vcan1 200#00007FF080200000
(1487168661.026336) vcan1 202#04FE1800608519E2
(1487168661.026546) vcan1 186#140801FA008505FA
(1487168661.026772) vcan1 204#C0007D036F000000
(1487168661.031758) vcan1 085#7C4A800064607C53
(1487168661.032801) vcan1 091#7F057F0B3BB0F000
(1487168661.033047) vcan1 092#6FC76FB3736932B0
(1487168661.033271) vcan1 3A8#0100270900000000
(1487168661.033946) vcan1 167#72801A10001A2800
(1487168661.034146) vcan1 076#3E78C0800FFF0000
(1487168661.034360) vcan1 077#19DC07FD7FF811FF
(1487168661.034572) vcan1 07D#0000F1E0001F9807
(1487168661.034844) vcan1 202#04FD2000608519E2
(1487168661.034991) vcan1 204#C0007D036F000000
(1487168661.035177) vcan1 216#15AAE8EE00000000
(1487168661.036143) vcan1 217#162C163016141624
(1487168661.036360) vcan1 415#19E7C8FA07FA07FA
(1487168661.036575) vcan1 4B0#01008000E00000F1
(1487168661.041607) vcan1 082#5E08140089804000
(1487168661.042722) vcan1 085#7C4A800063707C53
(1487168661.042977) vcan1 091#7EFC7F0847B1F000
(1487168661.043208) vcan1 092#6FC96FB4737126B1
(1487168661.043815) vcan1 217#1628163416181624
(1487168661.044945) vcan1 165#10CD460000000000
(1487168661.045170) vcan1 167#72801A10001A2800
(1487168661.045384) vcan1 200#00007FF080200000
(1487168661.046049) vcan1 202#04FC2800608519E2
(1487168661.046262) vcan1 204#C0007D036F000000
(1487168661.046497) vcan1 186#140A01FA008505FA
(1487168661.046725) vcan1 42F#7D04002E661B036F
(1487168661.051523) vcan1 085#7C4A800062807C53
(1487168661.051740) vcan1 3CA#827FB86E00000000
(1487168661.051970) vcan1 091#7EFA7F064AB2F000
(1487168661.052622) vcan1 092#6FC46FB4737C1FB2
(1487168661.053732) vcan1 3A8#0100270900000000
(1487168661.053994) vcan1 167#72801A10001A2800
(1487168661.054195) vcan1 076#3E7DC0800FFF0000
(1487168661.054403) vcan1 077#19DC07FC7FF819FF
(1487168661.054812) vcan1 07D#0000F0F0001FC800
(1487168661.055047) vcan1 202#04FA3000608519E3
(1487168661.055272) vcan1 204#C0007D036F000000
(1487168661.055907) vcan1 216#2CC1FF0400000000
(1487168661.056119) vcan1 217#1628163016181624
(1487168661.056330) vcan1 415#19EACCF607FA07FA
(1487168661.056999) vcan1 4B0#01008000F00000F0
(1487168661.059226) vcan1 242#05B32001CE000001
(1487168661.061414) vcan1 082#6008140089804000
(1487168661.062535) vcan1 085#7C4A800061907C53
(1487168661.062774) vcan1 091#7F037F0243B3F000
(1487168661.063017) vcan1 092#6FC06FB7738318B3
(1487168661.063629) vcan1 217#1628163416201624
(1487168661.064778) vcan1 165#10CD460000000000
(1487168661.065013) vcan1 167#72801A10001A2800
(1487168661.065231) vcan1 200#00007FF080200000
(1487168661.065467) vcan1 202#04F83800608519E4
(1487168661.065778) vcan1 204#C0007D036F000000
(1487168661.065978) vcan1 186#140801FA008505FA
(1487168661.072429) vcan1 085#7C4A80005FA07C54
(1487168661.072669) vcan1 091#7F167F0130B4F000
(1487168661.072898) vcan1 092#6FC36FBA737B19B4
(1487168661.073505) vcan1 3A8#0100270D00000000
(1487168661.073739) vcan1 076#3E7DC0800FFF0000
(1487168661.073947) vcan1 077#19DC07FA7FF81200
(1487168661.074157) vcan1 07D#0000FF0000201803
(1487168661.074589) vcan1 167#72801A10001A2800
(1487168661.074839) vcan1 202#04F74000608519E4
(1487168661.075695) vcan1 204#C0007D036F000000
(1487168661.075946) vcan1 216#42D6161B00000000
(1487168661.076167) vcan1 217#1624163016241624
(1487168661.076826) vcan1 415#19E6D0F907FA07FA
(1487168661.077040) vcan1 42F#7D04002E661B036F
(1487168661.077897) vcan1 4B0#01008000000000FF
(1487168661.082337) vcan1 082#6008140089804000
(1487168661.082598) vcan1 085#7C49800060B07C53
(1487168661.083456) vcan1 091#7F267F011FB5F000
(1487168661.083688) vcan1 092#6FC26FBC736B27B5
(1487168661.083914) vcan1 3CA#827F986E00000000
(1487168661.084558) vcan1 165#10CD460000000000
(1487168661.084771) vcan1 167#72801A10001A2800
(1487168661.084980) vcan1 200#00007FF080200000
(1487168661.085669) vcan1 202#04F64800608519E4
(1487168661.085879) vcan1 204#C0007D036E000000
(1487168661.086099) vcan1 217#1628163C16281620
(1487168661.086313) vcan1 186#140601FA008505FA
(1487168661.086728) vcan1 18A#00201A0114000000
(1487168661.091189) vcan1 422#000000933802FE02
(1487168661.092294) vcan1 085#7C4980005EC07C54
(1487168661.092533) vcan1 091#7F2D7F0117B6F000
(1487168661.092764) vcan1 092#6FBA6FBA736A31B6
(1487168661.093371) vcan1 430#37000CF3C88D7700
(1487168661.093590) vcan1 3A8#0100270D00000000
(1487168661.093831) vcan1 167#72801A10001A2800
(1487168661.094482) vcan1 076#3E7DC0800FFF0000
(1487168661.094691) vcan1 077#19DD07FA7FF81601
(1487168661.094918) vcan1 07D#0000FE10001FF80E
(1487168661.095147) vcan1 202#04F55000608519E4
(1487168661.095575) vcan1 204#C0007D036E000000
(1487168661.095845) vcan1 216#59ED2D3200000000
(1487168661.096066) vcan1 217#162C163C162C1620
(1487168661.096685) vcan1 415#19ECD4F207FA07FA
(1487168661.096901) vcan1 4B0#01008000100000FE
(1487168661.098872) vcan1 242#05B32001CE000001
(1487168661.101053) vcan1 082#6208140089804000
(1487168661.102156) vcan1 085#7C4880005ED07C54
(1487168661.102386) vcan1 091#7F247F021EB7F000
(1487168661.102613) vcan1 092#6FB06FB7738126B7
(1487168661.104369) vcan1 217#162C163C16281624
(1487168661.104616) vcan1 165#10CD460000000000
(1487168661.104824) vcan1 167#72801A10001A2800
(1487168661.105467) vcan1 200#00007FF080200000
(1487168661.105696) vcan1 202#04F35800608519E5
(1487168661.105910) vcan1 186#140601FA008505FA
(1487168661.106147) vcan1 204#C0007D036E000000
(1487168661.106520) vcan1 42F#7D04002E661B036F
(1487168661.112073) vcan1 085#7C4880005DE07C54
(1487168661.112289) vcan1 3CA#827F986E00000000
(1487168661.113170) vcan1 091#7F0F7F052FB8F000
(1487168661.113402) vcan1 092#6FB16FB573990EB8
(1487168661.114248) vcan1 3A8#0100270D00000000
(1487168661.114493) vcan1 167#72801A10001A2800
(1487168661.114691) vcan1 076#3E7CC0800FFF0000
(1487168661.114913) vcan1 077#19DE07FA7FF7FE00
(1487168661.115339) vcan1 07D#0000FD200020080D
(1487168661.115568) vcan1 202#04F16000608519E6
(1487168661.115776) vcan1 204#C0007D036E000000
(1487168661.116043) vcan1 216#7004444900000000
(1487168661.116442) vcan1 217#162C163816241628
(1487168661.116642) vcan1 415#19F3D8EA07FA07FA
(1487168661.116876) vcan1 4B0#01008000200000FD
(1487168661.120784) vcan1 05D#8357BF5C32000000
(1487168661.121871) vcan1 082#6008140089804000
(1487168661.122087) vcan1 085#7C4880005CF07C54
(1487168661.122316) vcan1 091#7EF07F074CB9F000
(1487168661.123009) vcan1 092#6FBE6FB6739503B9
(1487168661.124085) vcan1 217#162C163016201628
(1487168661.124310) vcan1 165#10CD460000000000
(1487168661.125179) vcan1 167#72801A10001A2800
(1487168661.125396) vcan1 186#140501FA008505FA
(1487168661.125606) vcan1 178#000001FF0E79CA79
(1487168661.126273) vcan1 200#00007FF0801F0000
(1487168661.126504) vcan1 202#04EE6800608519E8
(1487168661.126716) vcan1 204#C0007D036E000000
(1487168661.132048) vcan1 085#7C4880006B007C54
(1487168661.132321) vcan1 091#7ED77F0962BAF000
(1487168661.132568) vcan1 092#6FCA6FB6737813BA
(1487168661.132967) vcan1 3A8#0100270D00000000
(1487168661.134315) vcan1 076#3E7BC0800FFF0000
(1487168661.134564) vcan1 077#19DF07FB7FF80DFF
(1487168661.134793) vcan1 07D#0000FC30002067FE
(1487168661.135084) vcan1 167#72801A10001A2800
(1487168661.135392) vcan1 216#871B5B6000000000
(1487168661.135646) vcan1 202#04EC7000608519E9
(1487168661.136230) vcan1 204#C0007D036E000000
(1487168661.136445) vcan1 217#162C1634161C162C
(1487168661.136644) vcan1 415#19E8DCF407FA07FA
(1487168661.137324) vcan1 42F#7D04002E661B036E
(1487168661.137544) vcan1 4B0#01008000300000FC
(1487168661.139450) vcan1 242#05B31FFECE000001
(1487168661.141620) vcan1 082#6108140089804000
(1487168661.142690) vcan1 085#7C4880006A107C54
(1487168661.142969) vcan1 091#7EDD7F0B59BBF000
(1487168661.143224) vcan1 092#6FCC6FB7735D2ABB
(1487168661.143453) vcan1 3CA#827F986E00000000
(1487168661.144838) vcan1 217#162C163416181628
(1487168661.145083) vcan1 165#10CD460000000000
(1487168661.145323) vcan1 167#72801A10001A2800
(1487168661.145559) vcan1 200#00007FF0801F0000
(1487168661.145810) vcan1 202#04EB7800608519E9
(1487168661.146031) vcan1 186#140501FA008505FA
(1487168661.146211) vcan1 204#C0007D036E000000
(1487168661.152243) vcan1 085#7C48800069207C54
(1487168661.153317) vcan1 091#7EF97F0B3CBCF000
(1487168661.153577) vcan1 092#6FC46FB9735E2EBC
(1487168661.153810) vcan1 3A8#0100270C00000000
(1487168661.154373) vcan1 167#72801A10001A2800
(1487168661.154603) vcan1 076#3E7BC0800FFF0000
(1487168661.154857) vcan1 077#19E007FD7FF81E00
(1487168661.155390) vcan1 07D#0000FB40001F67F8
(1487168661.155647) vcan1 202#04FB0000608519E8
(1487168661.155877) vcan1 204#C0007D036E000000
(1487168661.156179) vcan1 216#9E32727700000000
(1487168661.156429) vcan1 217#162C1630161C1628
(1487168661.156642) vcan1 415#19EDE0EE07FB07FB
(1487168661.156883) vcan1 4B0#01008000400000FB
(1487168661.161804) vcan1 091#7F0F7F0827BDF000
(1487168661.162877) vcan1 082#6108140089804000
(1487168661.163121) vcan1 085#7C48800068307C54
(1487168661.163376) vcan1 092#6FBD6FBA73731EBD
(1487168661.163622) vcan1 217#162C1630161C1624
(1487168661.163908) vcan1 165#10CD460000000000
(1487168661.164140) vcan1 167#72801A10001A2800
(1487168661.164350) vcan1 200#00007FF0801F0000
(1487168661.164929) vcan1 186#140401FA008505FA
(1487168661.165129) vcan1 202#04F90800608519E9
(1487168661.165289) vcan1 204#C0007D036E000000
(1487168661.166053) vcan1 42F#7D04002E661B036E
(1487168661.171385) vcan1 091#7F187F0223BEF000
(1487168661.171629) vcan1 085#7C48800067407C54
(1487168661.172452) vcan1 092#6FBC6FBB73830DBE
(1487168661.172691) vcan1 3CA#827F287300000000
(1487168661.172919) vcan1 3A8#0100270C00000000
(1487168661.173512) vcan1 167#72801A10001A2800
(1487168661.173742) vcan1 076#3E7BC0800FFF0000
(1487168661.173977) vcan1 077#19E007FC7FF80E01
(1487168661.174571) vcan1 07D#0000FA50001FC807
(1487168661.174852) vcan1 202#04F81000608519E9
(1487168661.175094) vcan1 204#C0007D036E000000
(1487168661.175614) vcan1 216#B549898D00000000
(1487168661.175897) vcan1 217#1628163416241620
(1487168661.176698) vcan1 415#19EAE4F007FB07FB
(1487168661.177734) vcan1 4B0#01008000500000FA
(1487168661.178783) vcan1 242#05B31FFECE000001
(1487168661.182057) vcan1 082#6108140089804000
(1487168661.182298) vcan1 085#7C48800066507C54
(1487168661.183124) vcan1 091#7F1F7F001DBFF000
(1487168661.183385) vcan1 092#6FBD6FB873840DBF
(1487168661.183650) vcan1 217#162C163816281620
(1487168661.184146) vcan1 165#10CD460000000000
(1487168661.184379) vcan1 167#72801A10001A2800
(1487168661.184615) vcan1 200#00007FF0801F0000
(1487168661.185261) vcan1 186#140701FA008505FA
(1487168661.185549) vcan1 18A#00201A0114000000
(1487168661.185803) vcan1 202#04F71800608519E9
(1487168661.186268) vcan1 204#C0007D036E000000
(1487168661.191738) vcan1 422#000000933802FE02
(1487168661.192028) vcan1 085#7C47800067607C53
(1487168661.192280) vcan1 091#7F327EFF0BC0F000
(1487168661.192788) vcan1 092#6FBC6FB3738115C0
(1487168661.193016) vcan1 430#37000CF3C88D7700
(1487168661.193896) vcan1 3A8#0100270C00000000
(1487168661.194159) vcan1 076#3E7BC0800FFF0000
(1487168661.194395) vcan1 077#19E007F97FF80E01
(1487168661.194988) vcan1 07D#0000F9600020180C
(1487168661.195230) vcan1 167#72801A10001A2800
(1487168661.195470) vcan1 202#04F62000608519E9
(1487168661.195987) vcan1 204#C0007D036E000000
(1487168661.196225) vcan1 216#CA609EA400000000
(1487168661.196466) vcan1 217#162C163816281620
(1487168661.196694) vcan1 415#19ECE8ED07FB07FB
(1487168661.197038) vcan1 42F#7D04002E661B036E
(1487168661.197221) vcan1 4B0#01008000600000F9
(1487168661.201716) vcan1 091#7F497EFEF4C1F000
(1487168661.202577) vcan1 082#6008140089804000
(1487168661.202843) vcan1 085#7C47800066707C53
(1487168661.203089) vcan1 092#6FBB6FAE738F0CC1
(1487168661.203323) vcan1 3CA#827F287300000000
(1487168661.204815) vcan1 217#162C16381628161C
(1487168661.205139) vcan1 165#10CD460000000000
(1487168661.205371) vcan1 167#72801B10001A2800
(1487168661.205895) vcan1 186#140701FA008505FA
(1487168661.206172) vcan1 200#00007FF0801F0000
(1487168661.206419) vcan1 202#04F52800608519E9
(1487168661.206659) vcan1 204#C0007D036F000000
(1487168661.211342) vcan1 085#7C47800065807C53
(1487168661.212442) vcan1 091#7F547EFEE8C2F000
(1487168661.212715) vcan1 092#6FB86FAC739F00C2
(1487168661.213522) vcan1 3A8#0100270C00000000
(1487168661.213801) vcan1 167#72801A10001A2800
(1487168661.214017) vcan1 076#3E7AC0800FFF0000
(1487168661.214243) vcan1 077#19E107F97FF809FE
(1487168661.214575) vcan1 07D#0000F87000204819
(1487168661.214825) vcan1 202#04F43000608519E9
(1487168661.215033) vcan1 204#C0007D036F000000
(1487168661.215646) vcan1 216#E177B5BA00000000
(1487168661.215849) vcan1 217#1630163816281620
(1487168661.216053) vcan1 415#19EEECEA07FB07FB
(1487168661.216803) vcan1 4B0#01008000700000F8
(1487168661.218951) vcan1 084#1100002124300A00
(1487168661.219954) vcan1 242#05B32001CE000001
(1487168661.222099) vcan1 082#5F08140089804000
(1487168661.222342) vcan1 085#7C47800064907C53
(1487168661.222590) vcan1 091#7F537EFDE9C3F000
(1487168661.223224) vcan1 092#6FAD6FAD73990FC3
(1487168661.224283) vcan1 217#162C163416241620
(1487168661.224548) vcan1 186#140901FA008505FA
(1487168661.224785) vcan1 165#10CD460000000000
(1487168661.225338) vcan1 167#72801A10001A2800
(1487168661.225573) vcan1 178#000002000E79CA79
(1487168661.226360) vcan1 200#00007FF0801F0000
(1487168661.226654) vcan1 202#04F23800608519EA
(1487168661.226906) vcan1 204#C0007D036E000000
(1487168661.228525) vcan1 42F#7D04002E661B036E
(1487168661.231757) vcan1 085#7C47800063A07C53
(1487168661.232825) vcan1 3CA#827F287300000000
(1487168661.233084) vcan1 091#7F467EFDF5C4F000
(1487168661.233328) vcan1 092#6FAA6FAD738C1EC4
(1487168661.233596) vcan1 3D8#0000000080C4A830
(1487168661.233783) vcan1 3A8#0100270A00000000
(1487168661.234015) vcan1 167#72801A10001A2800
(1487168661.234207) vcan1 076#3E7AC0800FFF0000
(1487168661.234404) vcan1 077#19E007F87FF7FDFE
(1487168661.234602) vcan1 07D#0000F7800020781C
(1487168661.234943) vcan1 202#04F14000608519EA
(1487168661.235130) vcan1 204#C0007D036E000000
(1487168661.236093) vcan1 216#F88DCCD100000000
(1487168661.236338) vcan1 217#162C163416201628
(1487168661.236566) vcan1 415#19EDF0EA07FB07FB
(1487168661.236799) vcan1 4B0#01008000800000F7
(1487168661.241382) vcan1 091#7F2E7EFD0CC5F000
(1487168661.242434) vcan1 082#5E08140089804000
(1487168661.242661) vcan1 085#7C47800062B07C53
(1487168661.242924) vcan1 092#6FB66FAC738717C5
(1487168661.243634) vcan1 217#162C163016181620
(1487168661.244712) vcan1 165#10CD460000000000
(1487168661.244948) vcan1 167#72801A10001A2800
(1487168661.245182) vcan1 186#140A01FA008505FA
(1487168661.245782) vcan1 200#00007FF0801E0000
(1487168661.246027) vcan1 202#04F04800608519EA
(1487168661.246248) vcan1 204#C0007D036E000000
(1487168661.252340) vcan1 085#7C47800061C07C53
(1487168661.253437) vcan1 091#7F0F7EFD2AC6F000
(1487168661.253691) vcan1 092#6FC06FAC738A09C6
(1487168661.253912) vcan1 3A8#0100270A00000000
(1487168661.254464) vcan1 076#3E7AC0800FFF0000
(1487168661.254706) vcan1 077#19DF07F87FF805FE
(1487168661.254965) vcan1 07D#0000F69000202810
(1487168661.255206) vcan1 167#72801A10001A2800
(1487168661.255492) vcan1 216#0FA4E3E800000000
(1487168661.255740) vcan1 202#04EF5000608519EA
(1487168661.255978) vcan1 204#C0007D036E000000
(1487168661.256142) vcan1 217#1628162C161C1620
(1487168661.256296) vcan1 415#19E9F4ED07FB07FB
(1487168661.256509) vcan1 42F#7D04002E661B036E
(1487168661.256656) vcan1 4B0#01008000900000F6
(1487168661.258684) vcan1 242#05B32001CE000001
(1487168661.261910) vcan1 082#5D08140089804000
(1487168661.263015) vcan1 085#7C47800060D07C53
(1487168661.263282) vcan1 091#7EF47EFD45C7F000
(1487168661.263520) vcan1 092#6FC26FAF7390FDC7
(1487168661.263740) vcan1 3CA#827F287300000000
(1487168661.264030) vcan1 217#16281638161C1624
(1487168661.264253) vcan1 165#10CD460000000000
(1487168661.264430) vcan1 167#72801A10001A2800
(1487168661.264606) vcan1 186#140B01FA008505FA
(1487168661.265103) vcan1 200#00007FF0801E0000
(1487168661.265315) vcan1 202#04EE5800608519EA
(1487168661.265493) vcan1 204#C0007D036E000000
(1487168661.271698) vcan1 085#7C4780005FE07C53
(1487168661.273024) vcan1 091#7EED7EFD4BC8F000
(1487168661.273348) vcan1 092#6FC36FB27394F4C8
(1487168661.274018) vcan1 3A8#0100270A00000000
(1487168661.274414) vcan1 167#72801A10001A2800
(1487168661.274698) vcan1 076#3E7AC0800FFF0000
(1487168661.275061) vcan1 077#19DE07F87FF811FE
(1487168661.275371) vcan1 07D#0000F5A0002057FF
(1487168661.275644) vcan1 202#04EE6000608519E9
(1487168661.275893) vcan1 204#C0007D036D000000
(1487168661.276130) vcan1 216#26BAFAFF00000000
(1487168661.276323) vcan1 217#1624163016201624
(1487168661.277094) vcan1 415#19EAF8EB07FB07FB
(1487168661.277352) vcan1 4B0#01008000A00000F5
(1487168661.282647) vcan1 082#5D08140089804000
(1487168661.282892) vcan1 085#7C4780005EF07C53
(1487168661.283661) vcan1 091#7EEC7EFA4EC9F000
(1487168661.283894) vcan1 092#6FC26FB37395F2C9
(1487168661.284141) vcan1 217#1624163416201628
(1487168661.284774) vcan1 165#10CD460000000000
(1487168661.284991) vcan1 167#72801A10001A2800
(1487168661.285856) vcan1 186#140C01FA008505FA
(1487168661.286117) vcan1 18A#00201A0114000000
(1487168661.286324) vcan1 200#00007FF0801E0000
(1487168661.286552) vcan1 202#04ED6800608519E9
(1487168661.286928) vcan1 204#C0007D036D000000
(1487168661.287120) vcan1 42F#7D04002E661B036E
(1487168661.291292) vcan1 422#000000933802FE02
(1487168661.292469) vcan1 085#7C4780006D007C53
(1487168661.292688) vcan1 3CA#827E987000000000
(1487168661.292977) vcan1 091#7EDD7EF561CAF000
(1487168661.293240) vcan1 092#6FC26FB97388F8CA
(1487168661.293466) vcan1 430#37000CF3C88D7700
(1487168661.293671) vcan1 3A8#0100270A00000000
(1487168661.293891) vcan1 167#72801A10001A2800
(1487168661.294053) vcan1 076#3E7AC0800FFF0000
(1487168661.294222) vcan1 077#19DE07F77FF815FF
(1487168661.294555) vcan1 07D#0000F4B0002067FD
(1487168661.294742) vcan1 202#04EC7000608519E9
(1487168661.294929) vcan1 204#C0007D036B000000
(1487168661.295670) vcan1 216#3DD1111500000000
(1487168661.295877) vcan1 217#1624163416241624
(1487168661.296085) vcan1 415#19E3FCF107FB07FB
(1487168661.296799) vcan1 4B0#01008000B00000F4
(1487168661.298982) vcan1 242#05B32001CE000001
(1487168661.301184) vcan1 082#5D08140089804000
(1487168661.302305) vcan1 085#7C4680006D107C53
(1487168661.302546) vcan1 091#7EC57EF37ACBF000
(1487168661.302777) vcan1 092#6FBF6FBC735F20CB
(1487168661.303396) vcan1 186#140C01FA008505FA
(1487168661.304597) vcan1 165#10CD460000000000
(1487168661.304819) vcan1 167#72801A10001A2800
(1487168661.305044) vcan1 217#1624163016281624
(1487168661.305619) vcan1 200#00007FF0801E0000
(1487168661.305851) vcan1 202#04EC7800608519E8
(1487168661.306059) vcan1 204#C0007D036B000000
(1487168661.306709) vcan1 3A7#0E401A045F700000
(1487168661.312287) vcan1 085#7C4580006E207C52
(1487168661.312544) vcan1 091#7EBD7EF381CCF000
(1487168661.312778) vcan1 092#6FBA6FB973374FCC
(1487168661.313296) vcan1 3A8#0100270A00000000
(1487168661.314448) vcan1 167#72801A10001A2800
(1487168661.314658) vcan1 076#3E7AC0800FFF0000
(1487168661.314889) vcan1 077#19DE07F67FF81201
(1487168661.315102) vcan1 07D#0000F3C0001F77F1
(1487168661.315343) vcan1 202#04FC0000608519E7
(1487168661.315533) vcan1 204#C0007D036D000000
(1487168661.315769) vcan1 216#54E8282C00000000
(1487168661.315966) vcan1 217#16281630162C1624
(1487168661.316161) vcan1 415#19E6C0FD07FA07FA
(1487168661.316573) vcan1 42F#7D04002E661B036B
(1487168661.316723) vcan1 4B0#01008000C00000F3
(1487168661.322111) vcan1 082#5E08140089804000
(1487168661.322348) vcan1 085#7C4580006C307C53
(1487168661.322593) vcan1 091#7EC97EF473CDF000
(1487168661.323265) vcan1 092#6FB76FB1733858CD
(1487168661.323501) vcan1 3CA#827E987000000000
(1487168661.323738) vcan1 186#140C01FA008505FA
(1487168661.324370) vcan1 217#1628163016281628
(1487168661.324600) vcan1 165#10CD460000000000
(1487168661.325402) vcan1 167#72801A10001A2800
(1487168661.325627) vcan1 178#000001FF0E79CA79
(1487168661.326500) vcan1 200#00007FF0801F0000
(1487168661.326739) vcan1 202#04FC0800608519E6
(1487168661.326978) vcan1 204#C0007D036C000000
(1487168661.331943) vcan1 085#7C4480006D407C52
(1487168661.332205) vcan1 091#7EDC7EF45FCEF000
(1487168661.333144) vcan1 092#6FBB6FA9735D36CE
(1487168661.333372) vcan1 3A8#0100270A00000000
(1487168661.334143) vcan1 167#72801A10001A2800
(1487168661.334359) vcan1 076#3E78C0800FFF0000
(1487168661.334581) vcan1 077#19DF07F67FF805FF
(1487168661.334836) vcan1 07D#0000F2D0001EC7F2
(1487168661.335227) vcan1 202#04FB1000608519E6
(1487168661.335451) vcan1 204#C0007D036C000000
(1487168661.336372) vcan1 216#6BFF3F4300000000
(1487168661.336621) vcan1 217#1628162C16281624
(1487168661.336851) vcan1 415#19E8C4FA07FA07FA
(1487168661.337478) vcan1 4B0#01008000D00000F2
(1487168661.339660) vcan1 242#05B32002CE000001
(1487168661.341854) vcan1 091#7EE67EF454CFF000
(1487168661.342873) vcan1 082#5D08140089804000
(1487168661.343243) vcan1 085#7C4480006C507C52
(1487168661.343621) vcan1 092#6FBF6FA6737F12CF
(1487168661.343847) vcan1 186#140C01FA008505FA
(1487168661.344035) vcan1 165#10CD460000000000
(1487168661.344181) vcan1 167#72801A10001A2800
(1487168661.344334) vcan1 217#1624162C161C1624
(1487168661.345066) vcan1 200#00007FF0801F0000
(1487168661.345286) vcan1 202#04FA1800608519E6
(1487168661.345484) vcan1 204#C0007D036C000000
(1487168661.346166) vcan1 42F#7D04002E661B036D
(1487168661.351622) vcan1 085#7C4480006A607C53
(1487168661.351844) vcan1 3CA#827E987000000000
(1487168661.352732) vcan1 091#7EE77EF452D0F000
(1487168661.352976) vcan1 092#6FBD6FA8738A06D0
(1487168661.353811) vcan1 3A8#0100270900000000
(1487168661.354069) vcan1 167#72801A10001A2800
(1487168661.354271) vcan1 076#3E77C0800FFF0000
(1487168661.354902) vcan1 077#19DF07F67FF811FC
(1487168661.355128) vcan1 07D#0000F1E0002007FB
(1487168661.355361) vcan1 202#04F92000608519E6
(1487168661.355573) vcan1 204#C0007D036C000000
(1487168661.356021) vcan1 216#8215545A00000000
(1487168661.356251) vcan1 217#1628162C16181628
(1487168661.356974) vcan1 415#19E3C8FE07FA07FA
(1487168661.357197) vcan1 4B0#01008000E00000F1
(1487168661.361372) vcan1 091#7EEE7EF648D1F000
(1487168661.362473) vcan1 082#5C08140089804000
(1487168661.362699) vcan1 085#7C44800069707C53
(1487168661.362947) vcan1 092#6FBD6FAE738108D1
(1487168661.363598) vcan1 186#140901FA008505FA
(1487168661.363896) vcan1 217#162C162C16141628
(1487168661.364714) vcan1 165#10CD460000000000
(1487168661.364943) vcan1 167#72801A10001A2800
(1487168661.365159) vcan1 200#00007FF0801F0000
(1487168661.365836) vcan1 202#04F92800608519E5
(1487168661.366067) vcan1 204#C0007D036C000000
(1487168661.371197) vcan1 091#7EF87EF53ED2F000
(1487168661.372354) vcan1 085#7C44800068807C53
(1487168661.372597) vcan1 092#6FBF6FB6737905D2
(1487168661.373421) vcan1 3A8#0100270700000000
(1487168661.373684) vcan1 167#72801A10001A2800
(1487168661.373890) vcan1 076#3E77C0800FFF0000
(1487168661.374469) vcan1 077#19DE07F67FF80DFE
(1487168661.374692) vcan1 07D#0000F0F0002007FE
(1487168661.374930) vcan1 202#04F93000608519E4
(1487168661.375137) vcan1 204#C0007D036D000000
(1487168661.375581) vcan1 216#992C6B7000000000
(1487168661.376637) vcan1 217#1624162C16181620
(1487168661.376867) vcan1 415#19E9CCF707FA07FA
(1487168661.377812) vcan1 42F#7D04002E661B036C
(1487168661.378031) vcan1 4B0#01008000F00000F0
(1487168661.378925) vcan1 242#05B32003CE000001
(1487168661.382210) vcan1 082#5A08140089804000
(1487168661.382433) vcan1 085#7C44800067907C53
(1487168661.383295) vcan1 091#7EFF7EF437D3F000
(1487168661.383540) vcan1 092#6FB66FBB737A07D3
(1487168661.383764) vcan1 186#140701FA008505FA
(1487168661.384412) vcan1 165#10CD460000000000
(1487168661.384636) vcan1 167#72801A10001A2800
(1487168661.384857) vcan1 18A#00201A0114000000
(1487168661.385499) vcan1 200#00007FF0801F0000
(1487168661.385742) vcan1 202#04F73800608519E5
(1487168661.385962) vcan1 204#C0007D036D000000
(1487168661.386186) vcan1 217#1624162C161C1624
(1487168661.386523) vcan1 3CA#827E987000000000
(1487168661.392007) vcan1 422#000000933802FE02
(1487168661.392223) vcan1 430#37000CF3C88DF700
(1487168661.392431) vcan1 085#7C44800066A07C53
(1487168661.393195) vcan1 091#7F087EF42CD4F000
(1487168661.393437) vcan1 092#6FAB6FC173760FD4
(1487168661.393664) vcan1 3A8#0100270700000000
(1487168661.393922) vcan1 167#72801A10001A2800
(1487168661.394227) vcan1 076#3E77C0800FFF0000
(1487168661.394427) vcan1 077#19DE07F67FF811FF
(1487168661.394618) vcan1 07D#0000FF00001FE802
(1487168661.394844) vcan1 202#04F64000608519E5
(1487168661.395024) vcan1 204#C0007D036D000000
(1487168661.395288) vcan1 216#B043828700000000
(1487168661.395463) vcan1 217#1620162C16201620
(1487168661.395630) vcan1 415#19E1D0FE07F907F9
(1487168661.396365) vcan1 4B0#01008000000000FF
(1487168661.401828) vcan1 082#5B08140089804000
(1487168661.402039) vcan1 085#7C44800065B07C53
(1487168661.403014) vcan1 091#7F127EF421D5F000
(1487168661.403257) vcan1 092#6FAC6FC273651DD5
(1487168661.403480) vcan1 186#140701FA008505FA
(1487168661.404107) vcan1 217#162016301628161C
(1487168661.404398) vcan1 165#10CD460000000000
(1487168661.404615) vcan1 167#72801A10001A2800
(1487168661.405176) vcan1 200#00007FF0801F0000
(1487168661.405393) vcan1 202#04F64800608519E4
(1487168661.405580) vcan1 204#C0007D036D000000
(1487168661.406237) vcan1 42F#7D04002E661B036D
(1487168661.411648) vcan1 085#7C44800064C07C53
(1487168661.412693) vcan1 3CA#8280485D00000000
(1487168661.412940) vcan1 091#7F0E7EF424D6F000
(1487168661.413186) vcan1 092#6FB46FBD73542AD6
(1487168661.413792) vcan1 3A8#0100270700000000
(1487168661.414054) vcan1 167#72801A10001A2800
(1487168661.414267) vcan1 076#3E77C0800FFF0000
(1487168661.414917) vcan1 077#19DE07F67FF7FE03
(1487168661.415146) vcan1 07D#0000FE10001F8808
(1487168661.415393) vcan1 202#04F65000608519E3
(1487168661.415616) vcan1 204#C0007D036D000000
(1487168661.416042) vcan1 216#C65A999D00000000
(1487168661.416285) vcan1 217#16241630162C1624
(1487168661.417070) vcan1 415#19E1D4FD07F907F9
(1487168661.417351) vcan1 4B0#01008000100000FE
(1487168661.419273) vcan1 242#05B32005CE000001
(1487168661.421594) vcan1 082#5C08140089804000
(1487168661.422591) vcan1 085#7C43800065D07C52
(1487168661.422864) vcan1 091#7EFB7EF437D7F000
(1487168661.423207) vcan1 092#6FBB6FB373512FD7
(1487168661.423465) vcan1 186#140601FA008505FA
(1487168661.423777) vcan1 217#1624163016281618
(1487168661.423995) vcan1 165#10CD460000000000
(1487168661.424795) vcan1 167#72801A10001A2700
(1487168661.425092) vcan1 178#000002000E79CA79
(1487168661.425405) vcan1 200#00007FF0801F0000
(1487168661.425872) vcan1 202#04F55800608519E3
(1487168661.426072) vcan1 204#C0007D036D000000
(1487168661.432400) vcan1 085#7C43800064E07C52
(1487168661.432672) vcan1 091#7EEA7EF447D8F000
(1487168661.432926) vcan1 092#6FBA6FAB736127D8
(1487168661.433457) vcan1 3A8#0100270700000000
(1487168661.433736) vcan1 167#72801A10001A2700
(1487168661.433955) vcan1 076#3E77C0800FFF0000
(1487168661.434184) vcan1 077#19E007F67FF809FF
(1487168661.434545) vcan1 07D#0000FD20001F3800
(1487168661.434785) vcan1 202#04F56000608519E2
(1487168661.435011) vcan1 204#C0007D036D000000
(1487168661.435688) vcan1 216#DC71B0B400000000
(1487168661.435845) vcan1 217#16241630162C161C
(1487168661.435984) vcan1 415#19E6D8F707F907F9
(1487168661.436673) vcan1 42F#7D04002E661B036D
(1487168661.436895) vcan1 4B0#01008000200000FD
(1487168661.441095) vcan1 082#5B08140089804000
(1487168661.442186) vcan1 085#7C43800063F07C52
(1487168661.442429) vcan1 091#7EE47EF44CD9F000
(1487168661.442720) vcan1 092#6FB16FA9736F23D9
(1487168661.442966) vcan1 186#140501FA008505FA
(1487168661.443270) vcan1 3CA#8280485D00000000
(1487168661.444384) vcan1 217#1628163016241628
(1487168661.444619) vcan1 165#10CD460000000000
(1487168661.444825) vcan1 167#72801A10001A2800
(1487168661.445030) vcan1 200#00007FF0801F0000
(1487168661.445252) vcan1 202#04F46800608519E2
(1487168661.445449) vcan1 204#C0007D036D000000
(1487168661.451942) vcan1 085#7C43800072007C52
(1487168661.453047) vcan1 091#7EE57EF44ADAF000
(1487168661.453264) vcan1 092#6FB16FAD736528DA
(1487168661.454118) vcan1 3A8#0100270700000000
(1487168661.454352) vcan1 167#72801A10001A2800
(1487168661.454538) vcan1 076#3E7AC0800FFF0000
(1487168661.455229) vcan1 077#19E007F67FF7FDFD
(1487168661.455428) vcan1 07D#0000FC30001FB7FA
(1487168661.455649) vcan1 202#04F27000608519E3
(1487168661.455850) vcan1 204#C0007D036D000000
(1487168661.456108) vcan1 216#F387C7CB00000000
(1487168661.456307) vcan1 217#1628162816241628
(1487168661.456491) vcan1 415#19E5DCF707F907F9
(1487168661.456675) vcan1 4B0#01008000300000FC
(1487168661.458603) vcan1 242#05B32005CE000001
(1487168661.461763) vcan1 091#7EE77EF447DBF000
(1487168661.462822) vcan1 082#5C08140089804000
(1487168661.463051) vcan1 085#7C43800071107C52
(1487168661.463292) vcan1 092#6FBD6FB6735126DB
(1487168661.463527) vcan1 186#140501FA008505FA
(1487168661.463932) vcan1 217#162C162C161C1628
(1487168661.464156) vcan1 165#10CD460000000000
(1487168661.464367) vcan1 167#72801A10001A2800
(1487168661.464975) vcan1 200#00007FF0801F0000
(1487168661.465202) vcan1 202#04F17800608519E3
(1487168661.465423) vcan1 204#C0007D036D000000
(1487168661.466060) vcan1 42F#7D04002E661B036D
(1487168661.471812) vcan1 085#7C43800070207C52
(1487168661.472721) vcan1 3CA#8280485D00000000
(1487168661.472982) vcan1 091#7EE87EF346DCF000
(1487168661.473226) vcan1 092#6FC36FBF734720DC
(1487168661.473762) vcan1 3A8#0100270A00000000
(1487168661.474021) vcan1 167#72801A10001A2800
(1487168661.474230) vcan1 076#3E7AC0800FFF0000
(1487168661.474895) vcan1 077#19E007F67FF80DFF
(1487168661.475121) vcan1 07D#0000FB40001F37FB
(1487168661.475360) vcan1 202#04000000608519E3
(1487168661.475579) vcan1 204#C0007D036D000000
(1487168661.476028) vcan1 216#0A9EDEE200000000
(1487168661.476319) vcan1 217#1628162C1618162C
(1487168661.476558) vcan1 415#19E5E0F607F907F9
(1487168661.477052) vcan1 4B0#01008000400000FB
(1487168661.482524) vcan1 082#5D08140089804000
(1487168661.482745) vcan1 085#7C4380006F307C52
(1487168661.483625) vcan1 091#7EED7EF241DDF000
(1487168661.483866) vcan1 092#6FBC6FC3734E1BDD
(1487168661.484095) vcan1 186#140401FA008505FA
(1487168661.484716) vcan1 18A#00201A0114000000
(1487168661.484939) vcan1 165#10CD460000000000
(1487168661.485172) vcan1 217#16241630161C1620
(1487168661.485801) vcan1 167#72801A10001A2800
(1487168661.486015) vcan1 3A7#0E401A045F700000
(1487168661.486236) vcan1 200#00007FF080200000
(1487168661.486471) vcan1 202#04FF0800608519E3
(1487168661.486887) vcan1 204#C0007D036E000000
(1487168661.491244) vcan1 422#000000933802FE02
(1487168661.491472) vcan1 430#37000CF3C88D7700
(1487168661.491695) vcan1 085#7C4380006E407C52
(1487168661.492376) vcan1 091#7EEE7EF23FDEF000
(1487168661.492617) vcan1 092#6FB26FC3736210DE
(1487168661.493445) vcan1 3A8#0100270A00000000
(1487168661.493699) vcan1 167#72801A10001A2800
(1487168661.493908) vcan1 076#3E7AC0800FFF0000
(1487168661.494545) vcan1 077#19E107F57FF81602
(1487168661.494768) vcan1 07D#0000FA50001F07FD
(1487168661.495018) vcan1 202#04FE1000608519E3
(1487168661.495238) vcan1 204#C0007D036E000000
(1487168661.495675) vcan1 216#21B4F5F900000000
(1487168661.495909) vcan1 217#1628163416201628
(1487168661.496720) vcan1 415#19E5E4F507F907F9
(1487168661.496946) vcan1 42F#7D04002E661B036D
(1487168661.497211) vcan1 4B0#01008000500000FA
(1487168661.498900) vcan1 242#05B32003CE000001
(1487168661.501078) vcan1 186#140401FA008505FA
(1487168661.502224) vcan1 082#6008140089804000
(1487168661.502448) vcan1 085#7C4380006D507C52
(1487168661.502686) vcan1 091#7EE17EEF4EDFF000
(1487168661.503273) vcan1 092#6FAD6FBE737A01DF
(1487168661.503489) vcan1 3CA#8280485D00000000
(1487168661.504374) vcan1 217#162C163016201620
(1487168661.504656) vcan1 165#10CD460000000000
(1487168661.505446) vcan1 167#72801A10001A2800
(1487168661.505668) vcan1 200#00007FF080200000
(1487168661.505906) vcan1 202#04FD1800608519E3
(1487168661.506125) vcan1 204#C0007D036E000000
(1487168661.511893) vcan1 085#7C4380006B607C53
(1487168661.512152) vcan1 091#7ED07EEB62E0F000
(1487168661.512393) vcan1 092#6FB36FB6738EEEE0
(1487168661.512986) vcan1 3A8#0100270A00000000
(1487168661.514084) vcan1 167#72801A10001A2700
(1487168661.514294) vcan1 076#3E7AC0800FFF0000
(1487168661.514511) vcan1 077#19E107F47FF7FE02
(1487168661.514733) vcan1 07D#0000F960001FE7FA
(1487168661.514987) vcan1 202#04FC2000608519E3
(1487168661.515158) vcan1 204#C0007D036E000000
(1487168661.515339) vcan1 216#38CB0A1000000000
(1487168661.516297) vcan1 217#163016381628161C
(1487168661.516534) vcan1 415#19EBE8EE07F907F9
(1487168661.517356) vcan1 4B0#01008000600000F9
(1487168661.520584) vcan1 186#140401FA008505FA
(1487168661.521644) vcan1 05D#83579F5F37000000
(1487168661.521857) vcan1 082#5F08140089804000
(1487168661.522077) vcan1 085#7C4380006A707C53
(1487168661.522314) vcan1 091#7EDC7EEB55E1F000
(1487168661.522767) vcan1 092#6FBE6FB27399DBE1
(1487168661.523868) vcan1 217#163016381624161C
(1487168661.524091) vcan1 165#10CD460000000000
(1487168661.524941) vcan1 167#72801A10001A2700
(1487168661.525165) vcan1 178#000002000E79CA79
(1487168661.526030) vcan1 200#00007FF080200000
(1487168661.526269) vcan1 202#04FA2800608519E4
(1487168661.526487) vcan1 204#C0007D036E000000
(1487168661.528215) vcan1 42F#7D04002E661B036E
(1487168661.531512) vcan1 085#7C43800069807C53
(1487168661.532535) vcan1 3CA#827FA85800000000
(1487168661.532773) vcan1 091#7F0F7EEE1DE2F000
(1487168661.533009) vcan1 092#6FC76FB273A0CAE2
(1487168661.533222) vcan1 3A8#0100270A00000000
(1487168661.533611) vcan1 167#72801A10001A2700
(1487168661.533835) vcan1 076#3E7AC0800FFF0000
(1487168661.534026) vcan1 077#19E107F37FF80DFF
(1487168661.534734) vcan1 07D#0000F870002077F8
(1487168661.534979) vcan1 202#04F83000608519E5
(1487168661.535189) vcan1 204#C0007D036E000000
(1487168661.535890) vcan1 216#4FE2212500000000
(1487168661.536117) vcan1 217#16341634162C1624
(1487168661.536325) vcan1 415#19F4ECE407F907F9
(1487168661.536973) vcan1 4B0#01008000700000F8
(1487168661.539145) vcan1 242#05B32001CE000001
(1487168661.541414) vcan1 186#140401FA008505FA
(1487168661.541701) vcan1 082#6008140089804000
(1487168661.542516) vcan1 085#7C43800068907C53
(1487168661.542757) vcan1 091#7F507EEEDBE3F000
(1487168661.543004) vcan1 092#6FC76FB573A2C4E3
(1487168661.543631) vcan1 217#1634163816301624
(1487168661.543877) vcan1 165#10CD460000000000
(1487168661.544731) vcan1 167#72801A10001A2700
(1487168661.544958) vcan1 200#00007FF080200000
(1487168661.545196) vcan1 202#04F53800608519E7
(1487168661.545408) vcan1 204#C0007D036E000000
(1487168661.551209) vcan1 091#7F797EEDB2E4F000
(1487168661.552365) vcan1 085#7C43800067A07C53
(1487168661.552610) vcan1 092#6FB56FB67397DFE4
(1487168661.553434) vcan1 3A8#0100270A00000000
(1487168661.553692) vcan1 167#72801A10001A2700
(1487168661.553895) vcan1 076#3E7AC0800FFF0000
(1487168661.554548) vcan1 077#19E107F47FF819FF
(1487168661.554774) vcan1 07D#0000F7800020A81B
(1487168661.555028) vcan1 202#04F24000608519E9
(1487168661.555241) vcan1 204#C0007D036E000000
(1487168661.555673) vcan1 216#65F9383C00000000
(1487168661.555908) vcan1 217#16301638162C1624
(1487168661.556645) vcan1 415#19F2F0E507F907F9
(1487168661.556841) vcan1 42F#7D04002E661B036E
(1487168661.557049) vcan1 4B0#01008000800000F7
(1487168661.562175) vcan1 186#140401FA008505FA
(1487168661.562455) vcan1 082#5F08140089804000
(1487168661.562668) vcan1 085#7C43800066B07C53
(1487168661.563246) vcan1 091#7F827EEBAAE5F000
(1487168661.563475) vcan1 092#6FA06FB6738EFCE5
(1487168661.563678) vcan1 3CA#827FA85800000000
(1487168661.564358) vcan1 217#1634163C1628162C
(1487168661.564570) vcan1 165#10CD460000000000
(1487168661.565438) vcan1 167#72801A10001A2700
(1487168661.565648) vcan1 200#00007FF080200000
(1487168661.565875) vcan1 202#04F04800608519EA
(1487168661.566083) vcan1 204#C0007D036F000000
(1487168661.570983) vcan1 085#7C43800065C07C53
(1487168661.572081) vcan1 091#7F737EEAB9E6F000
(1487168661.572311) vcan1 092#6F9E6FB97396F2E6
(1487168661.573136) vcan1 3A8#0100270A00000000
(1487168661.573392) vcan1 167#72801A10001A2700
(1487168661.573591) vcan1 076#3E7AC0800FFF0000
(1487168661.574247) vcan1 077#19E207F37FF7F1FF
(1487168661.574460) vcan1 07D#0000F6900020482B
(1487168661.574688) vcan1 202#04EE5000608519EB
(1487168661.574910) vcan1 204#C0007D036F000000
(1487168661.575374) vcan1 216#7C104F5300000000
(1487168661.576445) vcan1 217#1634163C1624162C
(1487168661.576675) vcan1 415#19F5F4E107F907F9
(1487168661.577527) vcan1 4B0#01008000900000F6
(1487168661.578675) vcan1 242#05B32001CE000001
(1487168661.583852) vcan1 186#140901FA008505FA
(1487168661.584095) vcan1 18A#00201A0114000000
(1487168661.584337) vcan1 082#5F08140089804000
(1487168661.584509) vcan1 085#7C43800064D07C53
(1487168661.584698) vcan1 091#7F547EE9D8E7F000
(1487168661.584872) vcan1 092#6FA96FBC73A4D5E7
(1487168661.585049) vcan1 217#163816381624162C
(1487168661.585202) vcan1 165#10CD460000000000
(1487168661.585353) vcan1 167#72801A10001A2700
(1487168661.585501) vcan1 200#00007FF0801F0000
(1487168661.585667) vcan1 202#04EC5800608519EC
(1487168661.585832) vcan1 204#C0007D0370000000
(1487168661.585987) vcan1 42F#7D04002E661A036E
(1487168661.591537) vcan1 422#000000933802FE02
(1487168661.591817) vcan1 430#37000CF3C88D7700
(1487168661.592058) vcan1 085#7C43800063E07C53
(1487168661.592427) vcan1 3CA#827FA85800000000
(1487168661.592738) vcan1 091#7F367EEBF3E8F000
(1487168661.593004) vcan1 092#6FBA6FC273A2BFE8
(1487168661.593479) vcan1 3A8#0100270A00000000
(1487168661.593739) vcan1 167#72801A10001A2700
(1487168661.593941) vcan1 076#3E7AC0800FFF0000
(1487168661.594571) vcan1 077#19E307F27FF7F200
(1487168661.594819) vcan1 07D#0000F5A00020681C
(1487168661.595066) vcan1 202#04E96000608519EE
(1487168661.595289) vcan1 204#C0007D0370000000
(1487168661.595697) vcan1 216#9327666A00000000
(1487168661.595910) vcan1 217#1634163816201630
(1487168661.596727) vcan1 415#19F5F8E007FA07FA
(1487168661.596957) vcan1 4B0#01008000A00000F5
(1487168661.599946) vcan1 186#140901FA008505FA
(1487168661.601121) vcan1 091#7F317EEFF3E9F000
(1487168661.602095) vcan1 082#5D08140089804000
(1487168661.602322) vcan1 085#7C43800062F07C53
(1487168661.602560) vcan1 092#6FC46FC47384D0E9
(1487168661.603523) vcan1 217#1634163816241628
(1487168661.604642) vcan1 165#10CD460000000000
(1487168661.604867) vcan1 167#72801910001A2700
(1487168661.605477) vcan1 200#00007FEF801F0000
(1487168661.605737) vcan1 202#04E86800608519EE
(1487168661.605963) vcan1 204#C0007D0371000000
(1487168661.611920) vcan1 085#7C42800073007C52
(1487168661.612177) vcan1 091#7F527EF4CCEAF000
(1487168661.612422) vcan1 092#6FC06FBF735DFFEA
(1487168661.612965) vcan1 3A8#0100270A00000000
(1487168661.613228) vcan1 167#72801910001A2700
(1487168661.614046) vcan1 076#3E7AC0800FFF0000
(1487168661.614268) vcan1 077#19E507F47FF81604
(1487168661.614490) vcan1 07D#0000F4B000201811
(1487168661.614730) vcan1 202#04E67000608519EF
(1487168661.615109) vcan1 204#C0007D0371000000
(1487168661.615355) vcan1 216#AA3E7D8100000000
(1487168661.615570) vcan1 217#1630163816281628
(1487168661.616224) vcan1 415#19F1FCE307FA07FA
(1487168661.616517) vcan1 42F#7D04002E661A0370
(1487168661.619450) vcan1 4B0#01008000B00000F4
(1487168661.619670) vcan1 242#05B32001CE000001
(1487168661.620553) vcan1 186#140701FA008505FA
(1487168661.622883) vcan1 082#5F08140089804000
(1487168661.623115) vcan1 085#7C42800071107C53
(1487168661.623344) vcan1 091#7F787EF4A5EBF000
(1487168661.623510) vcan1 092#6FB26FB9734E21EB
(1487168661.623673) vcan1 3CA#827FA85800000000
(1487168661.623852) vcan1 217#1630163C162C1624
(1487168661.624009) vcan1 165#10CD460000000000
(1487168661.624166) vcan1 167#72801A10001A2700
(1487168661.624986) vcan1 178#000002010E79CA79
(1487168661.625291) vcan1 200#00007FEF801E0000
(1487168661.625527) vcan1 202#04E57800608519EF
(1487168661.625961) vcan1 204#C0007D0371000000
(1487168661.631542) vcan1 085#7C42800070207C53
(1487168661.632525) vcan1 091#7F837EF09DECF000
(1487168661.632769) vcan1 092#6FA86FB8735821EC
(1487168661.633606) vcan1 3A8#0100270A00000000
(1487168661.633875) vcan1 167#72801A10001A2700
(1487168661.634085) vcan1 076#3E79C0800FFF0000
(1487168661.634306) vcan1 077#19E607F67FF80200
(1487168661.634678) vcan1 07D#0000F3C0001F2827
(1487168661.634941) vcan1 202#04F40000608519EF
(1487168661.635159) vcan1 204#C0007D0371000000
(1487168661.635786) vcan1 216#C155939800000000
(1487168661.636001) vcan1 217#1630163C16301624
(1487168661.636199) vcan1 415#19F1C0F207FA07FA
(1487168661.636900) vcan1 4B0#01008000C00000F3
(1487168661.640163) vcan1 186#140901FA008505FA
(1487168661.642356) vcan1 091#7F697EEBBBEDF000
(1487168661.642577) vcan1 082#6008140089804000
(1487168661.642847) vcan1 085#7C4280006F307C53
(1487168661.643424) vcan1 092#6FA36FB9736913ED
(1487168661.644509) vcan1 217#1630163816301624
(1487168661.644734) vcan1 165#10CD460000000000
(1487168661.644949) vcan1 167#72801A10001A2700
(1487168661.645586) vcan1 200#00007FEF801E0000
(1487168661.645831) vcan1 202#04F30800608519EF
(1487168661.646045) vcan1 204#C0007D0371000000
(1487168661.646726) vcan1 42F#7D04002E661A0371
(1487168661.651299) vcan1 085#7C4280006E407C53
(1487168661.652219) vcan1 3CA#8280185700000000
(1487168661.652467) vcan1 091#7F3C7EE9E9EEF000
(1487168661.652700) vcan1 092#6FA06FB7736F11EE
(1487168661.653353) vcan1 3A8#0100270A00000000
(1487168661.653629) vcan1 167#72801A10001A2700
(1487168661.654556) vcan1 076#3E79C0800FFF0000
(1487168661.654767) vcan1 077#19E707F37FF7F200
(1487168661.654978) vcan1 07D#0000F2D0001FA823
(1487168661.655148) vcan1 202#04F21000608519EF
(1487168661.655294) vcan1 204#C0007D0371000000
(1487168661.655480) vcan1 216#D86CAAAF00000000
(1487168661.655632) vcan1 217#1630163816281620
(1487168661.656645) vcan1 415#19F1C4F107FA07FA
(1487168661.657028) vcan1 4B0#01008000D00000F2
(1487168661.658743) vcan1 242#05B32001CE000001
(1487168661.659826) vcan1 186#140901FA008505FA
(1487168661.661954) vcan1 082#6308140089804000
(1487168661.662157) vcan1 085#7C4280006D507C53
(1487168661.662376) vcan1 091#7F1E7EED02EFF000
(1487168661.662593) vcan1 092#6FA56FAE736F14EF
(1487168661.664148) vcan1 217#162C163416181624
(1487168661.664360) vcan1 165#10CD460000000000
(1487168661.664557) vcan1 167#72801A10001A2700
(1487168661.665225) vcan1 200#00007FF0801E0000
(1487168661.665443) vcan1 202#04F11800608519EF
(1487168661.665638) vcan1 204#C0007D0372000000
(1487168661.671785) vcan1 085#7C4280006C607C53
(1487168661.671999) vcan1 091#7F227EF0FAF0F000
(1487168661.672910) vcan1 092#6FB56FA5737308F0
(1487168661.673984) vcan1 3A8#0100270A00000000
(1487168661.674221) vcan1 167#72801A10001A2700
(1487168661.674408) vcan1 076#3E79C0800FFF0000
(1487168661.674602) vcan1 077#19E607F47FF7F5FE
(1487168661.674823) vcan1 07D#0000F1E0001FB80B
(1487168661.675045) vcan1 202#04F02000608519EF
(1487168661.675198) vcan1 204#C0007D0372000000
(1487168661.675384) vcan1 216#EF81C1C600000000
(1487168661.676213) vcan1 217#162C163016101628
(1487168661.676463) vcan1 415#19ECC8F507FA07FA
(1487168661.677337) vcan1 42F#7D04002E661B0371
(1487168661.677555) vcan1 4B0#01008000E00000F1
(1487168661.680613) vcan1 186#140B01FA008505FA
(1487168661.680915) vcan1 18A#00201A0114000000
(1487168661.681707) vcan1 082#6708140089804000
(1487168661.681933) vcan1 085#7C4280006B707C53
(1487168661.682874) vcan1 091#7F387EF0E3F1F000
(1487168661.683114) vcan1 092#6FC16FA1737CF6F1
(1487168661.683321) vcan1 3A7#0E401A045F700000
(1487168661.683926) vcan1 3CA#8280185700000000
(1487168661.684169) vcan1 165#10CD460000000000
(1487168661.684385) vcan1 167#72801A10001A2700
(1487168661.684977) vcan1 200#00007FF0801E0000
(1487168661.685214) vcan1 202#04F02800608519EE
(1487168661.685430) vcan1 204#C0007D0372000000
(1487168661.685667) vcan1 217#162C162C16141624
(1487168661.691870) vcan1 422#000000933802FE02
(1487168661.692274) vcan1 430#37000CF3C88D7700
(1487168661.692484) vcan1 085#7C4280006A807C53
(1487168661.692720) vcan1 091#7F547EEFC7F2F000
(1487168661.692912) vcan1 092#6FBD6FA37380F3F2
(1487168661.693658) vcan1 3A8#0100270A00000000
(1487168661.693909) vcan1 167#72801910001A2700
(1487168661.694744) vcan1 076#3E79C0800FFF0000
(1487168661.694974) vcan1 077#19E407F57FF801FC
(1487168661.695184) vcan1 07D#0000F0F0001FC813
(1487168661.695411) vcan1 202#04EF3000608519EE
(1487168661.695623) vcan1 204#C0007D0372000000
(1487168661.695888) vcan1 216#0698D7DB00000000
(1487168661.696113) vcan1 217#162C162C16141628
(1487168661.696937) vcan1 415#19E7CCF907FA07FA
(1487168661.697156) vcan1 4B0#01008000F00000F0
(1487168661.699135) vcan1 242#05B32003CE000001
(1487168661.700229) vcan1 186#140B01FA008505FA
(1487168661.701424) vcan1 091#7F707EEFAAF3F000
(1487168661.702486) vcan1 082#6908140089804000
(1487168661.702712) vcan1 085#7C42800069907C53
(1487168661.702961) vcan1 092#6FB26FAA737DF9F3
(1487168661.704707) vcan1 217#1628163016181620
(1487168661.704958) vcan1 165#10CD460000000000
(1487168661.705173) vcan1 167#72801910001A2700
(1487168661.705754) vcan1 200#00007FF0801E0000
(1487168661.705986) vcan1 202#04F03800608519EC
(1487168661.706196) vcan1 204#C0007D0372000000
(1487168661.706864) vcan1 42F#7D04002E661A0372
(1487168661.711259) vcan1 085#7C42800068A07C53
(1487168661.712661) vcan1 3CA#8280185700000000
(1487168661.712914) vcan1 091#7F897EF08FF4F000
(1487168661.713148) vcan1 092#6FA76FAD737FFEF4
(1487168661.713562) vcan1 3A8#0100270A00000000
(1487168661.713826) vcan1 167#72801910001A2700
(1487168661.714623) vcan1 076#3E79C0800FFF0000
(1487168661.714863) vcan1 077#19E207F47FF801FD
(1487168661.715080) vcan1 07D#0000FF00001FF825
(1487168661.715318) vcan1 202#04F04000608519EB
(1487168661.715526) vcan1 204#C0007D0372000000
(1487168661.715799) vcan1 216#1BAFEEF200000000
(1487168661.715980) vcan1 217#1628162C161C161C
(1487168661.716817) vcan1 415#19E7D0F807F907F9
(1487168661.717124) vcan1 4B0#01008000000000FF
(1487168661.719054) vcan1 186#140C01FA008505FA
(1487168661.721495) vcan1 05D#8357AF5E34000000
(1487168661.721884) vcan1 082#6C08140089804000
(1487168661.722212) vcan1 085#7C42800067B07C53
(1487168661.722430) vcan1 091#7F8B7EF28AF5F000
(1487168661.722642) vcan1 092#6FA16FAC738AF9F5
(1487168661.724429) vcan1 217#1620162C16201614
(1487168661.724643) vcan1 165#10CD460000000000
(1487168661.724851) vcan1 167#72801910001A2700
(1487168661.725500) vcan1 178#000002000E79CA79
(1487168661.725709) vcan1 200#00007FF0801E0000
(1487168661.725982) vcan1 202#04F04800608519EA
(1487168661.726594) vcan1 204#C0007D0371000000
(1487168661.732076) vcan1 091#7F707EF3A3F6F000
(1487168661.732301) vcan1 085#7C42800066C07C53
(1487168661.733173) vcan1 092#6FA36FAB7391F0F6
(1487168661.734230) vcan1 3A8#0100270A00000000
(1487168661.734480) vcan1 167#72801910001A2700
(1487168661.734678) vcan1 076#3E79C0800FFF0000
(1487168661.734900) vcan1 077#19E007F57FF7F1FE
(1487168661.735141) vcan1 07D#0000FE100020382D
(1487168661.735311) vcan1 202#04F05000608519E9
(1487168661.735461) vcan1 204#C0007D0371000000
(1487168661.735648) vcan1 216#32C6050900000000
(1487168661.735804) vcan1 217#161C163016241618
(1487168661.735957) vcan1 415#19DFD4FF07F907F9
(1487168661.736371) vcan1 42F#7D04002E661A0372
(1487168661.736524) vcan1 4B0#01008000100000FE
(1487168661.738607) vcan1 242#05B32002CE000001
(1487168661.739799) vcan1 186#140C01FA008505FA
(1487168661.740877) vcan1 082#6D08140089804000
(1487168661.741965) vcan1 085#7C42800065D07C53
(1487168661.742207) vcan1 091#7F4B7EF2C8F7F000
(1487168661.742441) vcan1 092#6FAD6FAA7385F2F7
(1487168661.742650) vcan1 3CA#8280185700000000
(1487168661.744094) vcan1 217#1620163016281620
(1487168661.744315) vcan1 165#10CD460000000000
(1487168661.744525) vcan1 167#72801910001A2700
(1487168661.744734) vcan1 200#00007FF0801E0000
(1487168661.745174) vcan1 202#04F15800608519E7
(1487168661.745383) vcan1 204#C0007D0371000000
(1487168661.751822) vcan1 085#7C42800064E07C53
(1487168661.752988) vcan1 091#7F337EF1E0F8F000
(1487168661.753348) vcan1 092#6FBD6FAB7373F2F8
(1487168661.753631) vcan1 3A8#0100270A00000000
(1487168661.753883) vcan1 076#3E79C0800FFF0000
(1487168661.754063) vcan1 077#19DF07F57FF7FDFD
(1487168661.754229) vcan1 07D#0000FD2000201819
(1487168661.754385) vcan1 167#72801910001A2700
(1487168661.754556) vcan1 202#04F26000608519E5
(1487168661.754985) vcan1 204#C0007D0370000000
(1487168661.755154) vcan1 213#FFFF00040001FE40
(1487168661.755360) vcan1 216#49DD1B2000000000
(1487168661.756056) vcan1 217#1624162C162C1624
(1487168661.756210) vcan1 415#19E1D8FC07F907F9
(1487168661.756363) vcan1 4B0#01008000200000FD
(1487168661.759407) vcan1 186#140C01FA008505FA
(1487168661.761602) vcan1 082#6C08140089804000
(1487168661.762686) vcan1 085#7C42800063F07C53
(1487168661.762947) vcan1 091#7F2B7EF1E7F9F000
(1487168661.763180) vcan1 092#6FC66FAD7362F7F9
(1487168661.764904) vcan1 217#1624162C162C1628
(1487168661.765132) vcan1 165#10CD460000000000
(1487168661.765353) vcan1 167#72801910001A2700
(1487168661.765574) vcan1 200#00007FF0801E0000
(1487168661.765933) vcan1 202#04F26800608519E4
(1487168661.766126) vcan1 204#C0007D0370000000
(1487168661.766312) vcan1 42F#7D04002E661A0371
(1487168661.771682) vcan1 085#7C42800072007C53
(1487168661.772585) vcan1 3CA#8280085B00000000
(1487168661.772834) vcan1 091#7F2D7EEFE6FAF000
(1487168661.773068) vcan1 092#6FBE6FB2734E0DFA
(1487168661.773638) vcan1 3A8#0100270A00000000
(1487168661.773873) vcan1 076#3E79C0800FFF0000
(1487168661.774741) vcan1 077#19DE07F57FF819FE
(1487168661.775089) vcan1 167#72801A10001A2700
(1487168661.775328) vcan1 202#04F17000608519E4
(1487168661.775816) vcan1 204#C0007D036F000000
(1487168661.776181) vcan1 216#60F4323700000000
(1487168661.776402) vcan1 217#1624162C162C1628
(1487168661.776989) vcan1 415#19E4DCF807F907F9
(1487168661.777210) vcan1 4B0#01008000300000FC
(1487168661.779136) vcan1 186#140C01FA008505FA
(1487168661.780378) vcan1 18A#00201A0114000000
(1487168661.780595) vcan1 242#05B32001CE000001
(1487168661.782653) vcan1 40A#C000000740C1A600
(1487168661.783085) vcan1 082#6D08140089804000
(1487168661.783304) vcan1 085#7C42800071107C53
(1487168661.783480) vcan1 091#7F307EEEE3FBF000
(1487168661.783630) vcan1 092#6FAD6FB8733B2AFB
(1487168661.783785) vcan1 217#162416281628162C
(1487168661.783927) vcan1 165#10CD460000000000
(1487168661.784572) vcan1 167#72801A10001A2700
(1487168661.784734) vcan1 200#00007FF0801F0000
(1487168661.784921) vcan1 202#04F17800608519E3
(1487168661.785089) vcan1 204#C0007D0370000000
(1487168661.791195) vcan1 422#000000933802FE02
(1487168661.791439) vcan1 430#37000CF3C88D7700
(1487168661.792256) vcan1 085#7C42800070207C53
(1487168661.792529) vcan1 091#7F297EEAEDFCF000
(1487168661.792774) vcan1 092#6FA86FBC732E37FC
(1487168661.793314) vcan1 3A8#0100270A00000000
(1487168661.793577) vcan1 167#72801A10001A2700
(1487168661.794383) vcan1 076#3E79C0800FFF0000
(1487168661.794607) vcan1 077#19DF07F47FF80DFF
(1487168661.794856) vcan1 07D#0000FB40001F2811
(1487168661.795099) vcan1 202#04000000608519E3
(1487168661.795438) vcan1 204#C0007D0370000000
(1487168661.795688) vcan1 216#770B494E00000000
(1487168661.796564) vcan1 217#1624162C1624162C
(1487168661.796790) vcan1 415#19DEE0FD07F907F9
(1487168661.797014) vcan1 42F#7D04002E661B036F
(1487168661.797617) vcan1 4B0#01008000400000FB
(1487168661.798700) vcan1 186#140901FA008505FA
(1487168661.800879) vcan1 082#6E08140089804000
(1487168661.801973) vcan1 085#7C4280006F307C53
(1487168661.802215) vcan1 091#7F107EE609FDF000
(1487168661.802455) vcan1 092#6FB36FBF732C2AFD
(1487168661.802669) vcan1 3CA#8280085B00000000
(1487168661.804137) vcan1 217#162816281620162C
(1487168661.804390) vcan1 165#10CD460000000000
(1487168661.804610) vcan1 167#72801A10001A2700
(1487168661.805202) vcan1 200#00007FF0801F0000
(1487168661.805441) vcan1 202#04000800608519E2
(1487168661.805659) vcan1 204#C0007D036F000000
(1487168661.811729) vcan1 085#7C4280006E407C53
(1487168661.812855) vcan1 091#7EF27EE12CFEF000
(1487168661.813100) vcan1 092#6FC26FC2733211FE
(1487168661.813317) vcan1 3A8#0100270A00000000
(1487168661.813899) vcan1 167#72801A10001A2700
(1487168661.814112) vcan1 076#3E79C0800FFF0000
(1487168661.814332) vcan1 077#19E007F17FF80202
(1487168661.814565) vcan1 07D#0000FA50001E8807
(1487168661.814837) vcan1 202#04001000608519E1
(1487168661.815024) vcan1 204#C0007D036F000000
(1487168661.815241) vcan1 216#8E22606500000000
(1487168661.815433) vcan1 217#162416281624162C
(1487168661.816048) vcan1 415#19E4E4F607F907F9
(1487168661.816358) vcan1 4B0#01008000500000FA
(1487168661.818283) vcan1 186#140701FA008505FA
(1487168661.819470) vcan1 242#05B32004CE000001
(1487168661.821513) vcan1 082#7008140089804000
(1487168661.821727) vcan1 085#7C4280006D507C53
(1487168661.821956) vcan1 091#7EE07EE23CFFF000
(1487168661.822634) vcan1 092#6FC96FC4733306FF
(1487168661.823745) vcan1 217#1624162C16201628
(1487168661.823955) vcan1 165#10CD460000000000
(1487168661.824818) vcan1 167#72801A10001A2700
(1487168661.825030) vcan1 178#000001FE0E79CA79
(1487168661.825934) vcan1 200#00007FF080200000
(1487168661.826164) vcan1 202#04FF1800608519E1
(1487168661.826371) vcan1 204#C0007D036E000000
(1487168661.828125) vcan1 42F#7D04002E661A0370
(1487168661.831481) vcan1 085#7C4280006C607C53
(1487168661.831697) vcan1 3CA#8280085B00000000
(1487168661.832579) vcan1 091#7EE27EE53600F000
(1487168661.832809) vcan1 092#6FC66FC373291300
(1487168661.833651) vcan1 3A8#0100270A00000000
(1487168661.833888) vcan1 076#3E7CC0800FFF0000
(1487168661.834096) vcan1 077#19E207F07FF81A04
(1487168661.834764) vcan1 07D#0000F960001EA7F9
(1487168661.835004) vcan1 167#72801A10001A2700
(1487168661.835231) vcan1 202#04FE2000608519E1
(1487168661.835889) vcan1 204#C0007D036E000000
(1487168661.836108) vcan1 216#A538777C00000000
(1487168661.836333) vcan1 217#1624162C16241624
(1487168661.836978) vcan1 415#19E2E8F707F907F9
(1487168661.837198) vcan1 4B0#01008000600000F9
(1487168661.838098) vcan1 186#140301FA008505FA
(1487168661.841342) vcan1 082#7208140089804000
(1487168661.842443) vcan1 085#7C4280006B707C53
(1487168661.842688) vcan1 091#7EEA7EE62C01F000
(1487168661.842941) vcan1 092#6FC06FC073222201
(1487168661.844605) vcan1 217#1624163416281624
(1487168661.844831) vcan1 165#10CD460000000000
(1487168661.845054) vcan1 167#72801A10001A2700
(1487168661.845280) vcan1 200#00007FF080200000
(1487168661.845535) vcan1 202#04FD2800608519E1
(1487168661.845757) vcan1 204#C0007D036E000000
(1487168661.851449) vcan1 085#7C4280006A807C53
(1487168661.852289) vcan1 091#7EF07EE42702F000
(1487168661.852537) vcan1 092#6FBB6FBC732E1E02
(1487168661.853325) vcan1 3A8#0100270D00000000
(1487168661.853601) vcan1 167#72801A10001A2700
(1487168661.854350) vcan1 076#3E7EC0800FFF0000
(1487168661.854562) vcan1 077#19E307F17FF81202
(1487168661.854774) vcan1 07D#0000F870001E57FC
(1487168661.855029) vcan1 202#04FC3000608519E1
(1487168661.855430) vcan1 204#C0007D036D000000
(1487168661.855685) vcan1 216#BC4E8E9300000000
(1487168661.855906) vcan1 217#1628163416281624
(1487168661.856607) vcan1 415#19E7ECF107F907F9
(1487168661.856853) vcan1 42F#7D04002E661A036E
(1487168661.857060) vcan1 4B0#01008000700000F8
(1487168661.858743) vcan1 186#140301FA008505FA
(1487168661.859085) vcan1 242#05B32005CE000001
(1487168661.860936) vcan1 082#7408140089804000
(1487168661.862060) vcan1 085#7C42800069907C53
(1487168661.862303) vcan1 091#7EEF7EE02B03F000
(1487168661.862536) vcan1 092#6FB86FBA73460A03
(1487168661.862744) vcan1 3CA#827FE85C00000000
(1487168661.864189) vcan1 217#1628163016281620
(1487168661.864408) vcan1 165#10CD460000000000
(1487168661.864617) vcan1 167#72801A10001A2700
(1487168661.864825) vcan1 200#00007FF080200000
(1487168661.865282) vcan1 202#04FA3800608519E2
(1487168661.865496) vcan1 204#C0007D036D000000
(1487168661.871819) vcan1 085#7C42800068A07C53
(1487168661.872976) vcan1 091#7EE77EDF3304F000
(1487168661.873218) vcan1 092#6FB66FB97357FB04
(1487168661.873429) vcan1 3A8#0100270F00000000
(1487168661.873658) vcan1 076#3E7EC0800FFF0000
(1487168661.873946) vcan1 077#19E307F07FF80A01
(1487168661.875071) vcan1 07D#0000F780001EF7FE
(1487168661.875283) vcan1 167#72801A10001A2800
(1487168661.875513) vcan1 202#04F94000608519E2
(1487168661.875720) vcan1 204#C0007D036E000000
(1487168661.875993) vcan1 216#D365A3A800000000
(1487168661.876255) vcan1 217#162C1634162C1624
(1487168661.876475) vcan1 415#19E9F0EE07FA07FA
(1487168661.877352) vcan1 4B0#01008000800000F7
(1487168661.878306) vcan1 186#140301FA008505FA
(1487168661.879522) vcan1 18A#00201A0114000000
(1487168661.880750) vcan1 3C3#7EC0000000000000
(1487168661.882764) vcan1 082#7508140489804000
(1487168661.883093) vcan1 085#7C42800067B07C53
(1487168661.883330) vcan1 091#7ED97EDF4005F000
(1487168661.883787) vcan1 092#6FB66FB87358FA05
(1487168661.884034) vcan1 217#162C163416281624
(1487168661.884896) vcan1 165#10CD460000000000
(1487168661.885106) vcan1 167#72801A10001A2800
(1487168661.885307) vcan1 3A7#0E401A045F700000
(1487168661.885520) vcan1 200#00007FF080200000
(1487168661.885965) vcan1 202#04F74800608519E3
(1487168661.886174) vcan1 204#C0007D036E000000
(1487168661.886398) vcan1 42F#7D04002E661B036D
(1487168661.891725) vcan1 422#000000933802FE02
(1487168661.891961) vcan1 430#3F000CF3E88D7700
(1487168661.892672) vcan1 091#7EC57EDF5306F000
(1487168661.892898) vcan1 085#7C43800065C07C53
(1487168661.893140) vcan1 092#6FB76FB473540006
(1487168661.893361) vcan1 3CA#827FE85C00000000
(1487168661.893747) vcan1 3A8#0100270F00000000
(1487168661.894767) vcan1 076#3E7EC0800FFF0000
(1487168661.895001) vcan1 077#19E407EF7FF80600
(1487168661.895216) vcan1 07D#0000F690001F57F7
(1487168661.895429) vcan1 167#72801A10001A2800
(1487168661.895663) vcan1 202#04F55000608519E4
(1487168661.895872) vcan1 204#C0007D036F000000
(1487168661.896126) vcan1 216#E97CBABF00000000
(1487168661.896345) vcan1 217#162C163016241624
(1487168661.896529) vcan1 415#19ECF4EA07FA07FA
(1487168661.896717) vcan1 4B0#01008000900000F6
(1487168661.898015) vcan1 186#140301FA008505FA
(1487168661.900150) vcan1 242#05B32002CE000001
(1487168661.901263) vcan1 091#7EB57EE06107F000
(1487168661.902327) vcan1 082#7508140089804000
(1487168661.902548) vcan1 085#7C43800064D07C53
(1487168661.902789) vcan1 092#6FBA6FB37352FF07
(1487168661.904531) vcan1 217#16301630161C1628
(1487168661.904788) vcan1 165#10CD460000000000
(1487168661.905010) vcan1 167#72801A10001A2800
(1487168661.905614) vcan1 200#00007FF080200000
(1487168661.905855) vcan1 202#04F35800608519E5
(1487168661.906075) vcan1 204#C0007D036E000000
(1487168661.912584) vcan1 085#7C43800063E07C53
(1487168661.912961) vcan1 091#7EB47EE45D08F000
(1487168661.913230) vcan1 092#6FC36FB37354F308
(1487168661.913467) vcan1 3A8#0100270F00000000
(1487168661.914274) vcan1 167#72801A10001A2800
(1487168661.914480) vcan1 077#19E307F07FF809FF
(1487168661.915350) vcan1 07D#0000F5A0001F37EB
(1487168661.915584) vcan1 202#04F16000608519E6
(1487168661.915792) vcan1 204#C0007D036E000000
(1487168661.916046) vcan1 216#0093D1D600000000
(1487168661.916286) vcan1 217#16301634161C162C
(1487168661.916507) vcan1 415#19EBF8EA07FB07FB
