(1487342071.697501) can0 091#7E727EBCF1DEF000
(1487342071.697502) can0 092#6FC46FA17386FCDE
(1487342071.699875) can0 076#3E8BC0800FFF0000
(1487342071.700875) can0 077#1DD407E97FF805FE
(1487342071.700876) can0 07D#0000F4B0002067CC
(1487342071.700876) can0 213#FFFF00040001FF40
(1487342071.700876) can0 214#000000000000F4B0
(1487342071.701878) can0 216#1912B23000000000
(1487342071.701878) can0 217#1990199819841984
(1487342071.701879) can0 3A8#0100271300000000
(1487342071.701879) can0 415#1DE4FCEC07EB07EB
(1487342071.703000) can0 186#140401F9009905F9
(1487342071.703001) can0 187#D51408C800E00300
(1487342071.703002) can0 167#72801310001A2800
(1487342071.703002) can0 202#04F7400060991DE0
(1487342071.704001) can0 41D#8000600000000000
(1487342071.704001) can0 204#C0007D02F4000000
(1487342071.704001) can0 4B0#01008000B00000F4
(1487342071.705002) can0 242#02902012D2000001
(1487342071.705003) can0 3CA#827F18EE00000000
(1487342071.706000) can0 082#860814008E804000
(1487342071.706000) can0 085#7F8180000A507F71
(1487342071.707000) can0 091#7E9D7EC5BCDFF000
(1487342071.708000) can0 092#6FC36FA0737D06DF
(1487342071.708000) can0 078#0068000000000000
(1487342071.710003) can0 217#199019981984197C
(1487342071.712250) can0 047#2000000000000000
(1487342071.713252) can0 165#10CD500000000000
(1487342071.713253) can0 167#72801310001A2800
(1487342071.713253) can0 200#00007FFA80190000
(1487342071.714250) can0 202#04F5480060991DE1
(1487342071.714250) can0 204#C0007D02F4000000
(1487342071.714251) can0 230#600600009E000000
(1487342071.714251) can0 42F#7D04002E661802F5
(1487342071.715500) can0 085#7F81800009607F71
(1487342071.716875) can0 091#7EBF7ECD91E0F000
(1487342071.717877) can0 092#6FBF6F9E737F09E0
(1487342071.717880) can0 454#3646200372204242
(1487342071.720000) can0 076#3E90C0800FFF0000
(1487342071.721127) can0 077#1DD207F07FF805FE
(1487342071.721127) can0 07D#0000F3C0002017E5
(1487342071.721128) can0 213#FFFF00040001FF40
(1487342071.721128) can0 214#000000000000F3C0
(1487342071.722125) can0 216#332CCC4A00000000
(1487342071.722125) can0 217#198C19981988197C
(1487342071.722126) can0 186#140401F9009905F9
(1487342071.722126) can0 187#D41408C800F00300
(1487342071.723125) can0 3A8#0100271A00000000
(1487342071.723126) can0 167#72801310001A2700
(1487342071.723126) can0 415#1DDEC00107EF07EF
(1487342071.723127) can0 202#04F4500060991DE1
(1487342071.724124) can0 204#C0007D02F4000000
(1487342071.724125) can0 41D#8000600000000000
(1487342071.724125) can0 4B0#01008000C00000F3
(1487342071.725127) can0 261#0000000000000000
(1487342071.726127) can0 082#840814008E804000
(1487342071.726128) can0 085#7F8080000A707F70
(1487342071.726128) can0 3CC#3000000000000000
(1487342071.727124) can0 42C#8C40000009B00000
(1487342071.727125) can0 091#7ED17ED972E1F000
(1487342071.727125) can0 092#6FB66F9D738D04E1
(1487342071.728250) can0 078#0168800000000000
(1487342071.730003) can0 217#198819901990197C
(1487342071.732250) can0 047#2000000000000000
(1487342071.733250) can0 165#10CD500000000000
(1487342071.733250) can0 167#72801310001A2700
(1487342071.733251) can0 200#00007FFA80180000
(1487342071.733251) can0 202#04F4580060991DE0
(1487342071.734250) can0 204#C0007D02F5000000
(1487342071.734250) can0 230#600600009E000000
(1487342071.735250) can0 3CA#827F38F500000000
(1487342071.736250) can0 085#7F80800008807F71
(1487342071.737253) can0 091#7ED57EE75FE2F000
(1487342071.737254) can0 092#6FAE6FA0739104E2
(1487342071.738250) can0 455#A000000000000000
(1487342071.740000) can0 076#3E90C0800FFF0000
(1487342071.741128) can0 077#1DD207F67FF7F9FD
(1487342071.741129) can0 07D#0000F2D0002067F5
(1487342071.741129) can0 213#FFFF00040001FF40
(1487342071.741130) can0 214#000000000000F2D0
(1487342071.742127) can0 216#4D45E66400000000
(1487342071.742127) can0 083#0020000000000000
(1487342071.742128) can0 186#140401F9009905F9
(1487342071.742128) can0 187#D41408C800F00300
(1487342071.743131) can0 217#1988199419941980
(1487342071.743132) can0 2A1#FFFFFFFF00000000
(1487342071.743133) can0 167#72801310001A2700
(1487342071.743133) can0 33B#0000000000000000
(1487342071.744126) can0 3A7#0E401A045F700000
(1487342071.744126) can0 202#04F4600060991DDF
(1487342071.744127) can0 3A8#0100271F00000000
(1487342071.744127) can0 415#1DD8C40607F307F3
(1487342071.745127) can0 204#C0007D02F5000000
(1487342071.745128) can0 41D#8000600000000000
(1487342071.745128) can0 242#02902013D2000001
(1487342071.745129) can0 4B0#01008000D00000F2
(1487342071.745129) can0 42F#7D04002E661802F5
(1487342071.746125) can0 082#7C0814008E804000
(1487342071.746125) can0 085#7F7F800008907F71
(1487342071.747125) can0 091#7ED27EF454E3F000
(1487342071.747125) can0 092#6FB06FA273820EE3
(1487342071.748750) can0 078#0168800000000000
(1487342071.750003) can0 217#198C199019941984
(1487342071.752250) can0 047#2000000000000000
(1487342071.753258) can0 05C#00D000EF201E0000
(1487342071.753259) can0 165#10CD500000000000
(1487342071.753259) can0 167#72801310001A2700
(1487342071.753260) can0 200#00007FFA80180000
(1487342071.754250) can0 202#04F4680060991DDE
(1487342071.754251) can0 204#C0007D02F5000000
(1487342071.754254) can0 3A6#0E401A045F700000
(1487342071.754255) can0 230#600600009E000000
(1487342071.755500) can0 085#7F7E800008A07F71
(1487342071.756473) can0 3CC#3000000000000000
(1487342071.757626) can0 091#7EC67EFA59E4F000
(1487342071.757626) can0 092#6FB46FA073711CE4
(1487342071.759998) can0 076#3E90C0800FFF0000
(1487342071.761129) can0 077#1DD307FF7FF7F5FE
(1487342071.761129) can0 07D#0000F1E0002027F6
(1487342071.761130) can0 186#140401F9009905F9
(1487342071.761130) can0 187#D41408C800F00300
(1487342071.762125) can0 213#FFFF00040001FF40
(1487342071.762125) can0 05D#8357AF5F33000000
(1487342071.762126) can0 214#000000000000F1E0
(1487342071.762126) can0 216#6860017F00000000
(1487342071.763124) can0 217#198C199019901984
(1487342071.763125) can0 167#72801310001A2700
(1487342071.763125) can0 202#04F5700060991DDC
(1487342071.763126) can0 204#C0007D02F5000000
(1487342071.764125) can0 3A8#0100271F00000000
(1487342071.764126) can0 415#1DDAC80307F707F7
(1487342071.764126) can0 41D#8000600000000000
(1487342071.764126) can0 4B0#01008000E00000F1
(1487342071.765128) can0 3CA#827F38F300000000
(1487342071.766124) can0 082#770814008E804000
(1487342071.766125) can0 085#7F7E800007B07F71
(1487342071.767125) can0 091#7EB77F015FE5F000
(1487342071.767126) can0 092#6FB46F9E736628E5
(1487342071.768129) can0 078#0068000000000000
(1487342071.768130) can0 422#000000913802FE02
(1487342071.769127) can0 423#CBA0000000000000
(1487342071.769128) can0 430#37000ED2C8887700
(1487342071.770124) can0 217#198C199019881988
(1487342071.772250) can0 047#2000000000000000
(1487342071.773252) can0 165#10CD500000000000
(1487342071.774251) can0 167#72801310001A2700
(1487342071.774251) can0 178#000002000E71CE71
(1487342071.775249) can0 200#00007FFA80190000
(1487342071.775250) can0 202#04F4780060991DDC
(1487342071.775250) can0 204#C0007D02F4000000
(1487342071.775251) can0 230#600600009E000000
(1487342071.776249) can0 261#0000000000000000
(1487342071.776250) can0 085#7F7E800005C07F72
(1487342071.776250) can0 42C#8C40000009B00000
(1487342071.777252) can0 42F#7D04002E661802F5
(1487342071.777253) can0 091#7EB37F085BE6F000
(1487342071.777253) can0 092#6FB26F9F735E30E6
(1487342071.780001) can0 076#3E8DC0800FFF0000
(1487342071.781127) can0 077#1DD308027FF7F9FD
(1487342071.781127) can0 07D#0000F0F0001FA7ED
(1487342071.781128) can0 186#140401F9009905F9
(1487342071.781128) can0 187#D41408C800F00300
(1487342071.782125) can0 18A#0020180114000000
(1487342071.782126) can0 213#FFFF00040001FF40
(1487342071.782126) can0 214#000000000000F0F0
(1487342071.782127) can0 216#827A1B9900000000
(1487342071.783124) can0 217#1988199019801988
(1487342071.783125) can0 167#72801310001A2700
(1487342071.783125) can0 202#0404000060991DDB
(1487342071.783126) can0 204#C0007D02F4000000
(1487342071.784125) can0 3A8#0100271F00000000
(1487342071.784126) can0 415#1DDACC0207FB07FB
(1487342071.784126) can0 416#5700F70001000000
(1487342071.784127) can0 41D#8000600000000000
(1487342071.785128) can0 4B0#01008000F00000F0
(1487342071.785128) can0 05A#00000045F0410000
(1487342071.785129) can0 242#02902013D2000001
(1487342071.786125) can0 082#780814008E804000
(1487342071.786126) can0 085#7F7E800005D07F71
(1487342071.786126) can0 3CC#3000000000000000
(1487342071.787125) can0 04A#0200000000000000
(1487342071.787125) can0 04B#00C0D8D8D8D8C000
(1487342071.787126) can0 04C#105FFFC000000000
(1487342071.788127) can0 091#7EB77F0E50E7F000
(1487342071.788128) can0 092#6FB26FA1735734E7
(1487342071.789128) can0 078#0569800000000000
(1487342071.790125) can0 217#1984199419801984
(1487342071.792250) can0 047#2000000000000000
(1487342071.793252) can0 165#10CD500000000000
(1487342071.793252) can0 167#72801310001A2700
(1487342071.793253) can0 200#00007FFA80190000
(1487342071.793253) can0 202#0404080060991DDA
(1487342071.794250) can0 204#C0007D02F5000000
(1487342071.794250) can0 230#600600009E000000
(1487342071.795249) can0 3D8#0000000080C5A830
(1487342071.795250) can0 3CA#827F38F200000000
(1487342071.796250) can0 3CD#0000000000000000
(1487342071.796251) can0 085#7F7E800004E07F71
(1487342071.797251) can0 091#7EBC7F0F49E8F000
(1487342071.797252) can0 092#6FB36FA2735236E8
(1487342071.800000) can0 076#3E8DC0800FFF0000
(1487342071.801001) can0 077#1DD308067FF7F5FE
(1487342071.801001) can0 07D#0000FF00001F67ED
(1487342071.801002) can0 186#140401F9009905F9
(1487342071.801002) can0 187#D41408C800F00300
(1487342071.802126) can0 213#FFFF00040001FF40
(1487342071.802127) can0 214#000000000000FF00
(1487342071.802127) can0 216#9C9434B200000000
(1487342071.802128) can0 217#1988199419801984
(1487342071.803125) can0 33B#0000000000000000
(1487342071.803125) can0 167#72801310001A2700
(1487342071.803126) can0 3A8#0100271C00000000
(1487342071.803126) can0 202#0403100060991DDA
(1487342071.804096) can0 204#C0007D02F5000000
(1487342071.804096) can0 415#1DD9D00207FF07FF
(1487342071.804097) can0 41D#8000600000000000
(1487342071.804097) can0 4B0#01008000000000FF
(1487342071.805126) can0 5B3#B300FFFFFFFFFFFF
(1487342071.805127) can0 42F#7D04002E661802F5
(1487342071.806125) can0 082#7E0814048E804000
(1487342071.806126) can0 085#7F7E800003F07F71
(1487342071.807124) can0 091#7EC27F1041E9F000
(1487342071.807125) can0 092#6FB56FA1735234E9
(1487342071.808125) can0 078#0168800000000000
(1487342071.810002) can0 217#1984199419801980
(1487342071.812250) can0 047#2000000000000000
(1487342071.813252) can0 165#10CD500000000000
(1487342071.813253) can0 167#72801310001A2700
(1487342071.813254) can0 200#00007FFA80190000
(1487342071.813254) can0 202#0402180060991DDA
(1487342071.814226) can0 204#C0007D02F5000000
(1487342071.814227) can0 084#1100003021170900
(1487342071.814228) can0 230#600600009E000000
(1487342071.815500) can0 085#7F7E800012007F71
(1487342071.816500) can0 3CC#3000000000000000
(1487342071.817500) can0 091#7ECC7F1234EAF000
(1487342071.817501) can0 092#6FBA6FA0735D24EA
(1487342071.820003) can0 076#3E8DC0800FFF0000
(1487342071.821127) can0 077#1DD108067FF7F9FE
(1487342071.821128) can0 07D#0000FE10001F57F1
(1487342071.821128) can0 186#140401F9009905F9
(1487342071.821129) can0 187#E31408C800000300
(1487342071.822124) can0 213#FFFF00040001FF40
(1487342071.822125) can0 214#000000000000FE10
(1487342071.822126) can0 216#B7AF50CC00000000
(1487342071.822126) can0 217#1984199419841984
(1487342071.823125) can0 3A8#0100271C00000000
(1487342071.823126) can0 167#72801310001A2700
(1487342071.823126) can0 202#0402200060991DD9
(1487342071.823127) can0 204#C0007D02F5000000
(1487342071.824125) can0 415#1DDAD40008010801
(1487342071.824125) can0 41D#8000600000000000
(1487342071.824126) can0 4B0#01008000100000FE
(1487342071.825127) can0 242#02902012D2000001
(1487342071.825128) can0 3CA#827EE8FB00000000
(1487342071.825128) can0 261#0000000000000000
(1487342071.826127) can0 3B3#4048020F10050002
(1487342071.826127) can0 40A#C100334641365030
(1487342071.826128) can0 082#820814008E804000
(1487342071.826128) can0 085#7F7E800011107F71
(1487342071.827125) can0 42C#8C40000009B00000
(1487342071.827125) can0 091#7ED57F1725EBF000
(1487342071.827125) can0 092#6FBD6FA1736616EB
(1487342071.828374) can0 078#0068000000000000
(1487342071.830007) can0 217#1984199019881984
(1487342071.832250) can0 047#2000000000000000
(1487342071.833253) can0 165#10CD500000000000
(1487342071.833253) can0 167#72801310001A2700
(1487342071.833254) can0 200#00007FFA80190000
(1487342071.834250) can0 202#0401280060991DD9
(1487342071.834251) can0 204#C0007D02F4000000
(1487342071.834251) can0 230#600600009E000000
(1487342071.834251) can0 42F#7D04002E661702F5
(1487342071.835501) can0 085#7F7E800010207F71
(1487342071.836875) can0 091#7EDD7F1D16ECF000
(1487342071.837878) can0 092#6FBA6FA2735D20EC
(1487342071.837879) can0 455#A000000000000000
(1487342071.840000) can0 076#3E8DC0800FFF0000
(1487342071.841127) can0 077#1DD108087FF801FE
(1487342071.841128) can0 07D#0000FD20001FA7F6
(1487342071.841128) can0 186#140401F9009905F9
(1487342071.841129) can0 187#E31408C800000300
(1487342071.842124) can0 213#FFFF00040001FF40
(1487342071.842125) can0 083#0020000000000000
(1487342071.842125) can0 214#000000000000FD20
(1487342071.842126) can0 216#D1C969E700000000
(1487342071.843124) can0 217#1988199019881988
(1487342071.843125) can0 167#72801310001A2700
(1487342071.843125) can0 202#0400300060991DD9
(1487342071.843126) can0 204#C0007D02F4000000
(1487342071.844125) can0 2A1#FFFFFFFF00000000
(1487342071.844125) can0 3A8#0100271C00000000
(1487342071.844126) can0 415#1DD5D80408050805
(1487342071.844126) can0 41D#8000600000000000
(1487342071.845127) can0 4B0#01008000200000FD
(1487342071.846125) can0 082#800814008E804000
(1487342071.846125) can0 085#7F7E80000F307F71
(1487342071.846126) can0 3CC#3000000000000000
(1487342071.847124) can0 091#7EEF7F1E02EDF000
(1487342071.847125) can0 092#6FB96FA1734B33ED
(1487342071.848376) can0 078#0168800000000000
(1487342071.850003) can0 217#1984199019881988
(1487342071.852250) can0 047#2000000000000000
(1487342071.853257) can0 05C#007000F5201E0000
(1487342071.853258) can0 165#10CD500000000000
(1487342071.853259) can0 167#72801310001A2700
(1487342071.853259) can0 200#00007FFA80190000
(1487342071.854257) can0 202#0400380060991DD8
(1487342071.854258) can0 204#C0007D02F4000000
(1487342071.854259) can0 230#600600009E000000
(1487342071.855258) can0 3CA#827EE8FA00000000
(1487342071.856258) can0 085#7F7E80000E407F71
(1487342071.857262) can0 091#7F087F1EE7EEF000
(1487342071.857262) can0 092#6FBA6FA0734439EE
(1487342071.859884) can0 186#140401F9009905F9
(1487342071.860883) can0 187#E31408C800000300
(1487342071.860884) can0 076#3E8DC0800FFF0000
(1487342071.860885) can0 077#1DD1080B7FF7FDFE
(1487342071.860885) can0 07D#0000FC30001F37FF
(1487342071.861876) can0 213#FFFF00040001FF40
(1487342071.861877) can0 214#000000000000FC30
(1487342071.861878) can0 05D#8357976038000000
(1487342071.861878) can0 216#EBE3830100000000
(1487342071.862826) can0 217#1984199019841988
(1487342071.862828) can0 33B#0000000000000000
(1487342071.862828) can0 3A8#0100271C00000000
(1487342071.862829) can0 167#72801310001A2700
(1487342071.863877) can0 415#1DD8DC0008070807
(1487342071.863878) can0 202#0400400060991DD7
(1487342071.863884) can0 204#C0007D02F4000000
(1487342071.863884) can0 41D#8000600000000000
(1487342071.864848) can0 4B0#01008000300000FC
(1487342071.864850) can0 242#02902012D2000001
(1487342071.865881) can0 082#7C0814008E804000
(1487342071.865882) can0 085#7F7E80000D507F71
(1487342071.866878) can0 42F#7D04002E661802F5
(1487342071.866879) can0 091#7F167F1FD7EFF000
(1487342071.867878) can0 092#6FBA6FA1734932EF
(1487342071.868877) can0 078#0168800000000000
(1487342071.868878) can0 422#000000913802FE02
(1487342071.868879) can0 423#CBA0000000000000
(1487342071.868880) can0 430#37000ED2C8887700
(1487342071.870127) can0 217#1988199019801988
(1487342071.872252) can0 047#2000000000000000
(1487342071.873256) can0 165#10CD500000000000
(1487342071.874253) can0 167#72801310001A2700
(1487342071.874254) can0 178#000001FF0E71CE71
(1487342071.874254) can0 200#00007FFA801A0000
(1487342071.875253) can0 202#04FF480060991DD7
(1487342071.875254) can0 204#C0007D02F4000000
(1487342071.875255) can0 230#600600009E000000
(1487342071.875255) can0 261#0000000000000000
(1487342071.876253) can0 085#7F7E80000C607F71
(1487342071.876254) can0 3CC#3000000000000000
(1487342071.876254) can0 42C#8C40000009B00000
(1487342071.877256) can0 091#7F147F21D6F0F000
(1487342071.877257) can0 092#6FB86FA5734F29F0
(1487342071.879627) can0 186#140401FA009905FA
(1487342071.880627) can0 187#E31408C800000300
(1487342071.880628) can0 076#3E8DC0800FFF0000
(1487342071.880628) can0 077#1DD1080B7FF7FDFE
(1487342071.880629) can0 07D#0000FB40001F2809
(1487342071.881631) can0 18A#0020180114000000
(1487342071.881633) can0 213#FFFF00040001FF40
(1487342071.881634) can0 214#000000000000FB40
(1487342071.881635) can0 216#06FD9E1B00000000
(1487342071.882626) can0 217#1988199419781984
(1487342071.882628) can0 3A8#0100271C00000000
(1487342071.882628) can0 415#1DD8E0FF08090809
(1487342071.882629) can0 167#72801310001A2600
(1487342071.883628) can0 202#04FE500060991DD7
(1487342071.883629) can0 204#C0007D02F4000000
(1487342071.883630) can0 416#5800F60001000000
(1487342071.883630) can0 41D#8000600000000000
(1487342071.884753) can0 4B0#01008000400000FB
(1487342071.884754) can0 05A#00000045E6E10000
(1487342071.884754) can0 3CA#827EE8F800000000
(1487342071.885752) can0 082#7A0814008E804000
(1487342071.886751) can0 085#7F7F80000A707F71
(1487342071.887752) can0 04A#0200000000000000
(1487342071.887753) can0 04B#00C0D8D8D8D8C000
(1487342071.887754) can0 04C#105FFFC000000000
(1487342071.887754) can0 091#7F147F25D1F1F000
(1487342071.888751) can0 092#6FBD6FA7734D23F1
(1487342071.888752) can0 078#0469000000000000
(1487342071.890007) can0 217#1984199419741980
(1487342071.892252) can0 047#2000000000000000
(1487342071.893255) can0 165#10CD500000000000
(1487342071.893257) can0 167#72801310001A2600
(1487342071.893257) can0 200#00007FFA801A0000
(1487342071.894252) can0 202#04FE580060991DD6
(1487342071.894253) can0 204#C0007D02F4000000
(1487342071.894254) can0 230#600600009E000000
(1487342071.894254) can0 42F#7D04002E661702F5
(1487342071.895488) can0 085#7F7F800009807F71
(1487342071.896879) can0 091#7F1F7F28C2F2F000
(1487342071.897876) can0 092#6FC46FA5734525F2
(1487342071.899502) can0 186#140401FA009905FA
(1487342071.900501) can0 187#E31408C800000300
(1487342071.900502) can0 076#3E8DC0800FFF0000
(1487342071.900503) can0 077#1DCF080D7FF801FF
(1487342071.901501) can0 07D#0000FA50001F3809
(1487342071.901506) can0 213#FFFF00040001FF40
(1487342071.901507) can0 214#000000000000FA50
(1487342071.901508) can0 216#2018B83600000000
(1487342071.902501) can0 217#1984199419781980
(1487342071.902502) can0 3A8#0100271C00000000
(1487342071.902503) can0 415#1DDAE4FC080B080B
(1487342071.902504) can0 41D#8000600000000000
(1487342071.902504) can0 167#72801310001A2700
(1487342071.903502) can0 202#04FD600060991DD6
(1487342071.903503) can0 204#C0007D02F4000000
(1487342071.903503) can0 4B0#01008000500000FA
(1487342071.904502) can0 242#02902012D2000001
(1487342071.905467) can0 082#7D0814008E804000
(1487342071.906628) can0 085#7F7F800008907F71
(1487342071.906629) can0 3CC#3000000000000000
(1487342071.907628) can0 091#7F307F29AFF3F000
(1487342071.907630) can0 092#6FC56FA3734129F3
(1487342071.908626) can0 078#0168800000000000
(1487342071.910005) can0 217#19801994197C1984
(1487342071.912252) can0 047#2000000000000000
(1487342071.913256) can0 165#10CD500000000000
(1487342071.913257) can0 167#72801310001A2700
(1487342071.913258) can0 200#00007FFA801A0000
(1487342071.913258) can0 202#04FB680060991DD7
(1487342071.914251) can0 204#C0007D02F4000000
(1487342071.914252) can0 230#600600009E000000
(1487342071.915251) can0 3CA#827F190500000000
(1487342071.916251) can0 085#7F7F800007A07F71
(1487342071.917256) can0 091#7F447F279CF4F000
(1487342071.917258) can0 092#6FC26FA3733D2FF4
(1487342071.919627) can0 186#140401FA009905FA
(1487342071.920626) can0 187#E31408C800000300
(1487342071.920628) can0 076#3E8EC0800FFF0000
(1487342071.920628) can0 077#1DCE080E7FF809FE
(1487342071.920629) can0 07D#0000F960001F0812
(1487342071.921631) can0 213#FFFF00040001FE40
(1487342071.921633) can0 214#000000000000F960
(1487342071.921633) can0 216#3B32D25000000000
(1487342071.921634) can0 217#1984199419841984
(1487342071.922626) can0 33B#0000000000000000
(1487342071.922627) can0 3A8#0100271C00000000
(1487342071.922627) can0 415#1DD4E801080C080C
(1487342071.922628) can0 167#72801310001A2700
(1487342071.923752) can0 41D#8000600000000000
(1487342071.923753) can0 202#04FA700060991DD7
(1487342071.923753) can0 204#C0007D02F4000000
(1487342071.923754) can0 4B0#01008000600000F9
(1487342071.924752) can0 261#0000000000000000
(1487342071.925725) can0 42C#8C40000009B00000
(1487342071.925726) can0 42F#7D04002E661802F5
(1487342071.925726) can0 082#7F0814008E804000
(1487342071.926751) can0 085#7F7F800006B07F71
(1487342071.927719) can0 091#7F5B7F2685F5F000
(1487342071.927719) can0 092#6FBF6FA6733932F5
(1487342071.928723) can0 078#0168800000000000
(1487342071.930130) can0 217#1984199419881988
(1487342071.932251) can0 047#2000000000000000
(1487342071.933255) can0 165#10CD500000000000
(1487342071.933256) can0 167#72801310001A2600
(1487342071.933257) can0 200#00007FFA801A0000
(1487342071.933257) can0 202#04FA780060991DD6
(1487342071.934252) can0 204#C0007D02F4000000
(1487342071.934253) can0 230#600600009E000000
(1487342071.935502) can0 085#7F7F800005C07F71
(1487342071.936502) can0 3CC#3000000000000000
(1487342071.937504) can0 091#7F6A7F2675F6F000
(1487342071.937505) can0 092#6FBC6FA6733F2EF6
(1487342071.937506) can0 455#A000000000000000
(1487342071.939377) can0 186#140401FA009905FA
(1487342071.940378) can0 187#E21408C800100300
(1487342071.940379) can0 076#3E8EC0800FFF0000
(1487342071.940379) can0 077#1DCE080D7FF801FF
(1487342071.941506) can0 07D#0000F870001EE81F
(1487342071.941511) can0 213#FFFF00040001FE40
(1487342071.941512) can0 214#000000000000F870
(1487342071.941513) can0 216#544BEC6A00000000
(1487342071.942503) can0 083#0020000000000000
(1487342071.942504) can0 217#1988199419881984
(1487342071.942505) can0 2A1#FFFFFFFF00000000
(1487342071.942505) can0 3A8#0100271D00000000
(1487342071.943501) can0 3A7#0E401A045F700000
(1487342071.943502) can0 167#72801210001A2700
(1487342071.943503) can0 202#040A000060991DD5
(1487342071.943503) can0 204#C0007D02F4000000
(1487342071.943504) can0 415#1DD9ECFB080D080D
(1487342071.944502) can0 41D#8000600000000000
(1487342071.944503) can0 4B0#01008000700000F8
(1487342071.944504) can0 242#02902012D2000001
(1487342071.945501) can0 3CA#827F190300000000
(1487342071.946503) can0 082#7E0814048E804000
(1487342071.946504) can0 085#7F7F800004D07F71
(1487342071.946505) can0 091#7F6C7F2474F7F000
(1487342071.947501) can0 092#6FBE6FA5734D1EF7
(1487342071.948503) can0 078#0068000000000000
(1487342071.949881) can0 217#1988199019841984
(1487342071.952252) can0 047#2000000000000000
(1487342071.953256) can0 05C#001000FB201E0000
(1487342071.953257) can0 165#10CD500000000000
(1487342071.953257) can0 3A6#0E401A045F700000
(1487342071.953258) can0 167#72801210001A2700
(1487342071.954253) can0 200#00007FFA801A0000
(1487342071.954254) can0 202#0408080060991DD6
(1487342071.954255) can0 204#C0007D02F3000000
(1487342071.954255) can0 230#600600009E000000
(1487342071.955252) can0 42F#7D04002E661702F5
(1487342071.956343) can0 085#7F7F800003E07F71
(1487342071.957382) can0 091#7F6E7F2372F8F000
(1487342071.957383) can0 092#6FC46FA4735312F8
(1487342071.959002) can0 186#140401FA009905FA
(1487342071.960001) can0 187#E21408C800100300
(1487342071.961004) can0 076#3E8EC0800FFF0000
(1487342071.961005) can0 077#1DCE080C7FF801FF
(1487342071.961006) can0 07D#0000F780001F3824
(1487342071.961006) can0 213#FFFF00040001FF40
(1487342071.962002) can0 214#000000000000F780
(1487342071.962003) can0 216#6E67078500000000
(1487342071.962004) can0 05D#8357BF5E30000000
(1487342071.962004) can0 217#1988198C197C1984
(1487342071.962005) can0 3A8#0100271D00000000
(1487342071.963003) can0 415#1DD9F0FA080E080E
(1487342071.963004) can0 41D#8000600000000000
(1487342071.963005) can0 167#72801310001A2700
(1487342071.963006) can0 202#0407100060991DD6
(1487342071.964127) can0 204#C0007D02F3000000
(1487342071.964128) can0 4B0#01008000800000F7
(1487342071.965506) can0 082#7B0814048E804000
(1487342071.966468) can0 085#7F80800000F07F72
(1487342071.966469) can0 3CC#3000000000000000
(1487342071.966470) can0 091#7F7F7F2360F9F000
(1487342071.967627) can0 092#6FCA6FA3734817F9
(1487342071.968627) can0 078#0168800000000000
(1487342071.968628) can0 422#000000913802FE02
(1487342071.968629) can0 423#CBA0000000000000
(1487342071.968630) can0 430#37000ED2C8887700
(1487342071.969881) can0 217#198C199419781988
(1487342071.972254) can0 047#2000000000000000
(1487342071.973255) can0 165#10CD500000000000
(1487342071.974252) can0 167#72801310001A2700
(1487342071.974254) can0 178#000001FF0E71CE71
(1487342071.974254) can0 200#00007FFA801A0000
(1487342071.975251) can0 202#0406180060991DD6
(1487342071.975252) can0 204#C0007D02F4000000
(1487342071.975253) can0 3CA#827F190200000000
(1487342071.975254) can0 230#600600009E000000
(1487342071.976252) can0 261#0000000000000000
(1487342071.976253) can0 085#7F80800010007F71
(1487342071.977256) can0 42C#8C40000009B00000
(1487342071.977257) can0 091#7F9F7F253DFAF000
(1487342071.977258) can0 092#6FCD6FA2733B21FA
(1487342071.978876) can0 186#140401FA009905FA
(1487342071.979879) can0 187#E21408C800100300
(1487342071.979880) can0 18A#0020180114000000
(1487342071.980877) can0 076#3E8EC0800FFF0000
(1487342071.980878) can0 077#1DCE080C7FF80DFE
(1487342071.980879) can0 07D#0000F690001F282A
(1487342071.980879) can0 213#FFFF00040001FF40
(1487342071.981876) can0 214#000000000000F690
(1487342071.981877) can0 216#8980219F00000000
(1487342071.981878) can0 217#1988199819741984
(1487342071.981879) can0 33B#0000000000000000
(1487342071.982876) can0 3A8#0100271D00000000
(1487342071.982878) can0 415#1DDCF4F6080F080F
(1487342071.982878) can0 167#72801310001A2700
(1487342071.982879) can0 416#5900F50001000000
(1487342071.983877) can0 202#0405200060991DD6
(1487342071.983878) can0 204#C0007D02F4000000
(1487342071.983878) can0 41D#8000600000000000
(1487342071.983879) can0 4B0#01008000900000F6
(1487342071.984877) can0 242#02902011D2000001
(1487342071.984878) can0 05A#00000045EC810000
(1487342071.984879) can0 168#0000000000000000
(1487342071.985876) can0 42F#7D04002E661802F5
(1487342071.985877) can0 082#7B0814048E804000
(1487342071.985877) can0 085#7F8180000E107F71
(1487342071.987002) can0 04A#0200000000000000
(1487342071.987003) can0 04B#00C0D8D8D8D8C000
(1487342071.987004) can0 04C#105FFFC000000000
(1487342071.988004) can0 091#7FB67F2723FBF000
(1487342071.988004) can0 092#6FCD6FA073421BFB
(1487342071.989008) can0 078#0569800000000000
(1487342071.990129) can0 217#1988199819781984
(1487342071.992252) can0 047#2000000000000000
(1487342071.993251) can0 165#10CD500000000000
(1487342071.993252) can0 167#72801310001A2600
(1487342071.993253) can0 200#00007FFA801A0000
(1487342071.993254) can0 202#0403280060991DD7
(1487342071.994253) can0 204#C0007D02F4000000
(1487342071.994254) can0 230#600600009E000000
(1487342071.995503) can0 085#7F8280000C207F71
(1487342071.996503) can0 3CC#3000000000000000
(1487342071.997626) can0 091#7FAD7F282AFCF000
(1487342071.997627) can0 092#6FC36FA273570DFC
(1487342071.998626) can0 186#140101FA009905FA
(1487342071.999625) can0 187#E21408C800100300
(1487342072.000752) can0 076#3E90C0800FFF0000
(1487342072.000753) can0 077#1DCE080D7FF811FE
(1487342072.000754) can0 07D#0000F5A0001F083B
(1487342072.001753) can0 213#FFFF00040001FE40
(1487342072.001754) can0 214#000000000000F5A0
(1487342072.001755) can0 216#A39A3AB800000000
(1487342072.001756) can0 217#19801998197C1980
(1487342072.002751) can0 3A8#0100271D00000000
(1487342072.002753) can0 415#1DDCF8F5080F080F
(1487342072.002753) can0 41D#8000600000000000
(1487342072.002754) can0 167#72801210001A2700
(1487342072.002754) can0 202#0402300060991DD7
(1487342072.003753) can0 204#C0007D02F4000000
(1487342072.003754) can0 4B0#01008000A00000F5
(1487342072.004751) can0 3CA#827F190200000000
(1487342072.005755) can0 082#7D0814048E804000
(1487342072.005756) can0 085#7F8280000B307F71
(1487342072.006878) can0 091#7F897F264FFDF000
(1487342072.007877) can0 092#6FBA6FA5735B0EFD
(1487342072.007878) can0 078#0068000000000000
(1487342072.010006) can0 217#1984199419801984
(1487342072.012252) can0 047#2000000000000000
(1487342072.013257) can0 165#10CD500000000000
(1487342072.013258) can0 167#72801210001A2700
(1487342072.013259) can0 200#00007FFA801A0000
(1487342072.014252) can0 202#0400380060991DD8
(1487342072.014253) can0 204#C0007D02F3000000
(1487342072.014254) can0 230#600600009E000000
(1487342072.014254) can0 42F#7D04002E661802F5
(1487342072.015501) can0 085#7F8280000A407F71
(1487342072.016877) can0 091#7F667F2473FEF000
(1487342072.017877) can0 092#6FBD6FA7734C17FE
(1487342072.018877) can0 186#140101FA009905FA
(1487342072.019877) can0 187#E21408C800100300
(1487342072.021005) can0 076#3E91C0800FFF0000
(1487342072.021006) can0 077#1DCD080D7FF7FDFF
(1487342072.021007) can0 07D#0000F4B0001F782D
(1487342072.021007) can0 213#FFFF00040001FE40
(1487342072.022002) can0 214#000000000000F4B0
(1487342072.022003) can0 216#BDB556D200000000
(1487342072.022004) can0 217#1984199419841984
(1487342072.022004) can0 3A8#0100271F00000000
(1487342072.023002) can0 415#1DD7FCF9080F080F
(1487342072.023003) can0 41D#8000600000000000
(1487342072.023003) can0 167#72801310001A2700
(1487342072.023004) can0 202#04FF400060991DD8
(1487342072.023005) can0 204#C0007D02F3000000
(1487342072.024002) can0 4B0#01008000B00000F4
(1487342072.024004) can0 261#0000000000000000
(1487342072.025005) can0 242#02902011D2000001
(1487342072.025006) can0 40A#C1014B3931485232
(1487342072.026003) can0 082#7D0814048E804000
(1487342072.026004) can0 085#7F82800009507F71
(1487342072.026005) can0 3CC#3000000000000000
(1487342072.027002) can0 42C#8C40000009B00000
(1487342072.027003) can0 091#7F577F2481FFF000
(1487342072.028002) can0 092#6FC96FA6734A0DFF
(1487342072.029130) can0 078#0168800000000000
(1487342072.030128) can0 217#1988199819881984
(1487342072.032252) can0 047#2000000000000000
(1487342072.033256) can0 165#10CD500000000000
(1487342072.033257) can0 167#72801310001A2700
(1487342072.033258) can0 200#00007FFA801A0000
(1487342072.034251) can0 202#04FE480060991DD8
(1487342072.034253) can0 204#C0007D02F3000000
(1487342072.034253) can0 230#600600009E000000
(1487342072.035253) can0 3CA#827E790600000000
(1487342072.036253) can0 085#7F82800008607F71
(1487342072.037255) can0 091#7F577F248000F000
(1487342072.037256) can0 092#6FCE6FA37362F200
(1487342072.038377) can0 455#A000000000000000
(1487342072.039376) can0 186#13FD01FA009905FA
(1487342072.039377) can0 187#E11408C800200300
(1487342072.040377) can0 076#3E91C0800FFF0000
(1487342072.040378) can0 077#1DCD080C7FF80DFF
(1487342072.041380) can0 07D#0000F3C0001F281E
(1487342072.041381) can0 213#FFFF00040001FF40
(1487342072.041382) can0 214#000000000000F3C0
(1487342072.041383) can0 216#D8CF6FED00000000
(1487342072.042378) can0 217#1988199819881988
(1487342072.042379) can0 083#0020000000000000
(1487342072.042379) can0 2A1#FFFFFFFF00000000
(1487342072.042380) can0 33B#0000000000000000
(1487342072.043379) can0 167#72801310001A2700
(1487342072.043381) can0 3A8#0100272000000000
(1487342072.043381) can0 415#1DDFC000080F080F
(1487342072.043382) can0 202#04FE500060991DD7
(1487342072.044378) can0 204#C0007D02F3000000
(1487342072.044379) can0 41D#8000600000000000
(1487342072.044379) can0 4B0#01008000C00000F3
(1487342072.045381) can0 42F#7D04002E661802F5
(1487342072.046379) can0 082#7F0814048E804000
(1487342072.046380) can0 085#7F82800007707F71
(1487342072.047503) can0 091#7F5B7F277801F000
(1487342072.047504) can0 092#6FCE6FA27378DC01
(1487342072.048501) can0 078#0168800000000000
(1487342072.049880) can0 217#1988199819841988
(1487342072.052252) can0 047#2000000000000000
(1487342072.053255) can0 05C#00B000F1201E0000
(1487342072.053256) can0 165#10CD500000000000
(1487342072.053257) can0 167#72801310001A2700
(1487342072.053258) can0 200#00007FFA801A0000
(1487342072.054251) can0 202#04FC580060991DD8
(1487342072.054253) can0 204#C0007D02F4000000
(1487342072.054253) can0 230#600600009E000000
(1487342072.055501) can0 085#7F83800005807F71
(1487342072.056504) can0 3CC#3000000000000000
(1487342072.057508) can0 091#7F547F2A7B02F000
(1487342072.057509) can0 092#6FD36FA07377D902
(1487342072.058628) can0 186#13FD01FA009905FA
(1487342072.058629) can0 187#E11408C800200300
(1487342072.060126) can0 076#3E91C0800FFF0000
(1487342072.061132) can0 077#1DCE080D7FF811FE
(1487342072.061133) can0 07D#0000F2D0001FF81F
(1487342072.061133) can0 213#FFFF00040001FF40
(1487342072.061134) can0 214#000000000000F2D0
(1487342072.062126) can0 216#F2E9890700000000
(1487342072.062127) can0 05D#8357A75E36000000
(1487342072.062128) can0 217#19881998197C1988
(1487342072.062128) can0 3A8#0100272000000000
(1487342072.063128) can0 415#1DDDC401080F080F
(1487342072.063129) can0 167#72801310001A2800
(1487342072.063129) can0 169#0082C00000000000
(1487342072.063130) can0 202#04FA600060991DD9
(1487342072.064252) can0 204#C0007D02F4000000
(1487342072.064253) can0 41D#8000600000000000
(1487342072.064253) can0 4B0#01008000D00000F2
(1487342072.065255) can0 242#02902012D2000001
(1487342072.065256) can0 3CA#827E790400000000
(1487342072.066252) can0 082#7C0814088E804000
(1487342072.066253) can0 085#7F84800002907F72
(1487342072.067252) can0 091#7F367F2E9403F000
(1487342072.067254) can0 092#6FD16FA0736EE303
(1487342072.068252) can0 078#0068000000000000
(1487342072.068253) can0 422#000000913802FE02
(1487342072.069255) can0 423#CBA0000000000000
(1487342072.069257) can0 430#37000ED2C888F700
(1487342072.070251) can0 217#198C199C19741984
(1487342072.072252) can0 047#2000000000000000
(1487342072.073254) can0 165#10CD500000000000
(1487342072.074252) can0 167#72801310001A2800
(1487342072.074253) can0 178#000002000E71CE71
(1487342072.075251) can0 200#00007FFA801A0000
(1487342072.075253) can0 202#04F9680060991DD9
(1487342072.075253) can0 204#C0007D02F4000000
(1487342072.075254) can0 230#600600009E000000
(1487342072.076253) can0 261#0000000000000000
(1487342072.076254) can0 085#7F84800002A07F71
(1487342072.076254) can0 42C#8C40000009B00000
(1487342072.077382) can0 42F#7D04002E661802F5
(1487342072.077383) can0 091#7F0B7F31BB04F000
(1487342072.077384) can0 092#6FCB6FA0736DE904
(1487342072.078376) can0 186#140001FA009905FA
(1487342072.079380) can0 187#E11408C800200300
(1487342072.079381) can0 18A#0020180114000000
(1487342072.080376) can0 076#3E92C0800FFF0000
(1487342072.080377) can0 077#1DCE08107FF815FE
(1487342072.081382) can0 07D#0000F1E0001FD813
(1487342072.081383) can0 213#FFFF00040001FF40
(1487342072.081383) can0 214#000000000000F1E0
(1487342072.081384) can0 216#0C04A42100000000
(1487342072.082376) can0 217#198819A019741984
(1487342072.082378) can0 3A8#0100272000000000
(1487342072.082378) can0 415#1DE1C8FC080F080F
(1487342072.082379) can0 416#5A00F40001000000
(1487342072.083379) can0 167#72801310001A2700
(1487342072.083380) can0 202#04F8700060991DD9
(1487342072.083381) can0 204#C0007D02F4000000
(1487342072.083381) can0 41D#8000600000000000
(1487342072.084377) can0 4B0#01008000E00000F1
(1487342072.084379) can0 05A#00000045F2210000
(1487342072.085506) can0 082#7B0814088E804000
(1487342072.086503) can0 085#7F858000FFB07F72
(1487342072.086504) can0 3CC#3000000000000000
(1487342072.086504) can0 04A#0200000000000000
(1487342072.087500) can0 04B#00C0D8D8D8D8C000
(1487342072.087501) can0 04C#105FFFC000000000
(1487342072.087502) can0 091#7EF27F35D005F000
(1487342072.087503) can0 092#6FCC6FA27374DE05
(1487342072.088627) can0 078#0569800000000000
(1487342072.089880) can0 217#1988199C19741988
(1487342072.092251) can0 047#2000000000000000
(1487342072.093255) can0 165#10CD500000000000
(1487342072.093256) can0 167#72801310001A2800
(1487342072.093257) can0 200#00007FFA801A0000
(1487342072.093258) can0 202#04F6780060991DDA
(1487342072.094253) can0 204#C0007D02F3000000
(1487342072.094254) can0 230#600600009E000000
(1487342072.095252) can0 3CA#827E790300000000
(1487342072.096251) can0 085#7F858000FFC07F71
(1487342072.097382) can0 091#7EF47F35CD06F000
(1487342072.097383) can0 092#6FD86FA6737DC406
(1487342072.098344) can0 186#13FE01FA009905FA
(1487342072.098345) can0 187#E11408C800200300
(1487342072.100127) can0 076#3E93C0800FFF0000
(1487342072.101130) can0 077#1DCE08127FF811FE
(1487342072.101131) can0 07D#0000F0F0001FE7FF
(1487342072.101132) can0 213#FFFF00040001FF40
(1487342072.101133) can0 214#000000000000F0F0
(1487342072.102128) can0 216#271EBE3B00000000
(1487342072.102129) can0 217#1988199C19781988
(1487342072.102130) can0 33B#0000000000000000
(1487342072.102130) can0 3A8#0100272200000000
(1487342072.103127) can0 415#1DE1CCFB080F080F
(1487342072.103128) can0 167#72801310001A2800
(1487342072.103129) can0 41D#8000600000000000
(1487342072.103130) can0 202#0404000060991DDB
(1487342072.104127) can0 204#C0007D02F3000000
(1487342072.104128) can0 4B0#01008000F00000F0
(1487342072.105130) can0 242#02902012D2000001
(1487342072.105131) can0 42F#7D04002E661802F5
(1487342072.106127) can0 082#7B0814048E804000
(1487342072.106128) can0 085#7F858000FED07F71
(1487342072.107127) can0 091#7F037F33BE07F000
(1487342072.107128) can0 092#6FE56FA6737DB607
(1487342072.108126) can0 078#0168800000000000
(1487342072.110131) can0 217#1988199819801988
(1487342072.112252) can0 047#2000000000000000
(1487342072.113255) can0 165#10CD500000000000
(1487342072.113256) can0 167#72801310001A2800
(1487342072.113257) can0 200#00007FFA801A0000
(1487342072.113257) can0 202#0402080060991DDC
(1487342072.114252) can0 204#C0007D02F4000000
(1487342072.114253) can0 230#600600009E000000
(1487342072.115501) can0 085#7F868000FCE07F71
(1487342072.116504) can0 3CC#3000000000000000
(1487342072.117504) can0 091#7F137F31AF08F000
(1487342072.117505) can0 092#6FE46FA47377BE08
(1487342072.118609) can0 186#13FE01FA009905FA
(1487342072.118610) can0 187#E11408C800200300
(1487342072.120126) can0 076#3E95C0800FFF0000
(1487342072.121132) can0 077#1DCE08117FF82DFF
(1487342072.121134) can0 07D#0000FF0000201804
(1487342072.121134) can0 213#FFFF00040001FF40
(1487342072.121135) can0 214#000000000000FF00
(1487342072.122127) can0 216#4138D85600000000
(1487342072.122128) can0 217#1988199C19841984
(1487342072.122129) can0 3A8#0100272200000000
(1487342072.122129) can0 415#1DDBD000080F080F
(1487342072.123126) can0 41D#8000600000000000
(1487342072.123127) can0 167#72801310001A2800
(1487342072.123128) can0 202#0401100060991DDC
(1487342072.123128) can0 204#C0007D02F4000000
(1487342072.124128) can0 4B0#01008000000000FF
(1487342072.124134) can0 261#0000000000000000
(1487342072.125130) can0 3CA#827EC90000000000
(1487342072.125131) can0 42C#8C40000009B00000
(1487342072.126126) can0 082#7C0814088E804000
(1487342072.126127) can0 085#7F868000FBF07F71
(1487342072.127127) can0 091#7F1E7F30A409F000
(1487342072.127128) can0 092#6FDC6FA4737BC109
(1487342072.128127) can0 078#0068000000000000
(1487342072.129880) can0 217#1990199C198C1988
(1487342072.132251) can0 047#2000000000000000
(1487342072.133256) can0 165#10CD500000000000
(1487342072.133258) can0 167#72801310001A2800
(1487342072.133258) can0 200#00007FFA801A0000
(1487342072.134251) can0 202#0400180060991DDC
(1487342072.134252) can0 204#C0007D02F5000000
(1487342072.134253) can0 230#600600009E000000
(1487342072.134253) can0 42F#7D04002E661802F5
(1487342072.135501) can0 085#7F87800009007F71
(1487342072.136502) can0 091#7F2B7F2F970AF000
(1487342072.137632) can0 092#6FD86FA37388B80A
(1487342072.137633) can0 455#A000000000000000
(1487342072.138626) can0 186#13FF01FA009905FA
(1487342072.138627) can0 187#E01408C800300300
(1487342072.140127) can0 076#3E95C0800FFF0000
(1487342072.141130) can0 077#1DCF08107FF821FE
(1487342072.141131) can0 07D#0000FE100020080C
(1487342072.141132) can0 213#FFFF00040001FF40
(1487342072.141132) can0 214#000000000000FE10
(1487342072.142126) can0 216#5B53F27000000000
(1487342072.142127) can0 217#1990199C198C1988
(1487342072.142128) can0 083#0020000000000000
(1487342072.142128) can0 2A1#FFFFFFFF00000000
(1487342072.143126) can0 3A8#0100272500000000
(1487342072.143127) can0 167#72801310001A2700
(1487342072.143128) can0 3A7#0E401A045F700000
(1487342072.143128) can0 202#0400200060991DDB
(1487342072.144128) can0 204#C0007D02F5000000
(1487342072.144129) can0 415#1DE5D4F508100810
(1487342072.144130) can0 41D#8000600000000000
(1487342072.144131) can0 4B0#01008000100000FE
(1487342072.145092) can0 242#02902012D2000001
(1487342072.146093) can0 082#7B0814148E804000
(1487342072.146094) can0 085#7F88800007107F71
(1487342072.146094) can0 3CC#3000000000000000
(1487342072.147125) can0 091#7F3D7F2E850BF000
(1487342072.147126) can0 092#6FDE6FA37395A40B
(1487342072.148252) can0 078#0168800000000000
(1487342072.149878) can0 217#1990199819801990
(1487342072.152251) can0 047#2000000000000000
(1487342072.153252) can0 05C#005000F7201E0000
(1487342072.153253) can0 165#10CD500000000000
(1487342072.153254) can0 167#72801310001A2800
(1487342072.153254) can0 3A6#0E401A045F700000
(1487342072.154254) can0 200#00007FFA801A0000
(1487342072.154255) can0 202#04FD280060991DDD
(1487342072.154256) can0 204#C0007D02F6000000
(1487342072.154256) can0 230#600600009E000000
(1487342072.155252) can0 3CA#827EC90000000000
(1487342072.156252) can0 085#7F89800005207F71
(1487342072.157388) can0 091#7F577F2D6B0CF000
(1487342072.157389) can0 092#6FEB6FA37395960C
(1487342072.158386) can0 186#13FF01FA009905FA
(1487342072.158387) can0 187#E01408C800300300
(1487342072.160136) can0 076#3E96C0800FFF0000
(1487342072.161089) can0 077#1DD008107FF825FE
(1487342072.161090) can0 07D#0000FD2000208815
(1487342072.161090) can0 213#FFFF00040001FF40
(1487342072.161091) can0 214#000000000000FD20
(1487342072.162136) can0 216#766D0D8900000000
(1487342072.162137) can0 05D#83578F5F3B000000
(1487342072.162137) can0 217#1994199C19741988
(1487342072.162138) can0 33B#0000000000000000
(1487342072.163136) can0 3A8#0100272500000000
(1487342072.163141) can0 415#1DE2D8F708100810
(1487342072.163142) can0 167#72801310001A2800
(1487342072.163142) can0 41D#8000600000000000
(1487342072.164136) can0 202#04FB300060991DDE
(1487342072.164137) can0 204#C0007D02F6000000
(1487342072.164138) can0 4B0#01008000200000FD
(1487342072.165140) can0 42F#7D04002E661802F5
(1487342072.166135) can0 082#7B0814148E804000
(1487342072.166136) can0 085#7F8B800002307F71
(1487342072.167262) can0 091#7F7C7F2B470DF000
(1487342072.167263) can0 092#6FEF6FA07389A00D
(1487342072.168263) can0 078#0168800000000000
(1487342072.168264) can0 422#000000913802FE02
(1487342072.168264) can0 423#CBA0000000000000
(1487342072.169265) can0 430#37000ED2C8887700
(1487342072.170262) can0 217#1994199C19781984
(1487342072.171187) can0 596#9600FFFFFFFFFFFF
(1487342072.172261) can0 047#2000000000000000
(1487342072.173203) can0 165#10CD500000000000
(1487342072.174191) can0 167#72801310001A2800
(1487342072.174192) can0 178#000002000E71CE71
(1487342072.174193) can0 200#00007FFA801A0000
(1487342072.175332) can0 202#04FA380060991DDE
(1487342072.175333) can0 204#C0007D02F6000000
(1487342072.175334) can0 230#600600009E000000
(1487342072.175335) can0 261#0000000000000000
(1487342072.176330) can0 085#7F8D8000FE407F72
(1487342072.176331) can0 3CC#3000000000000000
(1487342072.176332) can0 42C#8C40000009B00000
(1487342072.177385) can0 091#7FA47F2A1F0EF000
(1487342072.177386) can0 092#6FE76F9D7380B30E
(1487342072.177386) can0 186#140101FA009905FA
(1487342072.178382) can0 187#E01408C800300300
(1487342072.178383) can0 18A#0020180114000000
(1487342072.180133) can0 076#3E98C0800FFF0000
(1487342072.181137) can0 077#1DD0080F7FF839FE
(1487342072.181137) can0 07D#0000FC3000204829
(1487342072.181138) can0 213#FFFF00040001FF40
(1487342072.181139) can0 214#000000000000FC30
(1487342072.182133) can0 216#8F8627A500000000
(1487342072.182133) can0 217#198C199819781984
(1487342072.182134) can0 3A8#0100272500000000
(1487342072.182134) can0 415#1DE6DCF208100810
(1487342072.183133) can0 416#5B00F30001000000
(1487342072.183134) can0 167#72801310001A2700
(1487342072.183135) can0 202#04F9400060991DDE
(1487342072.183135) can0 204#C0007D02F6000000
(1487342072.184133) can0 41D#8000600000000000
(1487342072.184134) can0 41E#0000000000000000
(1487342072.184134) can0 4B0#01008000300000FC
(1487342072.184135) can0 242#02902011D2000001
(1487342072.185260) can0 05A#00000045E8C10000
(1487342072.185261) can0 3CA#827EC90000000000
(1487342072.186257) can0 082#7C08140C8E804000
(1487342072.186258) can0 085#7F8E8000FD507F71
(1487342072.187258) can0 04A#0200000000000000
(1487342072.187259) can0 04B#00C0D8D8D8D8C000
(1487342072.188260) can0 04C#105FFFC000000000
(1487342072.188261) can0 091#7FC27F2A000FF000
(1487342072.188262) can0 078#0469000000000000
(1487342072.188262) can0 092#6FDC6F9D737AC30F
(1487342072.190010) can0 217#19841998197C1980
(1487342072.192259) can0 047#2000000000000000
(1487342072.193260) can0 165#10CD500000000000
(1487342072.193261) can0 167#72801310001A2700
(1487342072.193261) can0 200#00007FFA801A0000
(1487342072.194260) can0 202#04F7480060991DDF
(1487342072.194261) can0 204#C0007D02F6000000
(1487342072.194261) can0 230#600600009E000000
(1487342072.194262) can0 42F#7D04002E661802F5
(1487342072.195508) can0 085#7F8F8000FB607F71
(1487342072.196883) can0 091#7FCB7F2AF610F000
(1487342072.197886) can0 092#6FD36F9F7374CF10
(1487342072.197891) can0 186#140201F9009905F9
(1487342072.197892) can0 187#E01408C800300300
(1487342072.200134) can0 076#3E9CC0800FFF0000
(1487342072.201136) can0 077#1DCF080E7FF821FD
(1487342072.201137) can0 07D#0000FB400020083F
(1487342072.201137) can0 213#FFFF00040001FF40
(1487342072.201138) can0 214#000000000000FB40
(1487342072.202132) can0 216#ABA040BE00000000
(1487342072.202133) can0 217#1980199819801980
(1487342072.202133) can0 3A8#0100272800000000
(1487342072.202134) can0 415#1DD9E0FE08110811
(1487342072.203132) can0 41D#8000600000000000
(1487342072.203133) can0 167#72801310001A2800
(1487342072.203133) can0 202#04F5500060991DE0

