(1489158552.035077) can0 085#7C6980002BC07C67
(1489158552.036327) can0 3CA#8383886400000000
(1489158552.037325) can0 217#14BC14BC14AC14B8
(1489158552.037326) can0 596#9600FFFFFFFFFFFF
(1489158552.039647) can0 186#13F3012C01F70400
(1489158552.040674) can0 187#E21408C800100300
(1489158552.040675) can0 047#2000000000000000
(1489158552.040677) can0 05C#001000FB201E0000
(1489158552.040679) can0 165#50C0000000000000
(1489158552.041736) can0 167#72802310001A3200
(1489158552.041737) can0 200#00007FED80280000
(1489158552.041738) can0 091#7E8D7EF40478F000
(1489158552.041738) can0 092#6FB36FB3737C6B78
(1489158552.042735) can0 202#04A808006000183B
(1489158552.042736) can0 204#C08D7D0334000000
(1489158552.042737) can0 230#5006000092000000
(1489158552.042738) can0 242#037A207AD9000001
(1489158552.043724) can0 40A#C104014107F670C1
(1489158552.043725) can0 42C#8C6000000B000000
(1489158552.045055) can0 082#7D08140097804000
(1489158552.046078) can0 085#7C6980002AD07C67
(1489158552.047106) can0 078#0168800000000000
(1489158552.047108) can0 076#3E81C0800FFF0000
(1489158552.048136) can0 077#182E07FF7FF7FA01
(1489158552.048137) can0 07D#0000F690002007E1
(1489158552.048137) can0 213#FFFF00040001FD40
(1489158552.048137) can0 214#000000000000F690
(1489158552.049190) can0 216#66E43AD500000000
(1489158552.049191) can0 217#14B414BC14AC14B4
(1489158552.049191) can0 415#1839F49E08000800
(1489158552.049192) can0 416#5900F50001000000
(1489158552.050210) can0 41D#8000600000000000
(1489158552.050211) can0 4B0#01008000900000F6
(1489158552.050211) can0 167#72802310001A3300
(1489158552.051202) can0 202#04A710006000183B
(1489158552.051202) can0 204#C08D7D0334000000
(1489158552.051202) can0 3A8#0100271000000000
(1489158552.052234) can0 091#7E947EF4FC79F000
(1489158552.052234) can0 092#6FB86FB573815E79
(1489158552.055081) can0 085#7C69800029E07C67
(1489158552.056115) can0 3CC#B000000000000000
(1489158552.057115) can0 217#14B814BC14B014B8
(1489158552.058146) can0 455#A000000000000000
(1489158552.059156) can0 05A#00000045EB910000
(1489158552.060153) can0 186#13F3012C01F70400
(1489158552.060154) can0 187#E21408C800100300
(1489158552.060155) can0 047#2000000000000000
(1489158552.061169) can0 165#50C0000000000000
(1489158552.061170) can0 167#72802310001A3300
(1489158552.061171) can0 091#7E9D7EF4F27AF000
(1489158552.062210) can0 092#6FB16FB773796A7A
(1489158552.062211) can0 178#000001FF0E83CE89
(1489158552.063213) can0 200#00007FEE80280000
(1489158552.063214) can0 202#04A718006000183A
(1489158552.063214) can0 204#C08D7D0335000000
(1489158552.064210) can0 230#5006000092000000
(1489158552.064211) can0 33B#0000000000000000
(1489158552.064211) can0 261#0000000000000000
(1489158552.065269) can0 42F#7D04002E661F0334
(1489158552.065269) can0 082#7D08140097804000
(1489158552.066268) can0 085#7C69800028F07C67
(1489158552.067259) can0 3CA#8383886400000000
(1489158552.067259) can0 078#0569800000000000
(1489158552.067259) can0 076#3E81C0800FFF0000
(1489158552.068294) can0 077#182E07FF7FF80A02
(1489158552.068295) can0 07D#0000F5A0002037E3
(1489158552.068295) can0 213#FFFF00040001FD40
(1489158552.068296) can0 214#000000000000F5A0
(1489158552.069249) can0 216#7AF950EA00000000
(1489158552.069249) can0 217#14BC14BC14B014B4
(1489158552.069250) can0 415#1835F8A108010801
(1489158552.069250) can0 41D#8000600000000000
(1489158552.069250) can0 4B0#01008000A00000F5
(1489158552.070270) can0 167#72802310001A3200
(1489158552.071314) can0 202#04A620006000183A
(1489158552.071315) can0 204#C08D7D0335000000
(1489158552.071315) can0 3A8#0100271000000000
(1489158552.071315) can0 04A#0200000000000000
(1489158552.072308) can0 04B#00C0D8D8D8D8C000
(1489158552.072308) can0 04C#105FFFC000000000
(1489158552.072308) can0 091#7EA67EF4E87BF000
(1489158552.072310) can0 092#6FA96FB77367837B
(1489158552.075089) can0 085#7C69800037007C67
(1489158552.076817) can0 217#14BC14BC14B414B0
(1489158552.079345) can0 186#13F2012C01F70400
(1489158552.080394) can0 187#E21408C800100300
(1489158552.080394) can0 047#2000000000000000
(1489158552.081424) can0 165#50C0000000000000
(1489158552.081425) can0 167#72802310001A3200
(1489158552.081425) can0 200#00007FED80280000
(1489158552.081425) can0 202#04A6280060001839
(1489158552.081426) can0 091#7EAD7EF1E37CF000
(1489158552.082447) can0 092#6FA96FB473628A7C
(1489158552.082448) can0 204#C08D7D0335000000
(1489158552.082448) can0 230#5006000092000000
(1489158552.083447) can0 242#037A2079D9000001
(1489158552.085151) can0 082#7D08140097804000
(1489158552.086090) can0 085#7C69800036107C67
(1489158552.086091) can0 3CC#B000000000000000
(1489158552.087132) can0 078#0068000000000000
(1489158552.087133) can0 076#3E81C0800FFF0000
(1489158552.088167) can0 077#182D07FF7FF7FE03
(1489158552.088168) can0 07D#0000F4B0001FC7E9
(1489158552.088168) can0 213#FFFF00040001FD40
(1489158552.088169) can0 214#000000000000F4B0
(1489158552.089191) can0 216#8F0F640000000000
(1489158552.089192) can0 217#14BC14BC14B814AC
(1489158552.089192) can0 415#183AFC9B08010801
(1489158552.089192) can0 41D#8000600000000000
(1489158552.090191) can0 4B0#01008000B00000F4
(1489158552.090192) can0 167#72802310001A3200
(1489158552.091191) can0 202#04A6300060001838
(1489158552.091191) can0 204#C08D7D0335000000
(1489158552.091192) can0 3A8#0100271000000000
(1489158552.092212) can0 091#7EB27EEFDF7DF000
(1489158552.092213) can0 092#6FAB6FB27373787D
(1489158552.092213) can0 42F#7D04002E661F0335
(1489158552.093207) can0 42C#8C6000000B000000
(1489158552.095138) can0 085#7C69800035207C67
(1489158552.096321) can0 3CA#8383886400000000
(1489158552.097322) can0 217#14BC14BC14B814AC
(1489158552.098915) can0 186#13EF012C01F70400
(1489158552.099915) can0 187#E11408C800200300
(1489158552.099916) can0 18A#0020180213000000
(1489158552.100943) can0 047#2000000000000000
(1489158552.100944) can0 165#50C0000000000000
(1489158552.100945) can0 167#72802310001A3300
(1489158552.100945) can0 200#00007FED80280000
(1489158552.100945) can0 202#04A5380060001838
(1489158552.101984) can0 091#7EB67EEFDA7EF000
(1489158552.101984) can0 092#6FAB6FB37382677E
(1489158552.101985) can0 204#C08D7D0335000000
(1489158552.101986) can0 230#5006000092000000
(1489158552.103519) can0 083#0020000000000000
(1489158552.104524) can0 2A1#FFFFFFFF00000000
(1489158552.105546) can0 082#7D08140097804000
(1489158552.105547) can0 085#7C69800034307C67
(1489158552.107076) can0 076#3E81C0800FFF0000
(1489158552.108119) can0 077#182D07FF7FF7FE02
(1489158552.108120) can0 078#0368800000000000
(1489158552.108120) can0 07D#0000F3C0001FF7ED
(1489158552.108121) can0 213#FFFF00040001FD40
(1489158552.109118) can0 214#000000000000F3C0
(1489158552.109119) can0 216#A524791500000000
(1489158552.109119) can0 217#14BC14BC14B814AC
(1489158552.109119) can0 415#1839C0AB08010801
(1489158552.110117) can0 41D#8000600000000000
(1489158552.110118) can0 4B0#01008000C00000F3
(1489158552.110118) can0 167#72802310001A3300
(1489158552.111139) can0 202#04A4400060001838
(1489158552.111141) can0 204#C08D7D0336000000
(1489158552.111141) can0 261#0000000000000000
(1489158552.111141) can0 3A8#0100271000000000
(1489158552.112140) can0 091#7EBD7EF1D07FF000
(1489158552.112143) can0 092#6FA96FB673786F7F
(1489158552.115139) can0 085#7C69800033407C67
(1489158552.116141) can0 3CC#B000000000000000
(1489158552.117164) can0 217#14BC14BC14B814AC
(1489158552.118750) can0 186#13EF012C01F70400
(1489158552.119752) can0 187#E11408C800200300
(1489158552.120774) can0 047#2000000000000000
(1489158552.120775) can0 165#50C0000000000000
(1489158552.120775) can0 167#72802310001A3300
(1489158552.121773) can0 200#00007FED80280000
(1489158552.121774) can0 091#7EC17EF3C980F000
(1489158552.121774) can0 092#6FA56FB6735D8D80
(1489158552.121774) can0 202#04A3480060001838
(1489158552.122793) can0 204#C08D7D0336000000
(1489158552.122794) can0 230#5006000092000000
(1489158552.122794) can0 242#037A2078D9000001
(1489158552.122794) can0 42F#7D04002E661F0335
(1489158552.123797) can0 33B#0000000000000000
(1489158552.124794) can0 05D#8355AF5C38000000
(1489158552.125822) can0 082#7D08140097804000
(1489158552.125823) can0 085#7C69800032507C67
(1489158552.126822) can0 3CA#8383886400000000
(1489158552.126822) can0 078#0168800000000000
(1489158552.127861) can0 422#000000923802FE02
(1489158552.127862) can0 076#3E81C0800FFF0000
(1489158552.127862) can0 077#182D07FF7FF7FE03
(1489158552.127863) can0 07D#0000F2D0002017F0
(1489158552.128858) can0 213#FFFF00040001FD40
(1489158552.128859) can0 214#000000000000F2D0
(1489158552.128860) can0 216#BA3A8F2B00000000
(1489158552.128860) can0 217#14BC14B814B014B0
(1489158552.128860) can0 415#1839C4AA08010801
(1489158552.129868) can0 41D#8000600000000000
(1489158552.129869) can0 423#A3A0000000000000
(1489158552.129869) can0 430#3F00112BE8927700
(1489158552.129870) can0 4B0#01008000D00000F2
(1489158552.130869) can0 3A8#0100271000000000
(1489158552.130869) can0 167#72802310001A3300
(1489158552.130870) can0 202#04A2500060001838
(1489158552.130871) can0 204#C08D7D0335000000
(1489158552.131892) can0 091#7EC17EF4C781F000
(1489158552.131892) can0 092#6FA06FB47350A081
(1489158552.135096) can0 085#7C69800031607C67
(1489158552.136818) can0 217#14B814B814AC14AC
(1489158552.138606) can0 186#13ED012C01F70400
(1489158552.139606) can0 187#E11408C800200300
(1489158552.140620) can0 047#2000000000000000
(1489158552.140621) can0 05C#00B000F1201E0000
(1489158552.140621) can0 165#50C0000000000000
(1489158552.141618) can0 167#72802310001A3300
(1489158552.141619) can0 200#00007FED80280000
(1489158552.141619) can0 202#04A1580060001838
(1489158552.141620) can0 091#7EBD7EF4CA82F000
(1489158552.142618) can0 092#6FA26FB2735C9382
(1489158552.142619) can0 204#C08D7D0335000000
(1489158552.142619) can0 230#5006000092000000
(1489158552.142619) can0 084#11000045090D0A00
(1489158552.143644) can0 42C#8C6000000B000000
(1489158552.145119) can0 082#7D08140097804000
(1489158552.146103) can0 085#7C69800030707C67
(1489158552.146103) can0 3CC#B000000000000000
(1489158552.147100) can0 078#0068000000000000
(1489158552.147100) can0 076#3E81C0800FFF0000
(1489158552.148130) can0 077#182C07FF7FF7F202
(1489158552.148130) can0 07D#0000F1E0001F57F1
(1489158552.148130) can0 213#FFFF00040001FD40
(1489158552.148131) can0 214#000000000000F1E0
(1489158552.149117) can0 216#D04FA44000000000
(1489158552.149128) can0 217#14B814BC14A814B0
(1489158552.149128) can0 415#1835C8AD08010801
(1489158552.149128) can0 416#5A00F40001000000
(1489158552.150190) can0 41D#8000600000000000
(1489158552.150191) can0 4B0#01008000E00000F1
(1489158552.150192) can0 167#72802310001A3300
(1489158552.151190) can0 202#04A0600060001838
(1489158552.151191) can0 204#C08D7D0335000000
(1489158552.151191) can0 3A8#0100271000000000
(1489158552.152197) can0 091#7EBC7EF4CA83F000
(1489158552.152197) can0 092#6FA76FB1736F7B83
(1489158552.152197) can0 42F#7D04002E661F0335
(1489158552.155139) can0 085#7C6A80002D807C68
(1489158552.156359) can0 3CA#8383C86800000000
(1489158552.157356) can0 217#14B414B814A414B0
(1489158552.158372) can0 455#A000000000000000
(1489158552.159373) can0 186#13EE012C01F70400
(1489158552.159373) can0 187#E11408C800200300
(1489158552.159374) can0 05A#00000045F1310000
(1489158552.160402) can0 047#2000000000000000
(1489158552.161418) can0 165#50C0000000000000
(1489158552.161419) can0 167#72802310001A3300
(1489158552.161419) can0 091#7EBF7EF4C684F000
(1489158552.161420) can0 092#6FAB6FB173737284
(1489158552.162425) can0 178#000002000E83CE89
(1489158552.162425) can0 200#00007FED80280000
(1489158552.162426) can0 202#04A0680060001837
(1489158552.162426) can0 204#C08D7D0335000000
(1489158552.163453) can0 230#5006000092000000
(1489158552.163454) can0 242#037A2079D9000001
(1489158552.163454) can0 261#0000000000000000
(1489158552.165120) can0 082#7E08140097804000
(1489158552.166138) can0 085#7C6A80002C907C68
(1489158552.167139) can0 078#0569800000000000
(1489158552.167139) can0 076#3E81C0800FFF0000
(1489158552.168165) can0 077#182B07FF7FF7FA01
(1489158552.168166) can0 07D#0000F0F0001FE7F0
(1489158552.168167) can0 213#FFFF00040001FD40
(1489158552.168167) can0 214#000000000000F0F0
(1489158552.169166) can0 216#E563BA5400000000
(1489158552.169167) can0 217#14B014B814A414B0
(1489158552.169167) can0 415#1831CCB008010801
(1489158552.169168) can0 41D#8000600000000000
(1489158552.170189) can0 4B0#01008000F00008EF
(1489158552.170189) can0 167#72802410001A3300
(1489158552.171194) can0 202#04A0700060001836
(1489158552.171194) can0 204#C08D7D0337000000
(1489158552.171195) can0 3A8#0100271000000000
(1489158552.171196) can0 04A#0200000000000000
(1489158552.172191) can0 04B#00C0D8D8D8D8C000
(1489158552.172192) can0 04C#105FFFC000000000
(1489158552.172192) can0 091#7EBD7EF4C785F000
(1489158552.172192) can0 092#6FAE6FB3736C7385
(1489158552.174539) can0 3A7#0E401A045F700000
(1489158552.175566) can0 085#7C6A80002BA07C68
(1489158552.175567) can0 3CC#B000000000000000
(1489158552.176870) can0 217#14B414B414A814B0
(1489158552.178565) can0 186#13F0012C01F70400
(1489158552.179561) can0 187#E11408C800200300
(1489158552.180612) can0 047#2000000000000000
(1489158552.180612) can0 165#50C0000000000000
(1489158552.181618) can0 167#72802410001A3300
(1489158552.181619) can0 3A6#0E401A045F700000
(1489158552.181619) can0 091#7EB97EF4CA86F000
(1489158552.181620) can0 092#6FAD6FB573647986
(1489158552.182618) can0 200#00007FED80280000
(1489158552.182619) can0 202#04A0780060001835
(1489158552.182619) can0 204#C08D7D0336000000
(1489158552.183627) can0 230#5006000092000000
(1489158552.183627) can0 42F#7D04002E661F0335
(1489158552.183628) can0 33B#0000000000000000
(1489158552.185124) can0 082#7D08140097804000
(1489158552.186141) can0 085#7C6A80002AB07C68
(1489158552.187164) can0 3CA#8383C86800000000
(1489158552.187165) can0 078#0168800000000000
(1489158552.187165) can0 076#3E82C0800FFF0000
(1489158552.188166) can0 077#182A07FF7FF7FE02
(1489158552.188167) can0 07D#0000FF00001FD7F0
(1489158552.188168) can0 213#FFFF00040001FD40
(1489158552.188168) can0 214#000000000000FF00
(1489158552.189189) can0 216#FB79CF6A00000000
(1489158552.189189) can0 217#14B814B814AC14B0
(1489158552.189189) can0 415#182ED0B208010801
(1489158552.189190) can0 41D#8000600000000000
(1489158552.190188) can0 4B0#01008000000008FE
(1489158552.190189) can0 167#72802410001A3300
(1489158552.191214) can0 202#04B0000060001834
(1489158552.191214) can0 204#C08D7D0336000000
(1489158552.191215) can0 3A8#0100271000000000
(1489158552.191216) can0 091#7EB87EF4CA87F000
(1489158552.192216) can0 092#6FAA6FB573617E87
(1489158552.192216) can0 42C#8C6000000B000000
(1489158552.195117) can0 085#7C6A800029C07C68
(1489158552.196872) can0 217#14B414B814B014AC
(1489158552.198139) can0 186#13F0012C01F70400
(1489158552.199165) can0 187#E01408C800300300
(1489158552.199166) can0 18A#0020180213000000
(1489158552.200167) can0 047#2000000000000000
(1489158552.201190) can0 165#50C0000000000000
(1489158552.201191) can0 167#72802310001A3300
(1489158552.201191) can0 200#00007FED80280000
(1489158552.201192) can0 202#04B0080060001833
(1489158552.202193) can0 091#7EBA7EF4C788F000
(1489158552.202193) can0 092#6FA96FB573677888
(1489158552.202194) can0 204#C08D7D0335000000
(1489158552.202194) can0 230#5006000092000000
(1489158552.203192) can0 242#037A2075D9000001
(1489158552.204234) can0 081#0000000000000000
(1489158552.204235) can0 083#0020000000000000
(1489158552.204236) can0 2A1#FFFFFFFF00000000
(1489158552.205243) can0 3E6#0001040880000000
(1489158552.205244) can0 082#7D08140097804000
(1489158552.206243) can0 085#7C6A800028D07C68
(1489158552.206243) can0 3CC#B000000000000000
(1489158552.207269) can0 076#3E82C0800FFF0000
(1489158552.208270) can0 077#182907FF7FF7FE02
(1489158552.208271) can0 078#0068000000000000
(1489158552.208271) can0 07D#0000FE10001FA7EE
(1489158552.208272) can0 213#FFFF00040001FC40
(1489158552.209290) can0 214#000000000000FE10
(1489158552.209291) can0 216#108EE37F00000000
(1489158552.209291) can0 217#14B814B814B014AC
(1489158552.209292) can0 415#1833D4AC08010801
(1489158552.209292) can0 41D#8000600000000000
(1489158552.210314) can0 4B0#01008000100000FE
(1489158552.210315) can0 167#72802310001A3300
(1489158552.211316) can0 202#04B0100060001832
(1489158552.211317) can0 204#C08D7D0335000000
(1489158552.211317) can0 091#7EB97EF4C789F000
(1489158552.212358) can0 092#6FA66FB473736F89
(1489158552.212359) can0 261#0000000000000000
(1489158552.212359) can0 3A8#0100271100000000
(1489158552.212359) can0 42F#7D04002E661F0336
(1489158552.215164) can0 085#7C6A800027E07C68
(1489158552.216323) can0 3CA#8383B86B00000000
(1489158552.217356) can0 217#14B414B814B414A8
(1489158552.218356) can0 186#13F0012C01F70400
(1489158552.218357) can0 187#E01408C800300300
(1489158552.219998) can0 047#2000000000000000
(1489158552.221028) can0 165#50C0000000000000
(1489158552.221029) can0 167#72802310001A3300
(1489158552.221029) can0 200#00007FED80280000
(1489158552.221029) can0 202#04AF180060001832
(1489158552.222027) can0 091#7EAF7EF4D08AF000
(1489158552.222027) can0 092#6FA36FB373766F8A
(1489158552.222028) can0 204#C08D7C0335000000
(1489158552.222028) can0 230#5006000092000000
(1489158552.224515) can0 05D#8356975E3B000000
(1489158552.225540) can0 082#7D08140097804000
(1489158552.225540) can0 085#7C6A800026F07C68
(1489158552.226545) can0 078#0168800000000000
(1489158552.227530) can0 422#000000923802FE02
(1489158552.227530) can0 423#A3A0000000000000
(1489158552.227531) can0 076#3E80C0800FFF0000
(1489158552.227531) can0 077#182807FF7FF7FA02
(1489158552.228566) can0 07D#0000FD20001FF7EF
(1489158552.228566) can0 213#FFFF00040001FD40
(1489158552.228567) can0 214#000000000000FD20
(1489158552.228567) can0 216#24A3F99500000000
(1489158552.229606) can0 217#14B814B814B414A8
(1489158552.229607) can0 415#1834D8AA08010801
(1489158552.229607) can0 41D#8000600000000000
(1489158552.229608) can0 430#3700112BC8927700
(1489158552.229608) can0 4B0#01008000200000FD
(1489158552.230556) can0 167#72802410001A3300
(1489158552.230557) can0 202#04AE200060001832
(1489158552.230558) can0 204#C08D7D0335000000
(1489158552.231619) can0 3A8#0100271100000000
(1489158552.231619) can0 091#7EA07EF4DE8BF000
(1489158552.231620) can0 092#6FA16FB3736B7B8B
(1489158552.235146) can0 085#7C6A800035007C68
(1489158552.236118) can0 3CC#B000000000000000
(1489158552.237169) can0 217#14B814B814B014A8
(1489158552.238195) can0 186#13F1012C01F70400
(1489158552.238196) can0 187#E01408C800300300
(1489158552.240034) can0 047#2000000000000000
(1489158552.241057) can0 05C#005000F7201E0000
(1489158552.241058) can0 165#50C0000000000000
(1489158552.241059) can0 167#72802410001A3300
(1489158552.242057) can0 091#7E937EF4EA8CF000
(1489158552.242058) can0 092#6FA16FB37361848C
(1489158552.242058) can0 200#00007FED80280000
(1489158552.242059) can0 202#04AD280060001832
(1489158552.243081) can0 204#C08D7D0334000000
(1489158552.243082) can0 230#5006000092000000
(1489158552.243083) can0 242#037A2075D9000001
(1489158552.243084) can0 40A#C110409060250000
(1489158552.244058) can0 42C#8C6000000B000000
(1489158552.244060) can0 42F#7D04002E661F0335
(1489158552.244061) can0 33B#0000000000000000
(1489158552.245122) can0 082#7D08140097804000
(1489158552.246121) can0 085#7C6A800034107C68
(1489158552.247149) can0 3CA#8383B86B00000000
(1489158552.247150) can0 078#0168800000000000
(1489158552.247151) can0 076#3E80C0800FFF0000
(1489158552.248195) can0 077#182807FF7FF7F202
(1489158552.248195) can0 07D#0000FC30001FD7E7
(1489158552.248196) can0 213#FFFF00040001FD40
(1489158552.248197) can0 214#000000000000FC30
(1489158552.249235) can0 216#3AB90EAA00000000
(1489158552.249236) can0 217#14B814B414A814A8
(1489158552.249237) can0 415#1835DCA808010801
(1489158552.249239) can0 416#5B00F30001000000
(1489158552.250236) can0 41D#8000600000000000
(1489158552.250237) can0 4B0#01008000300000FC
(1489158552.250237) can0 167#72802310001A3300
(1489158552.251248) can0 202#04AC300060001832
(1489158552.251249) can0 204#C08D7D0334000000
(1489158552.251250) can0 3A8#0100271000000000
(1489158552.251250) can0 091#7E917EF4EB8DF000
(1489158552.252255) can0 092#6FA76FB273637C8D
(1489158552.255143) can0 085#7C6A800033207C68
(1489158552.256863) can0 217#14B414B414A414A8
(1489158552.257861) can0 455#A000000000000000
(1489158552.258832) can0 186#13F1012C01F70400
(1489158552.258834) can0 187#E01408C800300300
(1489158552.259865) can0 05A#00000045E7D10000
(1489158552.260903) can0 047#2000000000000000
(1489158552.260904) can0 165#50C0000000000000
(1489158552.261919) can0 167#72802310001A3300
(1489158552.261920) can0 091#7E9B7EF4E08EF000
(1489158552.261920) can0 092#6FAC6FB27369708E
(1489158552.261921) can0 178#000001FF0E83CE89
(1489158552.261923) can0 200#00007FED80280000
(1489158552.262945) can0 202#04AB380060001832
(1489158552.262946) can0 204#C08D7D0335000000
(1489158552.262947) can0 230#5006000092000000
(1489158552.263914) can0 261#0000000000000000
(1489158552.265122) can0 082#7D08140097804000
(1489158552.266143) can0 085#7C6A800033307C67
(1489158552.266144) can0 3CC#B000000000000000
(1489158552.267143) can0 078#0469000000000000
(1489158552.267144) can0 076#3E80C0800FFF0000
(1489158552.268173) can0 077#182607FF7FF7FA02
(1489158552.268174) can0 07D#0000FB40001FB7E2
(1489158552.268175) can0 213#FFFF00040001FC40
(1489158552.268176) can0 214#000000000000FB40
(1489158552.269173) can0 216#4FCE23C000000000
(1489158552.269174) can0 217#14B014B414A014AC
(1489158552.269174) can0 415#182FE0AD08010801
(1489158552.269180) can0 41D#8000600000000000
(1489158552.270195) can0 4B0#01008000400000FB
(1489158552.270196) can0 167#72802310001A3300
(1489158552.271236) can0 202#04AA400060001832
(1489158552.271237) can0 204#C08D7D0335000000
(1489158552.271237) can0 3A8#0100271000000000
(1489158552.272240) can0 04A#0200000000000000
(1489158552.272241) can0 04B#00C0D8D8D8D8C000
(1489158552.272242) can0 04C#105FFFC000000000
(1489158552.272243) can0 091#7EA67EF4D48FF000
(1489158552.273236) can0 092#6FAE6FB2736C6A8F
(1489158552.273237) can0 42F#7D04002E661F0334
(1489158552.275143) can0 085#7C6A800032407C67
(1489158552.276364) can0 3CA#8383B86B00000000
(1489158552.277360) can0 217#14AC14B814A014B0
(1489158552.278377) can0 186#13F1012C01F70400
(1489158552.278378) can0 187#E01408C800300300
(1489158552.280009) can0 047#2000000000000000
(1489158552.281031) can0 165#50C0000000000000
(1489158552.281032) can0 167#72802310001A3300
(1489158552.281033) can0 200#00007FED80280000
(1489158552.281034) can0 202#04AA480060001831
(1489158552.282031) can0 091#7EA57EF4D490F000
(1489158552.282032) can0 092#6FAA6FB3736B6D90
(1489158552.282032) can0 204#C08D7D0335000000
(1489158552.282033) can0 230#5006000092000000
(1489158552.283057) can0 242#037A2075D9000001
(1489158552.285131) can0 082#7E08140097804000
(1489158552.286147) can0 085#7C6A800031507C67
(1489158552.287169) can0 078#0168800000000000
(1489158552.287170) can0 076#3E80C0800FFF0000
(1489158552.288172) can0 077#182507FF7FF7FE02
(1489158552.288173) can0 07D#0000FA50001FD7E9
(1489158552.288174) can0 213#FFFF00040001FC40
(1489158552.288175) can0 214#000000000000FA50
(1489158552.289169) can0 216#64E239D400000000
(1489158552.289170) can0 217#14AC14B414A414AC
(1489158552.289171) can0 415#182CE4AF08000800
(1489158552.289171) can0 41D#8000600000000000
(1489158552.290195) can0 4B0#01008000500000FA
(1489158552.290197) can0 3A8#0100271000000000
(1489158552.291235) can0 167#72802310001A3300
(1489158552.291236) can0 202#04AA500060001830
(1489158552.291237) can0 204#C08D7D0336000000
(1489158552.291238) can0 091#7E947EF5E391F000
(1489158552.292239) can0 092#6FA46FB673697191
(1489158552.292240) can0 42C#8C6000000B000000
(1489158552.295143) can0 085#7C6A800030607C67
(1489158552.296146) can0 3CC#B000000000000000
(1489158552.297171) can0 217#14B014B414A414AC
(1489158552.298169) can0 186#13F1012C01F70400
(1489158552.298171) can0 187#E01408C800300300
(1489158552.298172) can0 18A#0020180213000000
(1489158552.300000) can0 047#2000000000000000
(1489158552.300997) can0 165#50C0000000000000
(1489158552.300998) can0 167#72802310001A3300
(1489158552.300999) can0 200#00007FED80280000
(1489158552.302009) can0 091#7E7D7EF5F992F000
(1489158552.302010) can0 092#6FA36FB873677192
(1489158552.302010) can0 202#04AA58006000182F
(1489158552.302012) can0 204#C08D7D0336000000
(1489158552.303034) can0 230#5006000092000000
(1489158552.303035) can0 42F#7D04002E661F0335
(1489158552.304035) can0 083#0020000000000000
(1489158552.304036) can0 2A1#FFFFFFFF00000000
(1489158552.305057) can0 33B#0000000000000000
(1489158552.306057) can0 082#7C08140097804000
(1489158552.306058) can0 085#7C6A80002F707C67
(1489158552.307083) can0 3CA#8383B86B00000000
(1489158552.307084) can0 078#0168800000000000
(1489158552.308084) can0 076#3E80C0800FFF0000
(1489158552.308085) can0 077#182407FF7FF7F603
(1489158552.308086) can0 07D#0000F960001FC7E3
(1489158552.308092) can0 213#FFFF00040001FC40
(1489158552.309122) can0 214#000000000000F960
(1489158552.309123) can0 216#7AF84EE900000000
(1489158552.309124) can0 217#14B014B814A814A8
(1489158552.309124) can0 415#182EE8AC08000800
(1489158552.310122) can0 41D#8000600000000000
(1489158552.310122) can0 4B0#01008000600008F8
(1489158552.310123) can0 167#72802310001A3300
(1489158552.311145) can0 202#04AA60006000182E
(1489158552.311146) can0 204#C08D7D0336000000
(1489158552.311147) can0 261#0000000000000000
(1489158552.311148) can0 3A8#0100271000000000
(1489158552.312146) can0 091#7E6E7EF50793F000
(1489158552.312148) can0 092#6FA96FB9736C6493
(1489158552.315143) can0 085#7C6A80002E807C67
(1489158552.316875) can0 217#14B814B814AC14A4
(1489158552.317902) can0 186#13EE012C01F70400
(1489158552.317903) can0 187#DF1408C800400300
(1489158552.319978) can0 047#2000000000000000
(1489158552.320984) can0 165#50C0000000000000
(1489158552.320985) can0 167#72802410001A3300
(1489158552.320987) can0 200#00007FED80280000
(1489158552.320987) can0 202#04A968006000182E
(1489158552.322001) can0 091#7E657EF60E94F000
(1489158552.322002) can0 092#6FAF6FB873765494
(1489158552.322002) can0 204#C08D7D0336000000
(1489158552.322003) can0 230#5006000092000000
(1489158552.323027) can0 242#037A2075D9000001
(1489158552.324530) can0 05D#8355BF5F31000000
(1489158552.325531) can0 082#7D08140097804000
(1489158552.325532) can0 085#7C6A80002D907C67
(1489158552.326544) can0 3CC#B000000000000000
(1489158552.326545) can0 59E#9E00FFFFFFFFFFFF
(1489158552.327570) can0 078#0068000000000000
(1489158552.327571) can0 422#000000923802FE02
(1489158552.327572) can0 076#3E80C0800FFF0000
(1489158552.327573) can0 077#182307FF7FF7FE04
(1489158552.328573) can0 07D#0000F870001FD7D7
(1489158552.328575) can0 213#FFFF00040001FD40
(1489158552.328575) can0 214#000000000000F870
(1489158552.328577) can0 216#8F0D62FF00000000
(1489158552.329594) can0 217#14B414B814B014A4
(1489158552.329595) can0 415#1834ECA508000800
(1489158552.329596) can0 41D#8000600000000000
(1489158552.329597) can0 423#A3A0000000000000
(1489158552.330614) can0 430#3700112BC8927700
(1489158552.330615) can0 43A#0000020000000000
(1489158552.330615) can0 3A8#0100271000000000
(1489158552.330616) can0 167#72802410001A3300
(1489158552.331625) can0 4B0#01008000700000F8
(1489158552.331626) can0 091#7E5D7EF51695F000
(1489158552.331626) can0 202#04A870006000182E
(1489158552.331627) can0 092#6FAA6FB873765895
(1489158552.331628) can0 204#C08D7D0337000000
(1489158552.332631) can0 42F#7D04002E661F0336
(1489158552.335160) can0 085#7C6A80002DA07C66
(1489158552.336341) can0 3CA#8384086E00000000
(1489158552.337370) can0 186#13EF012C01F70400
(1489158552.337371) can0 187#DF1408C800400300
(1489158552.338371) can0 217#14B014B414B014A4
(1489158552.340018) can0 047#2000000000000000
(1489158552.341006) can0 05C#00F000ED201E0000
(1489158552.341007) can0 165#50C0000000000000
(1489158552.341007) can0 167#72802410001A3300
(1489158552.341008) can0 200#00007FED80280000
(1489158552.342044) can0 202#04A778006000182E
(1489158552.342045) can0 091#7E567EF41D96F000
(1489158552.342046) can0 092#6FA56FB773656E96
(1489158552.342048) can0 204#C08D7D0337000000
(1489158552.343040) can0 230#5006000092000000
(1489158552.344069) can0 42C#8C6000000B000000
(1489158552.345130) can0 082#7D08140097804000
(1489158552.346152) can0 085#7C6A80002CB07C66
(1489158552.347182) can0 078#0168800000000000
(1489158552.347183) can0 076#3E80C0800FFF0000
(1489158552.348181) can0 077#182407FF7FF7FE04
(1489158552.348182) can0 07D#0000F780002007D2
(1489158552.348184) can0 213#FFFF00040001FD40
(1489158552.348184) can0 214#000000000000F780
(1489158552.349177) can0 216#A523781400000000
(1489158552.349178) can0 217#14B414B414B014A4
(1489158552.349179) can0 415#182EF0AA08000800
(1489158552.349180) can0 416#5C00F20001000000
(1489158552.350204) can0 41D#8000600000000000
(1489158552.350205) can0 4B0#01008000800000F7
(1489158552.350205) can0 167#72802410001A3300
(1489158552.351244) can0 202#04B600006000182E
(1489158552.351246) can0 204#C08D7D0338000000
(1489158552.351247) can0 3A8#0100271000000000
(1489158552.351247) can0 091#7E567EF41C97F000
(1489158552.352251) can0 092#6FA66FB373518497
(1489158552.355130) can0 085#7C6B800029C07C67
(1489158552.356154) can0 3CC#B000000000000000
(1489158552.357152) can0 186#13ED012C01F70400
(1489158552.357153) can0 187#DF1408C800400300
(1489158552.358178) can0 217#14B814B814AC14A8
(1489158552.358179) can0 455#A000000000000000
(1489158552.359178) can0 05A#00000045ED710000
(1489158552.360207) can0 047#2000000000000000
(1489158552.361204) can0 165#50C0000000000000
(1489158552.361204) can0 167#72802410001A3300
(1489158552.361205) can0 091#7E5E7EF41398F000
(1489158552.362226) can0 092#6FAA6FAF73518398
(1489158552.362227) can0 178#000002010E83CE89
(1489158552.362228) can0 200#00007FED80280000
(1489158552.363227) can0 202#04B508006000182E
(1489158552.363228) can0 204#C08D7D0338000000
(1489158552.363228) can0 230#5006000092000000
(1489158552.364206) can0 242#037A2077D9000001
(1489158552.364208) can0 33B#0000000000000000
(1489158552.364209) can0 261#0000000000000000
(1489158552.365205) can0 42F#7D04002E661F0337
(1489158552.365206) can0 082#7C08140097804000
(1489158552.366227) can0 085#7C6B800028D07C67
(1489158552.367216) can0 3CA#8384086E00000000
(1489158552.367217) can0 078#0569800000000000
(1489158552.367218) can0 076#3E80C0800FFF0000
(1489158552.368267) can0 077#182407FF7FF7FA02
(1489158552.368268) can0 07D#0000F690001F57D0
(1489158552.368268) can0 213#FFFF00040001FD40
(1489158552.368269) can0 214#000000000000F690
(1489158552.369329) can0 216#B9388D2900000000
(1489158552.369330) can0 217#14B814B414A814A8
(1489158552.369331) can0 415#1835F4A208000800
(1489158552.369331) can0 41D#8000600000000000
(1489158552.369332) can0 4B0#01008000900000F6
(1489158552.370325) can0 167#72802410001A3300
(1489158552.371361) can0 202#04B510006000182D
(1489158552.371362) can0 204#C08D7D0337000000
(1489158552.371362) can0 3A8#0100271000000000
(1489158552.371363) can0 04A#0200000000000000
(1489158552.372360) can0 04B#00C0D8D8D8D8C000
(1489158552.372361) can0 04C#105FFFC000000000
(1489158552.372362) can0 091#7E6D7EF60199F000
(1489158552.372363) can0 092#6FAB6FAE73656E99
(1489158552.374622) can0 3A7#0E401A045F700000
(1489158552.375622) can0 085#7C6B800027E07C67
(1489158552.376684) can0 186#13ED012C01F70400
(1489158552.377683) can0 187#DF1408C800400300
(1489158552.377684) can0 217#14B414B814A414A8
(1489158552.379976) can0 047#2000000000000000
(1489158552.381005) can0 165#50C0000000000000
(1489158552.381006) can0 167#72802410001A3300
(1489158552.381007) can0 200#00007FED80280000
(1489158552.381008) can0 202#04B318006000182E
(1489158552.382005) can0 091#7E7D7EFAEC9AF000
(1489158552.382006) can0 092#6FAA6FB373745A9A
(1489158552.382006) can0 204#C08D7D0337000000
(1489158552.382007) can0 230#5006000092000000
(1489158552.383040) can0 3A6#0E401A045F700000
(1489158552.385139) can0 082#7D08140096804000
(1489158552.386156) can0 085#7C6C800025F07C67
(1489158552.386157) can0 3CC#B000000000000000
(1489158552.387151) can0 078#0068000000000000
(1489158552.387152) can0 076#3E81C0800FFF0000
(1489158552.388180) can0 077#182208007FF7FE00
(1489158552.388181) can0 07D#0000F5A0001FB7D7
(1489158552.388181) can0 213#FFFF00040001FC40
(1489158552.388182) can0 214#000000000000F5A0
(1489158552.389178) can0 216#CE4EA33E00000000
(1489158552.389179) can0 217#14AC14B414A014A8
(1489158552.389179) can0 415#182EF8A808000800
(1489158552.389180) can0 41D#8000600000000000
(1489158552.390177) can0 4B0#01008000A00000F5
(1489158552.390178) can0 3A8#0100271000000000
(1489158552.391204) can0 167#72802410001A3300
(1489158552.391205) can0 202#04B220006000182E
(1489158552.391205) can0 204#C08D7D0338000000
(1489158552.392207) can0 091#7E8C7EFBDB9BF000
(1489158552.392208) can0 092#6FAA6FB77372579B
(1489158552.392209) can0 42F#7D04002E661F0337
(1489158552.392209) can0 42C#8C6000000B000000
(1489158552.394883) can0 188#4000000000000000
(1489158552.395892) can0 085#7C6C800034007C67
(1489158552.396915) can0 3CA#8384087200000000
(1489158552.396916) can0 186#13EC012C01F70400
(1489158552.396917) can0 187#DF1408C800400300
(1489158552.397902) can0 18A#0020180213000000
(1489158552.397903) can0 217#14AC14B414A014A8
(1489158552.400044) can0 047#2000000000000000
(1489158552.401066) can0 165#50C0000000000000
(1489158552.401067) can0 167#72802310001A3300
(1489158552.401068) can0 200#00007FED80280000
(1489158552.401069) can0 202#04B128006000182E
(1489158552.402070) can0 091#7E987EFBCE9CF000
(1489158552.402071) can0 092#6FAA6FB7736B5D9C
(1489158552.402071) can0 204#C08D7D0337000000
(1489158552.402072) can0 230#5006000092000000
(1489158552.403069) can0 242#037A2077D9000001
(1489158552.404095) can0 083#0020000000000000
(1489158552.404096) can0 2A1#FFFFFFFF00000000
(1489158552.405130) can0 082#7D08140097804000
(1489158552.406152) can0 085#7C6D800031107C68
(1489158552.407151) can0 078#0168800000000000
(1489158552.407152) can0 350#0000000000000000
(1489158552.407153) can0 076#3E83C0800FFF0000
(1489158552.408180) can0 077#182108017FF7FE03
(1489158552.408181) can0 07D#0000F4B0001FF7E1
(1489158552.408182) can0 213#FFFF00040001FD40
(1489158552.408182) can0 214#000000000000F4B0
(1489158552.409177) can0 216#E463B85300000000
(1489158552.409177) can0 217#14AC14B014A414AC
(1489158552.409178) can0 3E0#0000000080000000
(1489158552.409179) can0 415#182AFCAB08000800
(1489158552.410202) can0 41D#8000600000000000
(1489158552.410203) can0 4B0#01008000B00000F4
(1489158552.410203) can0 167#72802410001A3300
(1489158552.411201) can0 202#04B130006000182D
(1489158552.411202) can0 204#C08D7D0337000000
(1489158552.411203) can0 261#0000000000000000
(1489158552.411204) can0 3A8#0100271000000000
(1489158552.412207) can0 091#7EA47EFAC29DF000
(1489158552.412208) can0 092#6FAB6FB6736B5C9D
(1489158552.415152) can0 085#7C6D800030207C68
(1489158552.416154) can0 3CC#B000000000000000
(1489158552.417178) can0 186#13EB012C01F70400
(1489158552.417179) can0 187#DE1408C800500300
(1489158552.417180) can0 217#14B014B014A414AC
(1489158552.420049) can0 047#2000000000000000
(1489158552.421040) can0 165#50C0000000000000
(1489158552.421041) can0 167#72802410001A3300
(1489158552.421041) can0 200#00007FED80280000
(1489158552.422066) can0 091#7EB67EFAAF9EF000
(1489158552.422067) can0 092#6FAA6FB67367609E
(1489158552.422067) can0 202#04B038006000182D
(1489158552.422068) can0 204#C08D7D0337000000
(1489158552.423066) can0 230#5006000092000000
(1489158552.423067) can0 42F#7D04002E661F0338
(1489158552.424095) can0 33B#0000000000000000
(1489158552.425092) can0 05D#8355A75F37000000
(1489158552.426130) can0 082#7E08140097804000
(1489158552.426131) can0 085#7C6D80002F307C68
(1489158552.427130) can0 078#0168800000000000
(1489158552.427131) can0 3CA#8384087200000000
(1489158552.427132) can0 422#000000923802FE02
(1489158552.427133) can0 423#A3A0000000000000
(1489158552.428133) can0 076#3E83C0800FFF0000
(1489158552.428134) can0 077#182108017FF7FE03
(1489158552.428135) can0 07D#0000F3C0001FD7E8
(1489158552.428136) can0 213#FFFF00040001FD40
(1489158552.429152) can0 214#000000000000F3C0
(1489158552.429153) can0 216#F977CC6800000000
(1489158552.429153) can0 217#14B014B014A814A4
(1489158552.429154) can0 415#1829C0BB08000800
(1489158552.430180) can0 41D#8000600000000000
(1489158552.430181) can0 430#3700112BC8927700
(1489158552.430181) can0 431#057B004A09800002
(1489158552.430183) can0 4B0#01008000C00000F3
(1489158552.430183) can0 167#72802410001A3300
(1489158552.431202) can0 202#04B040006000182C
(1489158552.431203) can0 204#C08D7D0337000000
(1489158552.431203) can0 3A8#0100271300000000
(1489158552.431204) can0 091#7EC57EF9A09FF000
(1489158552.432206) can0 092#6FA76FB5735F6B9F
(1489158552.435155) can0 085#7C6D80002F407C67
(1489158552.436250) can0 186#13ED012C01F70400
(1489158552.437248) can0 187#DE1408C800500300
(1489158552.437249) can0 217#14B014B414AC14A8
(1489158552.440060) can0 047#2000000000000000
(1489158552.441057) can0 05C#009000F3201E0000
(1489158552.441058) can0 165#50C0000000000000
(1489158552.441059) can0 167#72802310001A3300
(1489158552.441060) can0 200#00007FED80280000
(1489158552.442057) can0 202#04B048006000182B
(1489158552.442058) can0 091#7EC87EF79EA0F000
(1489158552.442058) can0 092#6FA26FB3735C74A0
(1489158552.442059) can0 204#C08D7D0336000000
(1489158552.443083) can0 230#5006000092000000
(1489158552.443084) can0 242#037A2078D9000001
(1489158552.443085) can0 3B3#4048001210050002
(1489158552.443086) can0 40A#C00000091B11BE00
(1489158552.444058) can0 42C#8C6000000B000000
(1489158552.445122) can0 082#7D08140097804000
(1489158552.446143) can0 085#7C6D80002E507C67
(1489158552.446144) can0 3CC#B000000000000000
(1489158552.447147) can0 078#0068000000000000
(1489158552.447148) can0 076#3E83C0800FFF0000
(1489158552.448171) can0 077#182108017FF7FA02
(1489158552.448173) can0 07D#0000F2D0001FA7F2
(1489158552.448173) can0 213#FFFF00040001FD40
(1489158552.448174) can0 214#000000000000F2D0
(1489158552.449168) can0 216#0F8DE27E00000000
(1489158552.449169) can0 217#14B014B414AC14A4
(1489158552.449170) can0 415#182DC4B608000800
(1489158552.449171) can0 416#5D00F10001000000
(1489158552.450193) can0 41D#8000600000000000
(1489158552.450194) can0 4B0#01008000D00000F2
(1489158552.450195) can0 167#72802310001A3300
(1489158552.451193) can0 202#04B050006000182A
(1489158552.451194) can0 204#C08D7D0336000000
(1489158552.451195) can0 3A8#0100271300000000
(1489158552.452201) can0 091#7EB97EF4AFA1F000
(1489158552.452203) can0 092#6F9C6FB1735F78A1
(1489158552.452203) can0 42F#7D04002E661F0337
(1489158552.455122) can0 085#7C6D80002D607C67
(1489158552.456147) can0 186#13EF012C01F70400
(1489158552.457169) can0 187#DE1408C800500300
(1489158552.457170) can0 3CA#8384087200000000
(1489158552.457171) can0 217#14B014B014B014A0
(1489158552.458169) can0 455#A000000000000000
(1489158552.459195) can0 05A#00000045F3110000
(1489158552.460197) can0 047#2000000000000000
(1489158552.461219) can0 165#50C0000000000000
(1489158552.461220) can0 167#72802310001A3300
(1489158552.461221) can0 091#7EA17EF4C6A2F000
(1489158552.462236) can0 092#6F9A6FAE736477A2
(1489158552.462237) can0 178#000001FF0E83CE89
(1489158552.462237) can0 200#00007FED80280000
(1489158552.462238) can0 202#04AE58006000182B
(1489158552.463248) can0 204#C08D7D0336000000
(1489158552.463249) can0 230#5006000092000000
(1489158552.463249) can0 261#0000000000000000
(1489158552.465125) can0 082#7C08140097804000
(1489158552.466143) can0 085#7C6D80002C707C67
(1489158552.467170) can0 078#0569800000000000
(1489158552.467171) can0 076#3E83C0800FFF0000
(1489158552.468173) can0 077#182107FF7FF7F201
(1489158552.468174) can0 07D#0000F1E0001FA7EF
(1489158552.468174) can0 213#FFFF00040001FD40
(1489158552.468175) can0 214#000000000000F1E0
(1489158552.469198) can0 216#24A2F79300000000
(1489158552.469199) can0 217#14B014B014AC14A0
(1489158552.469200) can0 415#182BC8B708010801
(1489158552.469201) can0 41D#8000600000000000
(1489158552.470193) can0 4B0#01008000E00000F1
(1489158552.470194) can0 167#72802410001A3300
(1489158552.471193) can0 202#04AD60006000182B
(1489158552.471194) can0 204#C08D7D0336000000
(1489158552.471195) can0 3A8#0100271300000000
(1489158552.471196) can0 04A#0200000000000000
(1489158552.472222) can0 04B#00C0D8D8D8D8C000
(1489158552.472223) can0 04C#105FFFC000000000
(1489158552.472224) can0 091#7E8B7EF6D9A3F000
(1489158552.472225) can0 092#6FA16FAA73686FA3
(1489158552.475121) can0 085#7C6D80002B807C67
(1489158552.476146) can0 3CC#B000000000000000
(1489158552.476147) can0 186#13EF012C01F70400
(1489158552.477143) can0 187#DE1408C800500300
(1489158552.477144) can0 217#14B014B014A814A4
(1489158552.480034) can0 047#2000000000000000
(1489158552.481032) can0 165#50C0000000000000
(1489158552.481033) can0 167#72802410001A3300
(1489158552.481033) can0 200#00007FED80280000
(1489158552.482031) can0 091#7E7B7EF9E5A4F000
(1489158552.482032) can0 092#6FAB6FA7736867A4
(1489158552.482033) can0 202#04AD68006000182A
(1489158552.482034) can0 204#C08D7D0336000000
(1489158552.483057) can0 230#5006000092000000
(1489158552.483058) can0 242#037A207AD9000001
(1489158552.483059) can0 42F#7D04002E661F0336
(1489158552.484060) can0 33B#0000000000000000
(1489158552.485122) can0 082#7C08140097804000
(1489158552.486147) can0 085#7C6D80002A907C67
(1489158552.487143) can0 078#0168800000000000
(1489158552.487144) can0 3CA#8384087200000000
(1489158552.487145) can0 076#3E83C0800FFF0000
(1489158552.488172) can0 077#182008007FF7F1FF
(1489158552.488173) can0 07D#0000F0F0001FC7E0
(1489158552.488174) can0 213#FFFF00040001FD40
(1489158552.488175) can0 214#000000000000F0F0
(1489158552.489169) can0 216#38B80DA900000000
(1489158552.489170) can0 217#14B014B014A014A0
(1489158552.489170) can0 415#182ECCB308010801
(1489158552.489171) can0 41D#8000600000000000
(1489158552.490169) can0 4B0#01008000F00000F0
(1489158552.490170) can0 3A8#0100271300000000
(1489158552.491198) can0 167#72802310001A3300
(1489158552.491199) can0 265#2001010410000000
(1489158552.491204) can0 202#04AB70006000182B
(1489158552.491204) can0 204#C08D7D0336000000
(1489158552.492196) can0 091#7E6C7EFCF0A5F000
(1489158552.492197) can0 092#6FAC6FAC736761A5
(1489158552.492198) can0 453#3257364570646166
(1489158552.492199) can0 42C#8C6000000B000000
(1489158552.495143) can0 085#7C6D800029A07C67
(1489158552.496146) can0 186#13ED012C01F70400
(1489158552.496147) can0 187#DE1408C800500300
(1489158552.497175) can0 18A#0020180213000000
(1489158552.497176) can0 3E5#0000000080000000
(1489158552.497177) can0 217#14AC14B4149C14A4
(1489158552.500000) can0 047#2000000000000000
(1489158552.500997) can0 165#50C0000000000000
(1489158552.500998) can0 167#72802310001A3300
(1489158552.500998) can0 200#00007FED80280000
(1489158552.500999) can0 202#04AA78006000182B
(1489158552.502035) can0 091#7E5C7EFFFCA6F000
(1489158552.502036) can0 092#6FA56FB373685FA6
(1489158552.502036) can0 204#C08D7D0336000000
(1489158552.502037) can0 230#5006000092000000
(1489158552.503703) can0 083#0020000000000000
(1489158552.504736) can0 2A1#FFFFFFFF00000000
(1489158552.505736) can0 082#7C08140097804000
(1489158552.505737) can0 085#7C6E800027B07C67
(1489158552.505738) can0 3CC#B000000000000000
(1489158552.506894) can0 078#0068000000000000
(1489158552.507922) can0 076#3E83C0800FFF0000
(1489158552.507923) can0 077#181E08027FF7FE00
(1489158552.507924) can0 07D#0000FF00001FC7D7
(1489158552.507924) can0 213#FFFF00040001FD40
(1489158552.508927) can0 214#000000000000FF00
(1489158552.508928) can0 216#4ECD22BD00000000
(1489158552.508929) can0 217#14A814B4149C14AC
(1489158552.508929) can0 415#1829D0B708010801
(1489158552.509929) can0 41D#8000600000000000
(1489158552.509930) can0 4B0#01008000000000FF
(1489158552.510945) can0 167#72802310001A3300
(1489158552.510946) can0 202#04B900006000182B
(1489158552.510947) can0 204#C08D7D0336000000
(1489158552.511949) can0 261#0000000000000000
(1489158552.511950) can0 091#7E467F000FA7F000
(1489158552.511951) can0 092#6FA06FB9736A5BA7
(1489158552.511952) can0 3A8#0100271300000000
(1489158552.512967) can0 42F#7D04002E661F0336
(1489158552.513989) can0 5B3#B300FFFFFFFFFFFF
(1489158552.515122) can0 085#7C6E800026C07C67
(1489158552.516146) can0 186#13EE012C01F70400
(1489158552.516148) can0 187#DD1408C800600300
(1489158552.517143) can0 3CA#8384187A00000000
(1489158552.517144) can0 217#14A814B4149C14AC
(1489158552.520038) can0 047#2000000000000000
(1489158552.521031) can0 165#50C0000000000000
(1489158552.521032) can0 167#72802410001A3300
(1489158552.521033) can0 200#00007FED80280000
(1489158552.521034) can0 202#04B908006000182A
(1489158552.522032) can0 091#7E2D7EFF29A8F000
(1489158552.522033) can0 092#6FA56FBC736D4FA8
(1489158552.522033) can0 204#C08D7D0336000000
(1489158552.522034) can0 230#5006000092000000
(1489158552.523057) can0 242#037A2079D9000001
(1489158552.524547) can0 05D#83558F5844000000
(1489158552.525549) can0 082#7D08140097804000
(1489158552.525550) can0 085#7C6E800025D07C67
(1489158552.526558) can0 078#0168800000000000
(1489158552.527571) can0 422#000000923802FE02
(1489158552.527572) can0 423#A3A0000000000000
(1489158552.527572) can0 076#3E84C0800FFF0000
(1489158552.527573) can0 077#181E08037FF7F204
(1489158552.528614) can0 07D#0000FE10001FD7CB
(1489158552.528615) can0 213#FFFF00040001FD40
(1489158552.528616) can0 214#000000000000FE10
(1489158552.528617) can0 216#63E336D200000000
(1489158552.528622) can0 217#14AC14B0149C14AC
(1489158552.529610) can0 415#1829D4B608010801
(1489158552.529611) can0 41D#8000600000000000
(1489158552.529612) can0 430#3700112BC8927700
(1489158552.529613) can0 4B0#01008000100000FE
(1489158552.530614) can0 3A8#0100271300000000
(1489158552.530616) can0 167#72802410001A3300
(1489158552.530617) can0 202#04B810006000182A
(1489158552.531622) can0 204#C08D7D0336000000
(1489158552.531623) can0 091#7E197EFE3DA9F000
(1489158552.531624) can0 092#6FB06FBA737141A9
(1489158552.535121) can0 085#7C6E800024E07C67
(1489158552.536151) can0 186#13EF012C01F70400
(1489158552.536153) can0 187#DD1408C800600300
(1489158552.536153) can0 3CC#B000000000000000
(1489158552.537143) can0 217#14AC14AC14A014AC
(1489158552.540000) can0 047#2000000000000000
(1489158552.541005) can0 05C#003000F9201E0000
(1489158552.541006) can0 165#50C0000000000000
(1489158552.541007) can0 167#72802410001A3300
(1489158552.542032) can0 091#7E197EFE3CAAF000
(1489158552.542033) can0 092#6FB76FB673703EAA
(1489158552.542033) can0 200#00007FED80280000
(1489158552.542034) can0 202#04B8180060001829
(1489158552.543057) can0 204#C08D7D0336000000
(1489158552.543058) can0 230#5006000092000000
(1489158552.543059) can0 42C#8C6000000B000000
(1489158552.543059) can0 42F#7D04002E661F0336
(1489158552.544087) can0 33B#0000000000000000
(1489158552.545075) can0 082#7D08140097804000
(1489158552.546073) can0 085#7C6E800023F07C67
(1489158552.547146) can0 078#0168800000000000
(1489158552.547147) can0 3CA#8384187A00000000
(1489158552.547148) can0 076#3E84C0800FFF0000
(1489158552.548146) can0 077#181F08027FF80204
(1489158552.548148) can0 07D#0000FD20001FF7BD
(1489158552.548148) can0 213#FFFF00040001FE40
(1489158552.548149) can0 214#000000000000FD20
(1489158552.549169) can0 216#79F74CE800000000
(1489158552.549170) can0 217#14B014B014A014A8
(1489158552.549170) can0 415#1826D8B808020802
(1489158552.549171) can0 416#5E00F00001000000
(1489158552.550169) can0 41D#8000600000000000
(1489158552.550170) can0 4B0#01008000200000FD
(1489158552.550171) can0 167#72802410001A3300
(1489158552.551195) can0 202#04B7200060001829
(1489158552.551196) can0 204#C08D7D0336000000
(1489158552.551197) can0 3A8#0100271300000000
(1489158552.551198) can0 091#7E2E7F0122ABF000
(1489158552.552202) can0 092#6FB66FB473664AAB
(1489158552.555121) can0 085#7C6E800033007C66
(1489158552.556146) can0 186#13F0012C01F70400
(1489158552.556148) can0 187#DD1408C800600300
(1489158552.557168) can0 217#14AC14B414A414A4
(1489158552.558168) can0 455#A000000000000000
(1489158552.559168) can0 05A#00000045E9B10000
(1489158552.560196) can0 047#2000000000000000
(1489158552.561218) can0 165#50C0000000000000
(1489158552.561219) can0 167#72802310001A3300
(1489158552.561220) can0 091#7E467F0406ACF000
(1489158552.562218) can0 092#6FAD6FB5736255AC
(1489158552.562219) can0 178#000001FF0E83CE89
(1489158552.563247) can0 200#00007FED80280000
(1489158552.563248) can0 202#04B7280060001828
(1489158552.563249) can0 204#C08D7D0336000000
(1489158552.563250) can0 230#5006000092000000
(1489158552.564251) can0 242#037A207AD9000001
(1489158552.564252) can0 261#0000000000000000
(1489158552.565273) can0 082#7E08140096804000
(1489158552.566273) can0 085#7C6E800032107C66
(1489158552.566274) can0 3CC#B000000000000000
(1489158552.567299) can0 078#0469000000000000
(1489158552.567300) can0 076#3E84C0800FFF0000
(1489158552.568329) can0 077#181E08037FF80602
(1489158552.568330) can0 07D#0000FC30001FC7C4
(1489158552.568331) can0 213#FFFF00040001FE40
(1489158552.568331) can0 214#000000000000FC30
(1489158552.568332) can0 216#8E0C61FD00000000
(1489158552.569329) can0 217#14AC14B414A814A0
(1489158552.569330) can0 415#182CDCB108020802
(1489158552.569330) can0 41D#8000600000000000
(1489158552.569331) can0 4B0#01008000300000FC
(1489158552.570361) can0 167#72802310001A3300
(1489158552.571360) can0 202#04B6300060001828
(1489158552.571361) can0 04A#0200000000000000
(1489158552.571362) can0 04B#00C0D8D8D8D8C000
(1489158552.571363) can0 04C#105FFFC000000000
(1489158552.572364) can0 091#7E4B7F05FFADF000
(1489158552.572365) can0 092#6FA56FB6736B52AD
(1489158552.572366) can0 204#C08D7D0334000000
(1489158552.572366) can0 3A8#0100271300000000
(1489158552.573378) can0 42F#7D04002E661F0336
(1489158552.574669) can0 3A7#0E401A045F700000
(1489158552.575673) can0 186#13F0012C01F70400
(1489158552.575674) can0 085#7C6E800031207C66
(1489158552.575675) can0 187#DD1408C800600300
(1489158552.576674) can0 3CA#8384187D00000000
(1489158552.577700) can0 217#14AC14B014AC14A0
(1489158552.580000) can0 047#2000000000000000
(1489158552.580996) can0 165#50C0000000000000
(1489158552.580997) can0 167#72802410001A3300
(1489158552.580998) can0 200#00007FED80280000
(1489158552.580999) can0 202#04B4380060001829
(1489158552.582031) can0 091#7E437F0407AEF000
(1489158552.582032) can0 092#6FA56FB573724BAE
(1489158552.582033) can0 204#C08D7D0334000000
(1489158552.582034) can0 230#5006000092000000
(1489158552.583032) can0 3A6#0E401A045F700000
(1489158552.585125) can0 082#7C08140097804000
(1489158552.586147) can0 085#7C6E800030307C66
(1489158552.586148) can0 078#0168800000000000
(1489158552.587143) can0 076#3E82C0800FFF0000
(1489158552.588173) can0 077#181E08047FF7FA03
(1489158552.588174) can0 07D#0000FB40001FD7CD
(1489158552.588175) can0 213#FFFF00040001FE40
(1489158552.588176) can0 214#000000000000FB40
(1489158552.589169) can0 216#A422771300000000
(1489158552.589170) can0 217#14B014B014A814A0
(1489158552.589171) can0 415#182BE0B108020802
(1489158552.589172) can0 41D#8000600000000000
(1489158552.590194) can0 4B0#01008000400000FB
(1489158552.590195) can0 167#72802310001A3300
(1489158552.591195) can0 202#04B3400060001829
(1489158552.591196) can0 204#C08D7D0334000000
(1489158552.591197) can0 3A8#0100271300000000
(1489158552.591198) can0 091#7E447F0405AFF000
(1489158552.592240) can0 092#6FA96FB3736C4EAF
(1489158552.593236) can0 42C#8C6000000B000000
(1489158552.594893) can0 186#13F1012C01F70400
(1489158552.595903) can0 187#DD1408C800600300
(1489158552.595904) can0 085#7C6F80002D407C67
(1489158552.595905) can0 18A#0020180213000000
(1489158552.595906) can0 3CC#B000000000000000
(1489158552.596923) can0 217#14B014B414A414A4
(1489158552.600364) can0 047#2000000000000000
(1489158552.601373) can0 165#50C0000000000000
(1489158552.601374) can0 167#72802310001A3300
(1489158552.601375) can0 091#7E567F05F1B0F000
(1489158552.602376) can0 092#6FAB6FB2736157B0
(1489158552.602377) can0 200#00007FED80280000
(1489158552.602378) can0 202#04B2480060001829
(1489158552.602379) can0 204#C08D7D0334000000
(1489158552.603404) can0 230#5006000092000000
(1489158552.603405) can0 242#037A207AD9000001
(1489158552.603405) can0 42F#7D04002E661F0334
(1489158552.604404) can0 083#0020000000000000
(1489158552.604409) can0 2A1#FFFFFFFF00000000
(1489158552.604410) can0 33B#0000000000000000
(1489158552.605400) can0 082#7B08140097804000
(1489158552.605401) can0 085#7C6F80002C507C67
(1489158552.606423) can0 3CA#8384187D00000000
(1489158552.607429) can0 078#0168800000000000
(1489158552.607430) can0 076#3E82C0800FFF0000
(1489158552.608459) can0 077#181E08047FF7FE02
(1489158552.608460) can0 07D#0000FA50001FD7CA
(1489158552.608461) can0 213#FFFF00040001FE40
(1489158552.608461) can0 214#000000000000FA50
(1489158552.609455) can0 216#B9378C2700000000
(1489158552.609456) can0 217#14B014B014A014A4
(1489158552.609457) can0 415#182CE4AF08020802
(1489158552.609458) can0 41D#8000600000000000
(1489158552.610455) can0 4B0#01008000500000FA
(1489158552.610456) can0 3A8#0100271100000000
(1489158552.610457) can0 167#72802310001A3300
(1489158552.611497) can0 202#04B1500060001829
(1489158552.611498) can0 204#C08D7D0334000000
(1489158552.611499) can0 261#0000000000000000
(1489158552.611500) can0 091#7E6E7F08D5B1F000
(1489158552.611500) can0 092#6FA76FB5735C5CB1
(1489158552.614739) can0 186#13F1012C01F70400
(1489158552.615737) can0 187#DC1408C800700300
(1489158552.615738) can0 085#7C6F80002B607C67
(1489158552.617057) can0 217#14AC14B4149C14A4
(1489158552.620007) can0 047#2000000000000000
(1489158552.621032) can0 165#50C0000000000000
(1489158552.621033) can0 167#72802410001A3300
(1489158552.621034) can0 200#00007FED80280000
(1489158552.621034) can0 202#04B0580060001829
(1489158552.622032) can0 091#7E7F7F09C2B2F000
(1489158552.622033) can0 092#6FA36FB7736059B2
(1489158552.622034) can0 204#C08D7D0335000000
(1489158552.622035) can0 230#5006000092000000
(1489158552.624552) can0 05D#8356B75F32000000
(1489158552.625574) can0 082#7C08140097804000
(1489158552.625575) can0 085#7C70800029707C67
(1489158552.626574) can0 3CC#B000000000000000
(1489158552.626575) can0 078#0068000000000000
(1489158552.626576) can0 422#000000923802FE02
(1489158552.627611) can0 423#A3A0000000000000
(1489158552.627612) can0 430#3700112BC8927700
(1489158552.627613) can0 076#3E83C0800FFF0000
(1489158552.627614) can0 077#181D08057FF7FA02
(1489158552.628611) can0 07D#0000F960001F97D8
(1489158552.628611) can0 213#FFFF00040001FD40
(1489158552.628612) can0 214#000000000000F960
(1489158552.628613) can0 216#CD4DA23C00000000
(1489158552.629622) can0 217#14AC14B0149814A4
(1489158552.629623) can0 415#182AE8B008020802
(1489158552.629624) can0 41D#8000600000000000
(1489158552.629625) can0 4B0#01008000600000F9
(1489158552.630626) can0 167#72802410001A3300
(1489158552.631648) can0 202#04AF600060001829
(1489158552.631649) can0 204#C08D7D0335000000
(1489158552.631650) can0 091#7E867F08BBB3F000
(1489158552.631650) can0 092#6FA56FB8737045B3
(1489158552.631651) can0 3A8#0100271100000000
(1489158552.632648) can0 42F#7D04002E661F0334
(1489158552.634517) can0 186#13F1012C01F70400
(1489158552.635530) can0 187#DC1408C800700300
(1489158552.635531) can0 085#7C71800026807C68
(1489158552.636568) can0 3CA#8384187D00000000
(1489158552.637568) can0 217#14A814B0149814A8
(1489158552.640026) can0 047#2000000000000000
(1489158552.641058) can0 05C#00D000EF201E0000
(1489158552.641059) can0 165#50C0000000000000
(1489158552.641060) can0 167#72802410001A3300
(1489158552.641061) can0 200#00007FED80280000
(1489158552.642057) can0 091#7E8B7F08B5B4F000
(1489158552.642058) can0 092#6FA76FB7737D36B4
(1489158552.642059) can0 202#04AE680060001829
(1489158552.642063) can0 204#C08D7D0335000000
(1489158552.643084) can0 230#5006000092000000
(1489158552.643085) can0 242#037A2077D9000001
(1489158552.643085) can0 40A#C100334641365030
(1489158552.643086) can0 42C#8C6000000B000000
(1489158552.645125) can0 082#7D08140097804000
(1489158552.646143) can0 085#7C71800025907C68
(1489158552.647146) can0 078#0168800000000000
(1489158552.647147) can0 076#3E84C0800FFF0000
(1489158552.648171) can0 077#181C08057FF7FA04
(1489158552.648173) can0 07D#0000F870001FE7DF
(1489158552.648173) can0 213#FFFF00040001FE40
(1489158552.648174) can0 214#000000000000F870
(1489158552.649168) can0 216#E362B65200000000
(1489158552.649169) can0 217#14A814B014A014A8
(1489158552.649170) can0 415#1826ECB308020802
(1489158552.649171) can0 416#5F00EF0001000000
(1489158552.650170) can0 41D#8000600000000000
(1489158552.650171) can0 4B0#01008000700000F8
(1489158552.650171) can0 167#72802410001A3300
(1489158552.651194) can0 202#04AE700060001828
(1489158552.651195) can0 204#C08D7D0335000000
(1489158552.651196) can0 3A8#0100271300000000
(1489158552.652153) can0 091#7E8A7F0AB3B5F000
(1489158552.652155) can0 092#6FA96FB673723FB5
(1489158552.654361) can0 186#13F5012C01F70400
(1489158552.655358) can0 187#DC1408C800700300
(1489158552.655359) can0 085#7C71800025A07C67
(1489158552.655360) can0 3CC#B000000000000000
(1489158552.656907) can0 217#14A814B014A414A4
(1489158552.657920) can0 455#A000000000000000
(1489158552.659124) can0 05A#00000045EF510000
(1489158552.660190) can0 047#2000000000000000
(1489158552.661217) can0 165#50C0000000000000
(1489158552.661218) can0 167#72802410001A3300
(1489158552.662247) can0 091#7E7E7F09BFB6F000
(1489158552.662248) can0 092#6FA26FB4735B5EB6
(1489158552.662249) can0 178#000001FF0E83CE89
(1489158552.663247) can0 200#00007FED80280000
(1489158552.663249) can0 202#04AD780060001828
(1489158552.663249) can0 204#C08D7D0335000000
(1489158552.664277) can0 230#5006000092000000
(1489158552.664278) can0 261#0000000000000000
(1489158552.664279) can0 33B#0000000000000000
(1489158552.665273) can0 42F#7D04002E661F0335
(1489158552.665274) can0 082#7D08140097804000
(1489158552.666302) can0 085#7C71800024B07C67
(1489158552.667298) can0 3CA#8384187D00000000
(1489158552.667299) can0 078#0569800000000000
(1489158552.667300) can0 076#3E85C0800FFF0000
(1489158552.668327) can0 077#181C08067FF7FE03
(1489158552.668329) can0 07D#0000F780001FF7E0
(1489158552.668329) can0 213#FFFF00040001FE40
(1489158552.668330) can0 214#000000000000F780
(1489158552.668331) can0 216#F876CB6700000000
(1489158552.669326) can0 217#14AC14B414A414A0
(1489158552.669327) can0 415#1825F0B308020802
(1489158552.669329) can0 41D#8000600000000000
(1489158552.669330) can0 4B0#01008000800000F7
(1489158552.670361) can0 167#72802410001A3300
(1489158552.670361) can0 202#04BD000060001827
(1489158552.671374) can0 204#C08D7D0335000000
(1489158552.671375) can0 04A#0200000000000000
(1489158552.671376) can0 04B#00C0D8D8D8D8C000
(1489158552.671377) can0 04C#105FFFC000000000
(1489158552.672380) can0 091#7E647F08D9B7F000
(1489158552.672381) can0 092#6F9C6FB1735170B7
(1489158552.672383) can0 3A8#0100271300000000
(1489158552.674247) can0 186#13F5012C01F70400
(1489158552.675247) can0 187#DC1408C800700300
(1489158552.675248) can0 085#7C71800023C07C67
(1489158552.677060) can0 217#14AC14B014A814A0
(1489158552.680045) can0 047#2000000000000000
(1489158552.681055) can0 165#50C0000000000000
(1489158552.681056) can0 167#72802410001A3300
(1489158552.681056) can0 200#00007FED80280000
(1489158552.682093) can0 091#7E457F08F7B8F000
(1489158552.682095) can0 092#6F9D6FB073635DB8
(1489158552.682095) can0 202#04BD080060001826
(1489158552.682096) can0 204#C08D7D0336000000
(1489158552.682096) can0 230#5006000092000000
(1489158552.683131) can0 242#037A2079D9000001
(1489158552.685138) can0 082#7D08140097804000
(1489158552.685360) can0 085#7C71800022D07C67
(1489158552.686373) can0 3CC#B000000000000000
(1489158552.686374) can0 078#0068000000000000
(1489158552.687381) can0 076#3E85C0800FFF0000
(1489158552.687382) can0 077#181C08057FF7F201
(1489158552.688384) can0 07D#0000F690001F57D4
(1489158552.688385) can0 213#FFFF00040001FE40
(1489158552.688386) can0 214#000000000000F690
(1489158552.688387) can0 216#0E8CE17D00000000
(1489158552.689407) can0 217#14B014B014A8149C
(1489158552.689408) can0 415#182CF4AB08020802
(1489158552.689408) can0 41D#8000600000000000
(1489158552.689409) can0 4B0#01008000900000F6
(1489158552.690409) can0 167#72802410001A3300
(1489158552.691432) can0 202#04BB100060001827
(1489158552.691434) can0 204#C08D7D0336000000
(1489158552.691435) can0 3A8#0100271400000000
(1489158552.691435) can0 091#7E307F080BB9F000
(1489158552.692460) can0 092#6FA86FB0737F35B9
(1489158552.692461) can0 42F#7D04002E661F0335
(1489158552.692462) can0 42C#8C6000000B000000
(1489158552.694092) can0 186#13F7012C01F70400
(1489158552.695091) can0 187#DC1408C800700300
(1489158552.695092) can0 18A#0020180213000000
(1489158552.696133) can0 085#7C71800021E07C67
(1489158552.697135) can0 3CA#8384487E00000000
(1489158552.697136) can0 217#14AC14B014A4149C
(1489158552.700183) can0 047#2000000000000000
(1489158552.701207) can0 165#50C0000000000000
(1489158552.701208) can0 167#72802310001A3300
(1489158552.701208) can0 091#7E2D7F080DBAF000
(1489158552.701209) can0 200#00007FED80280000
(1489158552.702207) can0 092#6FB46FB173871FBA
(1489158552.702209) can0 202#04B9180060001828
(1489158552.702210) can0 204#C08D7D0335000000
(1489158552.702210) can0 230#5006000092000000
(1489158552.703814) can0 083#0020000000000000
(1489158552.704841) can0 2A1#FFFFFFFF00000000
(1489158552.705839) can0 082#7D08140097804000
(1489158552.705840) can0 085#7C71800020F07C67
(1489158552.706881) can0 078#0168800000000000
(1489158552.707884) can0 076#3E85C0800FFF0000
(1489158552.707885) can0 077#181B08057FF7FA01
(1489158552.707885) can0 07D#0000F5A0002037C4
(1489158552.707886) can0 213#FFFF00040001FE40
(1489158552.708885) can0 214#000000000000F5A0
(1489158552.708886) can0 216#23A1F69100000000
(1489158552.708887) can0 217#14AC14B014A414A0
(1489158552.708888) can0 415#1827F8AF08030803
(1489158552.709882) can0 41D#8000600000000000
(1489158552.709883) can0 4B0#01008000A00000F5
(1489158552.710908) can0 3A8#0100271400000000
(1489158552.710909) can0 167#72802310001A3300
(1489158552.710909) can0 202#04B8200060001828
(1489158552.710910) can0 204#C08D7D0334000000
(1489158552.711913) can0 261#0000000000000000
(1489158552.711914) can0 091#7E387F0AFFBBF000
(1489158552.711915) can0 092#6FB46FB373752EBB
(1489158552.713939) can0 186#13F8012C01F70400
(1489158552.714958) can0 187#DB1408C800800300
(1489158552.715957) can0 085#7C7180002F007C67
(1489158552.715958) can0 3CC#B000000000000000
(1489158552.717066) can0 217#14AC14B014A414A0
(1489158552.718066) can0 41E#0000000000000000
(1489158552.720012) can0 047#2000000000000000
(1489158552.721040) can0 165#50C0000000000000
(1489158552.721041) can0 167#72802310001A3300
(1489158552.721043) can0 200#00007FED80280000
(1489158552.722040) can0 091#7E3F7F0BF6BCF000
(1489158552.722041) can0 092#6FA96FB473604CBC
(1489158552.722041) can0 202#04B7280060001828
(1489158552.722042) can0 204#C08D7D0334000000
(1489158552.723065) can0 230#5006000092000000
(1489158552.723066) can0 42F#7D04002E661F0335
(1489158552.723067) can0 242#037A2078D9000001
(1489158552.724069) can0 33B#0000000000000000
(1489158552.725092) can0 05D#83559F5F39000000
(1489158552.726090) can0 082#7C08140097804000
(1489158552.726091) can0 085#7C7180002E107C67
(1489158552.727131) can0 078#0168800000000000
(1489158552.727132) can0 3CA#8384487E00000000
(1489158552.727132) can0 422#000000923802FE02
(1489158552.727133) can0 423#A3A0000000000000
(1489158552.728133) can0 076#3E85C0800FFF0000
(1489158552.728134) can0 077#181B08067FF80602
(1489158552.728135) can0 07D#0000F4B0002007C7
(1489158552.728136) can0 213#FFFF00040001FD40
(1489158552.729152) can0 214#000000000000F4B0
(1489158552.729154) can0 216#39B70CA600000000
(1489158552.729155) can0 217#14AC14B0149C149C
(1489158552.729156) can0 415#1829FCAC08030803
(1489158552.729156) can0 41D#8000600000000000
(1489158552.730155) can0 430#3700112BC8927700
(1489158552.730156) can0 4B0#01008000B00000F4
(1489158552.730157) can0 3A8#0100271400000000
(1489158552.731177) can0 167#72802310001A3300
(1489158552.731177) can0 202#04B7300060001827
(1489158552.731178) can0 204#C08D7D0334000000
(1489158552.731179) can0 091#7E387F09FEBDF000
(1489158552.732180) can0 092#6F9F6FB4735E57BD
(1489158552.733837) can0 186#13F6012C01F70400
(1489158552.734836) can0 187#DB1408C800800300
(1489158552.735874) can0 085#7C7180002D207C67
(1489158552.736909) can0 217#14A814B0149814A4
(1489158552.740010) can0 047#2000000000000000
(1489158552.741040) can0 05C#007000F5201E0000
(1489158552.741041) can0 165#50C0000000000000
(1489158552.741042) can0 167#72802310001A3300
(1489158552.741043) can0 200#00007FED80280000
(1489158552.742040) can0 091#7E2B7F050EBEF000
(1489158552.742041) can0 092#6FA06FB6736F42BE
(1489158552.742041) can0 202#04B6380060001827
(1489158552.742042) can0 204#C08D7D0334000000
(1489158552.743040) can0 230#5006000092000000
(1489158552.743041) can0 42C#8C6000000B000000
(1489158552.745134) can0 082#7B08140097804000
(1489158552.746130) can0 085#7C7180002C307C67
(1489158552.746132) can0 3CC#B000000000000000
(1489158552.747155) can0 078#0068000000000000
(1489158552.747156) can0 076#3E85C0800FFF0000
(1489158552.748180) can0 077#181A08067FF7F202
(1489158552.748181) can0 07D#0000F3C0001F97C7
(1489158552.748181) can0 213#FFFF00040001FD40
(1489158552.748182) can0 214#000000000000F3C0
(1489158552.749179) can0 216#4DCC20BC00000000
(1489158552.749180) can0 217#14A814B0149814A4
(1489158552.749180) can0 415#1826C0BE08030803
(1489158552.749181) can0 416#5000FE0001000000
(1489158552.750178) can0 41D#8000600000000000
(1489158552.750179) can0 4B0#01008000C00000F3
(1489158552.750179) can0 167#72802310001A3300
(1489158552.751204) can0 202#04B5400060001827
(1489158552.751205) can0 204#C08D7D0334000000
(1489158552.751205) can0 3A8#0100271400000000
(1489158552.752235) can0 091#7E2A7F040FBFF000
(1489158552.752236) can0 092#6FAE6FB773821FBF
(1489158552.752242) can0 42F#7D04002E661F0334
(1489158552.753619) can0 186#13F8012C01F70400
(1489158552.754619) can0 187#DB1408C800800300
(1489158552.755619) can0 085#7C7180002B407C67
(1489158552.756635) can0 3CA#8384C87E00000000
(1489158552.757661) can0 217#14A814AC149C14A8
(1489158552.758662) can0 455#A000000000000000
(1489158552.759683) can0 05A#00000045E5F10000
(1489158552.760683) can0 047#2000000000000000
(1489158552.761714) can0 165#50C0000000000000
(1489158552.761716) can0 167#72802310001A3300
(1489158552.761717) can0 091#7E347F0701C0F000
(1489158552.761717) can0 092#6FB96FB773880DC0
(1489158552.762709) can0 178#000001FF0E83CE89
(1489158552.762710) can0 200#00007FED80280000
(1489158552.762710) can0 202#04B5480060001826
(1489158552.763713) can0 204#C08D7D0334000000
(1489158552.763714) can0 230#5006000092000000
(1489158552.763715) can0 242#037A2074D9000001
(1489158552.763715) can0 261#0000000000000000
(1489158552.765131) can0 082#7D08140097804000
(1489158552.766130) can0 085#7C7180002A507C67
(1489158552.767151) can0 078#0569800000000000
(1489158552.767152) can0 076#3E85C0800FFF0000
(1489158552.768181) can0 077#181908047FF7FE03
(1489158552.768182) can0 07D#0000F2D0002037C2
(1489158552.768183) can0 213#FFFF00040001FE40
(1489158552.768183) can0 214#000000000000F2D0
(1489158552.769182) can0 216#62E035D100000000
(1489158552.769183) can0 217#14A814AC149C14A8
(1489158552.769184) can0 415#1824C4BF08030803
(1489158552.769185) can0 41D#8000600000000000
(1489158552.770204) can0 4B0#01008000D00000F2
(1489158552.770205) can0 167#72802310001A3300
(1489158552.771244) can0 202#04B4500060001826
(1489158552.771245) can0 204#C08D7D0334000000
(1489158552.771245) can0 3A8#0100271400000000
(1489158552.771246) can0 04A#0200000000000000
(1489158552.772247) can0 04B#00C0D8D8D8D8C000
(1489158552.772248) can0 04C#105FFFC000000000
(1489158552.772250) can0 091#7E407F0AF1C1F000
(1489158552.772251) can0 092#6FB66FB5738118C1
(1489158552.773527) can0 186#13F8012C01F70400
(1489158552.774532) can0 187#DB1408C800800300
(1489158552.775558) can0 3A7#0E401A045F700000
(1489158552.775558) can0 085#7C72800028607C67
(1489158552.775559) can0 3CC#B000000000000000
(1489158552.777060) can0 217#14A814B0149C14A4
(1489158552.780012) can0 047#2000000000000000
(1489158552.781009) can0 165#50C0000000000000
(1489158552.781011) can0 167#72802310001A3300
(1489158552.782034) can0 091#7E457F0CE9C2F000
(1489158552.782035) can0 092#6FA76FB3737633C2
(1489158552.782035) can0 200#00007FED80280000
(1489158552.782036) can0 202#04B4580060001825
(1489158552.783034) can0 204#C08D7D0334000000
(1489158552.783035) can0 3A6#0E401A045F700000
(1489158552.783035) can0 230#5006000092000000
(1489158552.783036) can0 42F#7D04002E661F0334
(1489158552.784064) can0 33B#0000000000000000
(1489158552.785126) can0 082#7D08140097804000
(1489158552.786149) can0 085#7C72800027707C67
(1489158552.786151) can0 078#0168800000000000
(1489158552.787146) can0 3CA#8384C87E00000000
(1489158552.787147) can0 076#3E85C0800FFF0000
(1489158552.788175) can0 077#181A08067FF80602
(1489158552.788176) can0 07D#0000F1E0002037C9
(1489158552.788176) can0 213#FFFF00040001FE40
(1489158552.788177) can0 214#000000000000F1E0
(1489158552.789172) can0 216#78F64BE500000000
(1489158552.789173) can0 217#14AC14B0149C14A0
(1489158552.789174) can0 415#1826C8BC08030803
(1489158552.789175) can0 41D#8000600000000000
(1489158552.790199) can0 4B0#01008000E00000F1
(1489158552.790200) can0 167#72802310001A3300
(1489158552.791196) can0 202#04B3600060001825
(1489158552.791197) can0 204#C08D7D0334000000
(1489158552.791198) can0 3A8#0100271400000000
(1489158552.791198) can0 091#7E427F0AEDC3F000
(1489158552.792242) can0 092#6F9B6FB2737243C3
(1489158552.793239) can0 42C#8C6000000B000000
(1489158552.794251) can0 186#13F9012C01F70400
(1489158552.794252) can0 187#DB1408C800800300
(1489158552.794252) can0 18A#0020180213000000
(1489158552.795250) can0 085#7C72800026807C67
(1489158552.796908) can0 217#14AC14B014A414A0
(1489158552.800037) can0 047#2000000000000000
(1489158552.801060) can0 165#50C0000000000000
(1489158552.801060) can0 167#72802310001A3300
(1489158552.801061) can0 200#00007FED80280000
(1489158552.801061) can0 202#04B2680060001825
(1489158552.802063) can0 091#7E3C7F08F4C4F000
(1489158552.802064) can0 092#6F986FB2737740C4
(1489158552.802065) can0 204#C08D7D0334000000
(1489158552.802066) can0 230#5006000092000000
(1489158552.803090) can0 454#3646200372204242
(1489158552.803091) can0 242#037A2077D9000001
(1489158552.804090) can0 083#0020000000000000
(1489158552.804091) can0 2A1#FFFFFFFF00000000
(1489158552.805126) can0 082#7C08140497804000
(1489158552.806125) can0 085#7C72800025907C67
(1489158552.806126) can0 3CC#B000000000000000
(1489158552.807146) can0 078#0068000000000000
(1489158552.807148) can0 076#3E86C0800FFF0000
(1489158552.808149) can0 077#181908067FF7EE02
(1489158552.808150) can0 07D#0000F0F0001FF7CA
(1489158552.808151) can0 213#FFFF00040001FE40
(1489158552.808151) can0 214#000000000000F0F0
(1489158552.809173) can0 216#8D0B60FB00000000
(1489158552.809173) can0 217#14A814B014A414A0
(1489158552.809174) can0 415#1828CCB908030803
(1489158552.809174) can0 41D#8000600000000000
(1489158552.810198) can0 4B0#01008000F00000F0
(1489158552.810199) can0 3A8#0100271400000000
(1489158552.811239) can0 167#72802310001A3300
(1489158552.811240) can0 202#04B1700060001825
(1489158552.811240) can0 204#C08D7D0333000000
(1489158552.812241) can0 091#7E407F08EFC5F000
(1489158552.812242) can0 092#6FA06FB2737E30C5
(1489158552.812243) can0 261#0000000000000000
(1489158552.812243) can0 42F#7D04002E661F0334
(1489158552.813221) can0 186#13F9012C01F70400
(1489158552.814251) can0 187#DA1408C800900300
(1489158552.815251) can0 085#7C72800024A07C67
(1489158552.816383) can0 3CA#8384C87E00000000
(1489158552.817379) can0 217#14AC14B014A8149C
(1489158552.820041) can0 047#2000000000000000
(1489158552.821059) can0 165#50C0000000000000
(1489158552.821060) can0 167#72802310001A3300
(1489158552.821061) can0 200#00007FED80280000
(1489158552.821061) can0 202#04B0780060001825
(1489158552.822060) can0 091#7E4A7F08E4C6F000
(1489158552.822061) can0 092#6FA86FB473792AC6
(1489158552.822062) can0 204#C08D7D0333000000
(1489158552.822062) can0 230#5006000092000000
(1489158552.824577) can0 05D#8356875F3E000000
(1489158552.825574) can0 082#7B08140497804000
(1489158552.825575) can0 085#7C73800022B07C67
(1489158552.826614) can0 078#0168800000000000
(1489158552.826615) can0 422#000000923802FE02
(1489158552.826615) can0 423#A3A0000000000000
(1489158552.827614) can0 430#3700112BC8927700
(1489158552.827615) can0 076#3E86C0800FFF0000
(1489158552.827617) can0 077#181908057FF7F202
(1489158552.827617) can0 07D#0000FF00002027C9
(1489158552.828632) can0 213#FFFF00040001FE40
(1489158552.828636) can0 214#000000000000FF00
(1489158552.828637) can0 216#A321741000000000
(1489158552.828637) can0 217#14AC14B014A8149C
(1489158552.829634) can0 415#1827D0B908030803
(1489158552.829635) can0 41D#8000600000000000
(1489158552.829636) can0 4B0#01008000000000FF
(1489158552.830657) can0 167#72802410001A3300
(1489158552.830659) can0 202#04BF000060001825
(1489158552.830660) can0 204#C08D7D0333000000
(1489158552.831658) can0 3A8#0100271600000000
(1489158552.831659) can0 091#7E547F09D8C7F000
(1489158552.831659) can0 092#6FA66FB6736939C7
(1489158552.832954) can0 186#13F7012C01F70400
(1489158552.833977) can0 187#DA1408C800900300
(1489158552.835131) can0 085#7C7480001FC07C68
(1489158552.836159) can0 3CC#B000000000000000
(1489158552.837152) can0 217#14AC14AC14A4149C
(1489158552.840068) can0 047#2000000000000000
(1489158552.841065) can0 05C#001000FB201E0000
(1489158552.841066) can0 165#50C0000000000000
(1489158552.841066) can0 167#72802410001A3300
(1489158552.842090) can0 091#7E567F0DD1C8F000
(1489158552.842091) can0 092#6FA06FB6736344C8
(1489158552.842092) can0 200#00007FED80280000
(1489158552.842092) can0 202#04BE080060001825
(1489158552.843090) can0 204#C08D7D0334000000
(1489158552.843091) can0 230#5006000092000000
(1489158552.843091) can0 242#037A2075D9000001
(1489158552.844134) can0 33B#0000000000000000
(1489158552.845130) can0 3EB#1C04140000100000
(1489158552.845131) can0 40A#C1014B3931485232
(1489158552.845132) can0 42C#8C6000000B000000
(1489158552.845133) can0 42F#7D04002E661F0333
(1489158552.846130) can0 082#7B08140097804000
(1489158552.846131) can0 085#7C7480001FD07C67
(1489158552.847135) can0 3CA#8385287C00000000
(1489158552.847136) can0 078#0168800000000000
(1489158552.847136) can0 076#3E87C0800FFF0000
(1489158552.848155) can0 077#181908067FF7FA03
(1489158552.848156) can0 07D#0000FE10001FC7CF
(1489158552.848157) can0 213#FFFF00040001FE40
(1489158552.848158) can0 214#000000000000FE10
(1489158552.849178) can0 216#B8368A2600000000
(1489158552.849179) can0 217#14AC14B01498149C
(1489158552.849179) can0 415#1829D4B608040804
(1489158552.849180) can0 416#5100FD0001000000
(1489158552.850177) can0 41D#8000600000000000
(1489158552.850178) can0 4B0#01008000100008FD
(1489158552.850179) can0 167#72802310001A3300
(1489158552.851177) can0 202#04BD100060001825
(1489158552.851179) can0 204#C08D7D0334000000
(1489158552.851180) can0 3A8#0100271600000000
(1489158552.851180) can0 091#7E5B7F0FC9C9F000
(1489158552.852212) can0 092#6FA06FB3737138C9
(1489158552.853207) can0 186#13F8012C01F70400
(1489158552.853209) can0 187#DA1408C800900300
(1489158552.855151) can0 085#7C7480001EE07C67
(1489158552.856915) can0 217#14A814B0149414A0
(1489158552.857928) can0 455#A000000000000000
(1489158552.859131) can0 05A#00000045EB910000
(1489158552.860182) can0 047#2000000000000000
(1489158552.861202) can0 165#50C0000000000000
(1489158552.861203) can0 167#72802310001A3200
(1489158552.862202) can0 091#7E657F11BCCAF000
(1489158552.862203) can0 092#6FA66FB1738222CA
(1489158552.862203) can0 178#000001FF0E83CE89
(1489158552.862204) can0 200#00007FED80280000
(1489158552.863227) can0 202#04BB180060001826
(1489158552.863227) can0 204#C08D7D0332000000
(1489158552.863228) can0 230#5006000092000000
(1489158552.864230) can0 261#0000000000000000
(1489158552.865256) can0 082#7D08140097804000
(1489158552.866256) can0 085#7C7480001DF07C67
(1489158552.866260) can0 3CC#B000000000000000
(1489158552.867282) can0 078#0469000000000000
(1489158552.867283) can0 076#3E87C0800FFF0000
(1489158552.868285) can0 077#181808087FF7F202
(1489158552.868286) can0 07D#0000FD20001FF7D2
(1489158552.868287) can0 213#FFFF00040001FE40
(1489158552.868287) can0 214#000000000000FD20
(1489158552.869311) can0 216#CC4C9F3B00000000
(1489158552.869312) can0 217#14A414B0149414A4
(1489158552.869313) can0 415#1826D8B808040804
(1489158552.869314) can0 41D#8000600000000000
(1489158552.869315) can0 4B0#01008000200000FD
(1489158552.870334) can0 167#72802310001A3200
(1489158552.871334) can0 202#04BB200060001825
(1489158552.871335) can0 04A#0200000000000000
(1489158552.871335) can0 04B#00C0D8D8D8D8C000
(1489158552.871336) can0 04C#105FFFC000000000
(1489158552.872373) can0 091#7E727F11AECBF000
(1489158552.872375) can0 092#6FAA6FB3738518CB
(1489158552.872376) can0 204#C08D7D0332000000
(1489158552.872377) can0 3A8#0100271600000000
(1489158552.873370) can0 42F#7D04002E661F0334
(1489158552.873371) can0 186#13F8012C01F70400
(1489158552.873371) can0 187#DA1408C800900300
(1489158552.875130) can0 085#7C7480002C007C67
(1489158552.876373) can0 3CA#8385287C00000000
(1489158552.877385) can0 456#8000000000000000
(1489158552.877386) can0 217#14A414AC149814A4
(1489158552.880071) can0 047#2000000000000000
(1489158552.881092) can0 165#50C0000000000000
(1489158552.881093) can0 167#72802310001A3300
(1489158552.881094) can0 200#00007FEE80280000
(1489158552.882131) can0 091#7E7D7F0FA4CCF000
(1489158552.882132) can0 092#6FA56FB5737926CC
(1489158552.882133) can0 202#04BA280060001825
(1489158552.882134) can0 204#C08D7D0333000000
(1489158552.882134) can0 230#5006000092000000
(1489158552.883131) can0 242#037A2077D9000001
(1489158552.885134) can0 082#7E08140097804000
(1489158552.886155) can0 085#7C7580002A107C67
(1489158552.886157) can0 078#0168800000000000
(1489158552.887178) can0 076#3E87C0800FFF0000
(1489158552.888181) can0 077#181808087FF7FE02
(1489158552.888182) can0 07D#0000FC30002047D9
(1489158552.888183) can0 213#FFFF00040001FE40
(1489158552.888183) can0 214#000000000000FC30
(1489158552.889203) can0 216#E260B54F00000000
(1489158552.889204) can0 217#14A414AC149814A4
(1489158552.889205) can0 415#1821DCBC08040804
(1489158552.889205) can0 41D#8000600000000000
(1489158552.890204) can0 4B0#01008000300008FB
(1489158552.890206) can0 167#72802410001A3300
(1489158552.891245) can0 202#04BA300060001824
(1489158552.891246) can0 204#C08D7D0333000000
(1489158552.891246) can0 3A8#0100271600000000
(1489158552.891247) can0 091#7E7D7F0DA5CDF000
(1489158552.892248) can0 092#6F9D6FB7736B39CD
(1489158552.892249) can0 42C#8C6000000B000000
(1489158552.893245) can0 186#13F9012C01F70400
(1489158552.893246) can0 187#DA1408C800900300
(1489158552.894257) can0 18A#0020180213000000
(1489158552.895256) can0 085#7C75800029207C67
(1489158552.896259) can0 3CC#B000000000000000
(1489158552.897285) can0 3D8#0000000080C4A830
(1489158552.897287) can0 3CD#0000000000000000
(1489158552.897287) can0 217#14A814AC149C14A4
(1489158552.900043) can0 047#2000000000000000
(1489158552.901066) can0 165#50C0000000000000
(1489158552.901067) can0 167#72802410001A3300
(1489158552.901067) can0 200#00007FED80280000
(1489158552.902070) can0 091#7E777F0EA9CEF000
(1489158552.902071) can0 092#6F9A6FB6736E39CE
(1489158552.902072) can0 202#04BA380060001823
(1489158552.902078) can0 204#C08D7D0332000000
(1489158552.903096) can0 230#5006000092000000
(1489158552.903097) can0 42F#7D04002E661F0333
(1489158552.904095) can0 083#0020000000000000
(1489158552.905131) can0 2A1#FFFFFFFF00000000
(1489158552.905132) can0 33B#0000000000000000
(1489158552.905132) can0 082#7D08140097804000
(1489158552.906130) can0 085#7C75800028307C67
(1489158552.907152) can0 3CA#8385287C00000000
(1489158552.907153) can0 078#0168800000000000
(1489158552.907154) can0 076#3E89C0800FFF0000
(1489158552.908181) can0 077#181708077FF7F203
(1489158552.908182) can0 07D#0000FB40001FD7DC
(1489158552.908183) can0 213#FFFF00040001FE40
(1489158552.908183) can0 214#000000000000FB40
(1489158552.909178) can0 216#F775CA6500000000
(1489158552.909179) can0 217#14A814AC14A014A0
(1489158552.909179) can0 415#1824E0B808040804
(1489158552.909180) can0 41D#8000600000000000
(1489158552.910202) can0 4B0#01008000400000FB
(1489158552.910204) can0 167#72802310001A3300
(1489158552.911205) can0 202#04B9400060001823
(1489158552.911206) can0 204#C08D7D0332000000
(1489158552.911206) can0 261#0000000000000000
(1489158552.911207) can0 3A8#0100271600000000
(1489158552.912247) can0 091#7E747F0FAACFF000
(1489158552.912248) can0 092#6FA06FB273851FCF
(1489158552.913244) can0 186#13FA012C01F70400
(1489158552.913245) can0 187#D91408C800A00300
(1489158552.915130) can0 085#7C75800027407C67
(1489158552.917069) can0 217#14A814AC14A4149C
(1489158552.920207) can0 047#2000000000000000
(1489158552.921245) can0 165#50C0000000000000
(1489158552.921246) can0 167#72802310001A3300
(1489158552.921246) can0 200#00007FEE80280000
(1489158552.921247) can0 091#7E757F10A7D0F000
(1489158552.922245) can0 092#6FA66FB073950AD0
(1489158552.922246) can0 202#04B8480060001823
(1489158552.922247) can0 204#C08D7D0331000000
(1489158552.922247) can0 230#5006000092000000
(1489158552.923256) can0 242#037A2079D9000001
(1489158552.924582) can0 05D#8355AF5E36000000
(1489158552.925620) can0 082#7D08140097804000
(1489158552.925621) can0 085#7C75800026507C67
(1489158552.925621) can0 3CC#B000000000000000
(1489158552.926619) can0 078#0068000000000000
(1489158552.926620) can0 422#000000923802FE02
(1489158552.927633) can0 423#A3A0000000000000
(1489158552.927634) can0 430#3700112BC8927700
(1489158552.927634) can0 076#3E89C0800FFF0000
(1489158552.927635) can0 077#181708087FF7F202
(1489158552.928658) can0 07D#0000FA50002047D9
(1489158552.928659) can0 213#FFFF00040001FE40
(1489158552.928660) can0 214#000000000000FA50
(1489158552.928661) can0 216#0D8BDE7A00000000
(1489158552.929659) can0 217#14A814AC14A41498
(1489158552.929660) can0 415#1824E4B708050805
(1489158552.929660) can0 41D#8000600000000000
(1489158552.929661) can0 4B0#01008000500000FA
(1489158552.930687) can0 3A8#0100271900000000
(1489158552.930688) can0 167#72802310001A3300
(1489158552.931686) can0 202#04B7500060001823
(1489158552.931687) can0 204#C08D7D0332000000
(1489158552.931688) can0 091#7E757F13A3D1F000
(1489158552.931689) can0 092#6FA36FB1738C14D1
(1489158552.931690) can0 42F#7D04002E661F0332
(1489158552.932708) can0 186#13FA012C01F70400
(1489158552.933710) can0 187#D91408C800A00300
(1489158552.935131) can0 085#7C75800025607C67
(1489158552.936373) can0 3CA#8385B87E00000000
(1489158552.937370) can0 217#14A414AC14A01498
(1489158552.940009) can0 047#2000000000000000
(1489158552.941040) can0 05C#00B000F1201E0000
(1489158552.941045) can0 165#50C0000000000000
(1489158552.941046) can0 167#72802410001A3300
(1489158552.941046) can0 200#00007FEE80280000
(1489158552.942040) can0 091#7E6F7F15A6D2F000
(1489158552.942041) can0 092#6F9E6FB173792BD2
(1489158552.942042) can0 202#04B7580060001822
(1489158552.942042) can0 204#C08D7D0332000000
(1489158552.943066) can0 230#5006000092000000
(1489158552.943067) can0 3B3#4048001210050002
(1489158552.943068) can0 3C3#60C0000000004000
(1489158552.943068) can0 42C#8C6000000B000000
(1489158552.945133) can0 082#7C08140097804000
(1489158552.946153) can0 085#7C75800024707C67
(1489158552.946154) can0 078#0168800000000000
(1489158552.947182) can0 076#3E89C0800FFF0000
(1489158552.948180) can0 077#181708097FF7F601
(1489158552.948181) can0 07D#0000F960002067D9
(1489158552.948182) can0 213#FFFF00040001FE40
(1489158552.948183) can0 214#000000000000F960
(1489158552.949202) can0 216#22A0F49000000000
(1489158552.949203) can0 217#14AC14AC14A01498
(1489158552.949203) can0 415#1823E8B708050805
(1489158552.949204) can0 416#5200FC0001000000
(1489158552.950202) can0 41D#8000600000000000
(1489158552.950203) can0 4B0#01008000600000F9
(1489158552.950203) can0 167#72802410001A3300
(1489158552.951229) can0 202#04B6600060001822
(1489158552.951230) can0 204#C08D7D0332000000
(1489158552.951231) can0 3A8#0100271900000000
(1489158552.951232) can0 091#7E607F15B4D3F000
(1489158552.952263) can0 092#6F9A6FB2737432D3
(1489158552.952264) can0 186#13FA012C01F70400
(1489158552.953260) can0 187#D91408C800A00300
(1489158552.955131) can0 085#7C75800023807C67
(1489158552.956134) can0 3CC#B000000000000000
(1489158552.957152) can0 217#14AC14AC1498149C
(1489158552.958178) can0 3E2#0000000080000000
(1489158552.958179) can0 455#A000000000000000
(1489158552.959204) can0 05A#00000045F1310000
(1489158552.960208) can0 168#0000000000000000
(1489158552.960209) can0 047#2000000000000000
(1489158552.961245) can0 165#50C0000000000000
(1489158552.961246) can0 167#72802410001A3300
(1489158552.962247) can0 091#7E537F15C0D4F000
(1489158552.962248) can0 092#6F9B6FB1737B2AD4
(1489158552.962249) can0 178#000001FF0E83CE89
(1489158552.963245) can0 200#00007FEE80280000
(1489158552.963246) can0 202#04B5680060001822
(1489158552.963247) can0 204#C08D7D0332000000
(1489158552.964259) can0 230#5006000092000000
(1489158552.964260) can0 242#037A2079D9000001
(1489158552.964261) can0 261#0000000000000000
(1489158552.964261) can0 33B#0000000000000000
(1489158552.965256) can0 42F#7D04002E661F0332
(1489158552.965257) can0 082#7C08140097804000
(1489158552.966283) can0 085#7C75800022907C67
(1489158552.967282) can0 3CA#8385B87E00000000
(1489158552.967283) can0 078#0569800000000000
(1489158552.967285) can0 076#3E86C0800FFF0000
(1489158552.968311) can0 077#181608097FF7EE02
(1489158552.968312) can0 07D#0000F870001FF7D3
(1489158552.968313) can0 213#FFFF00040001FE40
(1489158552.968313) can0 214#000000000000F870
(1489158552.969337) can0 216#38B609A500000000
(1489158552.969338) can0 217#14A814A8149414A0
(1489158552.969338) can0 415#1826ECB308050805
(1489158552.969339) can0 41D#8000600000000000
(1489158552.969340) can0 4B0#01008000700000F8
(1489158552.970329) can0 167#72802410001A3300
(1489158552.971370) can0 202#04B4700060001822
(1489158552.971371) can0 204#C08D7D0332000000
(1489158552.971372) can0 3A8#0100271900000000
(1489158552.971372) can0 04A#0200000000000000
(1489158552.971377) can0 04B#00C0D8D8D8D8C000
(1489158552.972386) can0 04C#105FFFC000000000
(1489158552.972388) can0 091#7E567F15BCD5F000
(1489158552.972389) can0 092#6FA16FB173801ED5
(1489158552.972390) can0 186#13FA012C01F70400
(1489158552.973408) can0 187#D91408C800A00300
(1489158552.975130) can0 085#7C75800021A07C67
(1489158552.976790) can0 3A7#0E401A045F700000
(1489158552.977808) can0 217#14A414A8149414A0
(1489158552.980044) can0 047#2000000000000000
(1489158552.981040) can0 165#50C0000000000000
(1489158552.981041) can0 167#72802410001A3300
(1489158552.982066) can0 091#7E6B7F15A6D6F000
(1489158552.982068) can0 092#6FAC6FAF737A1AD6
(1489158552.982069) can0 200#00007FEE80280000
(1489158552.982069) can0 202#04B3780060001822
(1489158552.983069) can0 204#C08D7D0332000000
(1489158552.983070) can0 3A6#0E401A045F700000
(1489158552.983070) can0 230#5006000092000000
(1489158552.985134) can0 082#7D08140097804000
(1489158552.986133) can0 085#7C75800020B07C67
(1489158552.986134) can0 3CC#B000000000000000
(1489158552.986135) can0 078#0068000000000000
(1489158552.987153) can0 076#3E84C0800FFF0000
(1489158552.988156) can0 077#181508097FF7F201
(1489158552.988157) can0 07D#0000F780002037D0
(1489158552.988158) can0 213#FFFF00040001FE40
(1489158552.988158) can0 214#000000000000F780
(1489158552.989178) can0 216#4CCA1FB900000000
(1489158552.989179) can0 217#14A014A8149414A4
(1489158552.989180) can0 415#1820F0B808050805
(1489158552.989180) can0 41D#8000600000000000
(1489158552.990178) can0 4B0#01008000800000F7
(1489158552.990179) can0 167#72802410001A3300
(1489158552.991203) can0 202#04C2000060001822
(1489158552.991205) can0 204#C08D7D0333000000
(1489158552.991206) can0 3A8#0100271600000000
(1489158552.992206) can0 091#7E837F158DD7F000
(1489158552.992207) can0 092#6FAC6FAF737122D7
(1489158552.992208) can0 42F#7D04002E661F0332
(1489158552.992208) can0 42C#8C6000000B000000
(1489158552.993227) can0 186#13FB012C01F70400
(1489158552.993228) can0 187#D91408C800A00300
(1489158552.993229) can0 18A#0020180213000000
(1489158552.995131) can0 085#7C75800020C07C66
(1489158552.996373) can0 3CA#8385B87E00000000
(1489158552.997386) can0 217#14A014A8149414A4
(1489158553.000043) can0 047#2000000000000000
(1489158553.001066) can0 165#50C0000000000000
(1489158553.001067) can0 167#72802410001A3300
(1489158553.001068) can0 200#00007FED80280000
(1489158553.001068) can0 202#04C2080060001821
(1489158553.002069) can0 091#7E8F7F1481D8F000
(1489158553.002070) can0 092#6FA16FB2736D2DD8
(1489158553.002070) can0 204#C08D7D0333000000
(1489158553.002071) can0 230#5006000092000000
(1489158553.003071) can0 242#037A2079D9000001
(1489158553.004096) can0 083#0020000000000000
(1489158553.005131) can0 2A1#FFFFFFFF00000000
(1489158553.005132) can0 082#7D08140096804000
(1489158553.006131) can0 085#7C7580001FD07C66
(1489158553.007152) can0 078#0168800000000000
(1489158553.007152) can0 076#3E84C0800FFF0000
(1489158553.008154) can0 077#181508097FF7FE01
(1489158553.008155) can0 07D#0000F690001FF7DE
(1489158553.008156) can0 213#FFFF00040001FE40
(1489158553.008157) can0 214#000000000000F690
(1489158553.009180) can0 216#61DF34CF00000000
(1489158553.009182) can0 217#14A014A8149414A4
(1489158553.009183) can0 415#181CF4BB08050805
(1489158553.009183) can0 41D#8000600000000000
(1489158553.010178) can0 4B0#01008000900000F6
(1489158553.010178) can0 3A8#0100271300000000
(1489158553.011205) can0 167#72802310001A3300
(1489158553.011206) can0 202#04C1100060001821
(1489158553.011206) can0 204#C08D7D0333000000
(1489158553.011207) can0 261#0000000000000000
(1489158553.011208) can0 091#7E917F157DD9F000
(1489158553.012208) can0 092#6F9A6FB673712BD9
(1489158553.012210) can0 186#13FB012C01F70400
(1489158553.013227) can0 187#D81408C800B00300
(1489158553.015131) can0 085#7C7580001EE07C66
(1489158553.016135) can0 3CC#B000000000000000
(1489158553.017152) can0 217#14A414AC149814A0
(1489158553.020013) can0 047#2000000000000000
(1489158553.021015) can0 165#50C0000000000000
(1489158553.021016) can0 167#72802310001A3300
(1489158553.021016) can0 200#00007FED80280000
(1489158553.022041) can0 091#7E947F1678DAF000
(1489158553.022042) can0 092#6F9D6FB6737A1EDA
(1489158553.022043) can0 202#04C1180060001820
(1489158553.022044) can0 204#C08D7D0333000000
(1489158553.023067) can0 230#5006000092000000
(1489158553.023067) can0 42F#7D04002E661F0333
(1489158553.024069) can0 33B#0000000000000000
(1489158553.025067) can0 05D#8355975C3E000000
(1489158553.026092) can0 082#7C08140097804000
(1489158553.026093) can0 085#7C75800012F07C71
(1489158553.026094) can0 169#0086C00000000000
(1489158553.026095) can0 078#0168800000000000
(1489158553.027092) can0 422#000000923802FE02
(1489158553.027093) can0 3CA#8385F87E00000000
(1489158553.027094) can0 423#A3A0000000000000
(1489158553.027094) can0 430#3700112BC892F700
(1489158553.028134) can0 076#3E84C0800FFF0000
(1489158553.028135) can0 077#181408097FF7EE03
(1489158553.028136) can0 07D#0000F5A0001FF7E2
(1489158553.028137) can0 213#FFFF00040001FE40
(1489158553.028138) can0 214#000000000000F5A0
(1489158553.029131) can0 216#77F548E400000000
(1489158553.029131) can0 217#14A414A8149C149C
(1489158553.029132) can0 415#1821F8B508050805
(1489158553.029133) can0 41D#8000600000000000
(1489158553.030156) can0 4B0#01008000A00000F5
(1489158553.030157) can0 3A8#0100271300000000
(1489158553.031152) can0 167#72802310001A3300
(1489158553.031154) can0 202#04C120006000181F
(1489158553.031154) can0 091#7E9B7F176FDBF000
(1489158553.031155) can0 204#C08D7D0332000000
(1489158553.032181) can0 092#6FA46FB273850FDB
(1489158553.032182) can0 186#13FB012C01F70400
(1489158553.033178) can0 187#D81408C800B00300
(1489158553.035131) can0 085#7C75800021007C71
(1489158553.037069) can0 217#14A414A8149C149C
(1489158553.038066) can0 596#9600FFFFFFFFFFFF
(1489158553.040094) can0 047#2000000000000000
(1489158553.041090) can0 05C#005000F7201E0000
(1489158553.041092) can0 165#50C0000000000000
(1489158553.041093) can0 167#72802310001A3300
(1489158553.041094) can0 200#00007FEE80280000
(1489158553.042130) can0 091#7EA47F1A62DCF000
(1489158553.042131) can0 092#6FA56FB2738D05DC
(1489158553.042132) can0 202#04C028006000181F
(1489158553.042132) can0 204#C08D7D0331000000
(1489158553.043131) can0 230#5006000092000000
(1489158553.043132) can0 242#037A207BD9000001
(1489158553.043132) can0 40A#C1023130373639FF
(1489158553.043133) can0 42C#8C6000000B000000
(1489158553.045134) can0 082#7C08140097804000
(1489158553.046152) can0 085#7C75800020107C71
(1489158553.046153) can0 3CC#B000000000000000
(1489158553.046154) can0 078#0068000000000000
(1489158553.047156) can0 076#3E84C0800FFF0000
(1489158553.048182) can0 077#1814080A7FF7F602
(1489158553.048183) can0 07D#0000F4B0002047E6
(1489158553.048183) can0 213#FFFF00040001FE40
(1489158553.048188) can0 214#000000000000F4B0
(1489158553.049178) can0 216#8C0A5EFA00000000
(1489158553.049179) can0 217#14A414AC14A01498
(1489158553.049179) can0 415#1820FCB508050805
(1489158553.049180) can0 416#5300FB0001000000
(1489158553.050204) can0 41D#8000600000000000
(1489158553.050205) can0 4B0#01008000B00000F4
(1489158553.050206) can0 167#72802310001A3300
(1489158553.051204) can0 202#04BF30006000181F
(1489158553.051206) can0 204#C08D7D0331000000
(1489158553.051207) can0 3A8#0100271300000000
(1489158553.052251) can0 091#7EA87F1C5BDDF000
(1489158553.052253) can0 092#6F9F6FB473870EDD
(1489158553.052254) can0 186#13FB012C01F70400
(1489158553.052254) can0 187#D81408C800B00300
(1489158553.053247) can0 42F#7D04002E661F0332
(1489158553.055130) can0 085#7C7680001D207C72
(1489158553.056373) can0 3CA#8385F87E00000000
(1489158553.057382) can0 217#14A414A8149C1494
(1489158553.058381) can0 455#A000000000000000
(1489158553.059408) can0 05A#00000045E7D10000
(1489158553.060412) can0 047#2000000000000000
(1489158553.061432) can0 165#50C0000000000000
(1489158553.061433) can0 167#72802310001A3300
(1489158553.061434) can0 091#7EA17F1C61DEF000
(1489158553.062434) can0 092#6F986FB2737A23DE
(1489158553.062435) can0 178#000001FF0E83CE89
(1489158553.062436) can0 200#00007FEE80280000
(1489158553.063441) can0 202#04BE38006000181F
(1489158553.063442) can0 204#C08D7D0332000000
(1489158553.063444) can0 230#5006000092000000
(1489158553.063445) can0 261#0000000000000000
(1489158553.065134) can0 082#7C08140097804000
(1489158553.066132) can0 085#7C7680001C307C72
(1489158553.066133) can0 078#0569800000000000
(1489158553.067153) can0 076#3E84C0800FFF0000
(1489158553.068156) can0 077#1814080C7FF7F202
(1489158553.068157) can0 07D#0000F3C0002057EA
(1489158553.068158) can0 213#FFFF00040001FE40
(1489158553.068158) can0 214#000000000000F3C0
(1489158553.069156) can0 216#A220730E00000000
(1489158553.069157) can0 217#14A814A8149C1498
(1489158553.069158) can0 415#181FC0C508040804
(1489158553.069158) can0 41D#8000600000000000
(1489158553.070178) can0 4B0#01008000C00000F3
(1489158553.070179) can0 167#72802310001A3300
(1489158553.071178) can0 202#04BD40006000181F
(1489158553.071179) can0 204#C08D7D0332000000
(1489158553.071181) can0 3A8#0100271300000000
(1489158553.071182) can0 04A#0200000000000000
(1489158553.072207) can0 04B#00C0D8D8D8D8C000
(1489158553.072208) can0 04C#105FFFC000000000
(1489158553.072209) can0 091#7E967F1D6ADFF000
(1489158553.072210) can0 092#6F986FAE737C24DF
(1489158553.073244) can0 186#13FB012C01F70400
(1489158553.073245) can0 187#D81408C800B00300
(1489158553.075131) can0 085#7C7680001C407C71
(1489158553.076134) can0 3CC#B000000000000000
(1489158553.077152) can0 217#14A814A814941498
(1489158553.080071) can0 047#2000000000000000
(1489158553.081092) can0 165#50C0000000000000
(1489158553.081093) can0 167#72802310001A3300
(1489158553.082091) can0 091#7E947F1E6AE0F000
(1489158553.082092) can0 092#6FA06FAE738B0CE0
(1489158553.082093) can0 200#00007FEE80280000
(1489158553.082094) can0 202#04BC48006000181F
(1489158553.083131) can0 204#C08D7D0330000000
(1489158553.083131) can0 230#5006000092000000
(1489158553.083132) can0 242#037A2079D9000001
(1489158553.083134) can0 42F#7D04002E661F0331
(1489158553.084134) can0 33B#0000000000000000
(1489158553.085131) can0 082#7C08140097804000
(1489158553.086135) can0 085#7C7680001B507C71
(1489158553.086139) can0 078#0168800000000000
(1489158553.087152) can0 3CA#8385F87E00000000
(1489158553.087153) can0 076#3E85C0800FFF0000
(1489158553.088156) can0 077#1812080C7FF7EA00
(1489158553.088157) can0 07D#0000F2D0002027E4
(1489158553.088159) can0 213#FFFF00040001FE40
(1489158553.088160) can0 214#000000000000F2D0
(1489158553.089178) can0 216#B634892300000000
(1489158553.089179) can0 217#14A414A81494149C
(1489158553.089179) can0 415#1823C4C008040804
(1489158553.089180) can0 41D#8000600000000000
(1489158553.090178) can0 4B0#01008000D00000F2
(1489158553.090179) can0 167#72802310001A3300
(1489158553.091205) can0 202#04BB50006000181F
(1489158553.091206) can0 204#C08D7D0330000000
(1489158553.091207) can0 3A8#0100271300000000
(1489158553.091207) can0 091#7EA07F215AE1F000
(1489158553.092208) can0 092#6FA86FB17391FAE1
(1489158553.092209) can0 186#13FB012C01F70400
(1489158553.092209) can0 187#D81408C800B00300
(1489158553.092210) can0 18A#0020180213000000
(1489158553.093245) can0 42C#8C6000000B000000
(1489158553.095132) can0 085#7C77800018607C72
(1489158553.096910) can0 217#14A014A8149014A0
(1489158553.100043) can0 047#2000000000000000
(1489158553.101040) can0 165#50C0000000000000
(1489158553.101041) can0 167#72802410001A3300
(1489158553.101042) can0 200#00007FEE80280000
(1489158553.101042) can0 202#04BA58006000181F
(1489158553.102070) can0 091#7EB77F2340E2F000
(1489158553.102071) can0 092#6FA46FB5738802E2
(1489158553.102071) can0 204#C08D7D0330000000
(1489158553.102072) can0 230#5006000092000000
(1489158553.103997) can0 083#0020000000000000
(1489158553.105006) can0 2A1#FFFFFFFF00000000
(1489158553.106015) can0 082#7E08140097804000
(1489158553.106017) can0 085#7C77800017707C72
(1489158553.106018) can0 3CC#B000000000000000
(1489158553.107015) can0 078#0268000000000000
(1489158553.108044) can0 076#3E85C0800FFF0000
(1489158553.108045) can0 077#1811080D7FF7FA01
(1489158553.108046) can0 07D#0000F1E0002087E7
(1489158553.108046) can0 213#FFFF00040001FD40
(1489158553.109040) can0 214#000000000000F1E0
(1489158553.109041) can0 216#CB499E3900000000
(1489158553.109041) can0 217#149C14A8149014A0
(1489158553.109042) can0 415#181BC8C708040804
(1489158553.109043) can0 41D#8000600000000000
(1489158553.110066) can0 4B0#01008000E00000F1
(1489158553.111068) can0 167#72802410001A3300
(1489158553.111069) can0 202#04B8600060001820
(1489158553.111070) can0 204#C08D7D0330000000
(1489158553.112068) can0 091#7EC97F242CE3F000
(1489158553.112069) can0 092#6F9D6FB6737A15E3
(1489158553.112070) can0 186#13FB012C01F70400
(1489158553.112071) can0 187#D71408C800C00300
(1489158553.112072) can0 261#0000000000000000
(1489158553.113092) can0 3A8#0100271400000000
(1489158553.113093) can0 42F#7D04002E661F0330
(1489158553.115131) can0 085#7C78800014807C73
(1489158553.116338) can0 3CA#8386187E00000000
(1489158553.117369) can0 217#149C14A4149014A0
(1489158553.120098) can0 047#2000000000000000
(1489158553.121130) can0 165#50C0000000000000
(1489158553.121132) can0 167#72802310001A3300
(1489158553.121133) can0 200#00007FEE80280000
(1489158553.121134) can0 202#04B868006000181F
(1489158553.122130) can0 091#7EC57F2231E4F000
(1489158553.122131) can0 092#6F976FB7737023E4
(1489158553.122132) can0 204#C08D7D0330000000
(1489158553.122132) can0 230#5006000092000000
(1489158553.123131) can0 242#037A207BD9000001
(1489158553.124562) can0 05D#8355BF5F31000000
(1489158553.125586) can0 082#7E08140097804000
(1489158553.125587) can0 085#7C78800013907C73
(1489158553.126583) can0 078#0168800000000000
(1489158553.126584) can0 422#000000923802FE02
(1489158553.126584) can0 423#A3A0000000000000
(1489158553.127623) can0 430#3F00112BE8927700
(1489158553.127624) can0 076#3E86C0800FFF0000
(1489158553.127624) can0 077#1811080E7FF7F203
(1489158553.127625) can0 07D#0000F0F0002017F4
(1489158553.128631) can0 213#FFFF00040001FD40
(1489158553.128632) can0 214#000000000000F0F0
(1489158553.128633) can0 216#E15FB24E00000000
(1489158553.128635) can0 217#149C14A4149414A0
(1489158553.129631) can0 415#1817CCCA08040804
(1489158553.129632) can0 41D#8000600000000000
(1489158553.129632) can0 4B0#01008000F00008EF
(1489158553.130634) can0 167#72802310001A3300
(1489158553.130635) can0 202#04B970006000181D
(1489158553.130636) can0 204#C08D7D0330000000
(1489158553.131612) can0 3A8#0100271400000000
(1489158553.131613) can0 186#13FB012C01F70400
(1489158553.131614) can0 091#7EB57F2240E5F000
(1489158553.131615) can0 092#6F976FB6736E25E5
(1489158553.132613) can0 187#D71408C800C00300
(1489158553.135085) can0 085#7C78800012A07C73
(1489158553.136138) can0 3CC#B000000000000000
(1489158553.137152) can0 217#149C14A81494149C
(1489158553.140209) can0 047#2000000000000000
