(1489596360.762500) can0 165#20C0000000000000
(1489596360.763077) can0 167#72804610001A0300
(1489596360.763086) can0 200#0000804480440000
(1489596360.763461) can0 202#04F1580060000000
(1489596360.763503) can0 204#C0007D0176000000
(1489596360.763828) can0 082#830854048C804000
(1489596360.764006) can0 085#7D04800081908F65
(1489596360.764285) can0 230#100600007C000000
(1489596360.764633) can0 078#0068000000000000
(1489596360.764996) can0 422#000000923802FE02
(1489596360.765161) can0 423#9360000000000000
(1489596360.765410) can0 430#370012ADC8897700
(1489596360.767384) can0 091#7EF47EF4D342F000
(1489596360.767756) can0 076#2C1FC0800FFF0000
(1489596360.768006) can0 077#000007FF7FF84A07
(1489596360.768286) can0 07D#011DD9808E9FE7FF
(1489596360.768508) can0 092#6FFA6FBF73696142
(1489596360.768755) can0 213#FFFF00048001FF41
(1489596360.768991) can0 214#000000000000F780
(1489596360.769288) can0 216#0502020182000000
(1489596360.769538) can0 217#0000000000000000
(1489596360.769787) can0 3A8#010014B000000000
(1489596360.770015) can0 415#0000F0F00FFE0FFE
(1489596360.770266) can0 416#9C00F10001000000
(1489596360.770514) can0 41D#8000E00000000000
(1489596360.770765) can0 4B0#010080008008E8D9
(1489596360.772014) can0 167#72804610001A0300
(1489596360.772498) can0 202#04F0600060000000
(1489596360.772745) can0 204#C0007D0176000000
(1489596360.773126) can0 42F#7D04002E662D0177
(1489596360.773616) can0 085#7D04800080A08F65
(1489596360.773876) can0 3CC#9000000000000000
(1489596360.774770) can0 186#140401F981F70000
(1489596360.775015) can0 187#DD1408C800600300
(1489596360.776615) can0 3B3#4048001210050002
(1489596360.777009) can0 3C3#60C1000000004000
(1489596360.777139) can0 42C#8C4000000B500000
(1489596360.777389) can0 3A7#0E400A085F700000
(1489596360.777765) can0 217#0000000000000000
(1489596360.778015) can0 04A#0200000000000000
(1489596360.778264) can0 04B#00C0D8D8D8D8C000
(1489596360.778514) can0 04C#20AFFFC000000000
(1489596360.778766) can0 091#7EF47EF4D243F000
(1489596360.779016) can0 092#6FFA6FBE73646643
(1489596360.779390) can0 3CA#FF80080000000000
(1489596360.782014) can0 047#2000000000000000
(1489596360.782535) can0 165#20C0000000000000
(1489596360.783034) can0 167#72804310001A0300
(1489596360.783265) can0 178#000001FF0E75CA76
(1489596360.783638) can0 082#830854048C804000
(1489596360.783887) can0 085#7D0480007FB08F65
(1489596360.784013) can0 200#0000804480440000
(1489596360.784262) can0 202#04EF680060000000
(1489596360.784638) can0 204#C0007D0176000000
(1489596360.785005) can0 078#0568800000000000
(1489596360.785136) can0 230#100600007C000000
(1489596360.785387) can0 261#0000000000000000
(1489596360.787759) can0 076#2C1FC0800FFF0000
(1489596360.787993) can0 077#000007FF7FF84A07
(1489596360.788263) can0 07D#011DD8908E9FE7FF
(1489596360.788494) can0 091#7EF47EF4D144F000
(1489596360.788744) can0 092#6FF96FBF73666344
(1489596360.788988) can0 213#FFFF00048001FF41
(1489596360.789257) can0 214#000000000000F690
(1489596360.789485) can0 216#0502020182000000
(1489596360.789733) can0 217#0000000000000000
(1489596360.789983) can0 3A6#0E400A085F700000
(1489596360.790233) can0 3A8#010014B000000000
(1489596360.790358) can0 415#0000F4EF0FFE0FFE
(1489596360.790609) can0 41D#8000E00000000000
(1489596360.791000) can0 4B0#010080009008E8D8
(1489596360.791999) can0 167#72804310001A0300
(1489596360.792240) can0 202#04EE700060000000
(1489596360.792485) can0 204#C0007D0177000000
(1489596360.792742) can0 455#A000000000000000
(1489596360.793624) can0 085#7D0480007EC08F65
(1489596360.794501) can0 186#140401F981F70000
(1489596360.794730) can0 187#DD1408C800600300
(1489596360.796617) can0 242#06CB201FD0000001
(1489596360.797819) can0 217#0000000000000000
(1489596360.798070) can0 091#7EF47EF4D045F000
(1489596360.798326) can0 092#6FF86FBF73696045
(1489596360.798904) can0 05A#00000045E9B10000
(1489596360.799139) can0 083#0020000000000000
(1489596360.799387) can0 2A1#FFFFFFFF00000000
(1489596360.802016) can0 047#2000000000000000
(1489596360.802280) can0 165#20C0000000000000
(1489596360.802514) can0 167#72804310001A0300
(1489596360.803015) can0 200#0000804480440000
(1489596360.803263) can0 202#04ED780060000000
(1489596360.803516) can0 204#C0007D0177000000
(1489596360.803763) can0 082#830854048C804000
(1489596360.804011) can0 085#7D0480007DD08F65
(1489596360.804266) can0 230#100600007C000000
(1489596360.804511) can0 3CC#9000000000000000
(1489596360.804761) can0 42F#7D04002E662C0177
(1489596360.805015) can0 078#0169800000000000
(1489596360.807762) can0 076#2C1FC0800FFF0000
(1489596360.808010) can0 077#000007FF7FF84A07
(1489596360.808260) can0 07D#011DD7A08E9FD7FF
(1489596360.808509) can0 091#7EF87EF4CB46F000
(1489596360.808759) can0 092#6FFA6FBE73666146
(1489596360.809011) can0 213#FFFF00048001FF41
(1489596360.809230) can0 214#000000000000F5A0
(1489596360.809479) can0 216#0502020182000000
(1489596360.809760) can0 217#0000000000000000
(1489596360.810010) can0 3CA#FF80080000000000
(1489596360.810261) can0 415#0000F8EE0FFE0FFE
(1489596360.810510) can0 41D#8000E00000000000
(1489596360.810634) can0 3A8#010014B000000000
(1489596360.810993) can0 4B0#01008000A008E8D7
(1489596360.812010) can0 167#72804310001A0300
(1489596360.812261) can0 202#04FC000060000000
(1489596360.812509) can0 204#C0007D0177000000
(1489596360.813637) can0 085#7D0480007CE08F65
(1489596360.814384) can0 186#140401F981F70000
(1489596360.814635) can0 187#DD1408C800600300
(1489596360.817761) can0 217#0000000000000000
(1489596360.818071) can0 091#7EF97EF4C947F000
(1489596360.818321) can0 092#6FFC6FBE73646047
(1489596360.819154) can0 33B#0000000000000000
(1489596360.822037) can0 047#2000000000000000
(1489596360.822320) can0 165#20C0000000000000
(1489596360.822574) can0 167#72804410001A0300
(1489596360.822823) can0 200#0000804280420000
(1489596360.823032) can0 202#04FB080060000000
(1489596360.823264) can0 204#C0007D0177000000
(1489596360.823513) can0 230#100600007C000000
(1489596360.823762) can0 082#830854048C804000
(1489596360.824012) can0 085#7D0480007BF08F65
(1489596360.824512) can0 078#0068000000000000
(1489596360.826142) can0 42C#8C4000000B500000
(1489596360.827761) can0 076#2C1FC0800FFF0000
(1489596360.828011) can0 077#000007FF7FF84A07
(1489596360.828261) can0 07D#011DD6B08E9FD800
(1489596360.828511) can0 091#7EF47EF4CD48F000
(1489596360.828763) can0 092#6FFC6FBF73695948
(1489596360.829012) can0 213#FFFF00048001FF41
(1489596360.829262) can0 214#000000000000F4B0
(1489596360.829385) can0 216#0502020182000000
(1489596360.829606) can0 217#0000000000000000
(1489596360.829983) can0 415#0000FCED0FFE0FFE
(1489596360.830136) can0 41D#8000E00000000000
(1489596360.830386) can0 4B0#01008000B008E8D6
(1489596360.831010) can0 3A8#010014B000000000
(1489596360.832011) can0 167#72804410001A0300
(1489596360.832514) can0 202#04FA100060000000
(1489596360.832761) can0 204#C0007D0178000000
(1489596360.833026) can0 261#0000000000000000
(1489596360.833261) can0 42F#7D04002E662D0177
(1489596360.833636) can0 085#7D0480008A008F65
(1489596360.833885) can0 3CC#9000000000000000
(1489596360.834387) can0 186#140401F981F70000
(1489596360.834512) can0 187#DD1408C800600300
(1489596360.834761) can0 18A#0020180113000000
(1489596360.835857) can0 05D#835AB3642A000000
(1489596360.836759) can0 242#06CB2020D1000001
(1489596360.837760) can0 217#0000000000000000
(1489596360.838009) can0 091#7EF17EF4CF49F000
(1489596360.838259) can0 092#6FFC6FBE736B5749
(1489596360.838885) can0 3CA#FF80080000000000
(1489596360.842011) can0 047#2000000000000000
(1489596360.842273) can0 165#20C0000000000000
(1489596360.842509) can0 167#72804410001A0300
(1489596360.842758) can0 200#0000803F803F0000
(1489596360.843008) can0 202#04F9180060000000
(1489596360.843258) can0 204#C0007D0178000000
(1489596360.843507) can0 230#100600007C000000
(1489596360.843758) can0 082#830854048C804000
(1489596360.844008) can0 085#7D04800089108F65
(1489596360.844508) can0 078#0168800000000000
(1489596360.847760) can0 076#2C1FC0800FFF0000
(1489596360.848010) can0 077#000007FF7FF84E07
(1489596360.848259) can0 07D#011DD5C08E9FE7FF
(1489596360.848509) can0 091#7EF17EF5CD4AF000
(1489596360.848758) can0 092#6FFD6FBD73675A4A
(1489596360.849008) can0 213#FFFF00048001FF41
(1489596360.849258) can0 214#000000000000F3C0
(1489596360.849509) can0 216#0502020182000000
(1489596360.849761) can0 217#0000000000000000
(1489596360.850009) can0 3A8#010014B000000000
(1489596360.850134) can0 415#0000C0FC0FFE0FFE
(1489596360.850353) can0 41D#8000E00000000000
(1489596360.850603) can0 4B0#01008000C008E8D5
(1489596360.851991) can0 167#72804210001A0300
(1489596360.852258) can0 202#04F8200060000000
(1489596360.852508) can0 204#C0007D0178000000
(1489596360.853638) can0 085#7D04800088208F65
(1489596360.854385) can0 186#140401F981F70000
(1489596360.854638) can0 187#DD1408C800600300
(1489596360.857762) can0 217#0000000000000000
(1489596360.858027) can0 091#7EF47EF7C74BF000
(1489596360.858261) can0 092#6FFD6FBE73645B4B
(1489596360.858510) can0 596#9600FFFFFFFFFFFF
(1489596360.862012) can0 047#2000000000000000
(1489596360.862327) can0 05C#005000F7201E0000
(1489596360.862532) can0 165#20C0000000000000
(1489596360.862740) can0 167#72804210001A0300
(1489596360.863259) can0 200#0000804080400000
(1489596360.863513) can0 202#04F7280060000000
(1489596360.863763) can0 082#830854048C804000
(1489596360.864013) can0 085#7D04800087308F65
(1489596360.864262) can0 204#C0007D0178000000
(1489596360.864511) can0 230#100600007C000000
(1489596360.864764) can0 3CC#9000000000000000
(1489596360.865015) can0 078#0168800000000000
(1489596360.865262) can0 422#000000923802FE02
(1489596360.865483) can0 423#9360000000000000
(1489596360.865607) can0 42F#7D04002E662C0177
(1489596360.865993) can0 430#370012ADC889F700
(1489596360.867368) can0 091#7EF77EF7C34CF000
(1489596360.867760) can0 092#6FFC6FC07368554C
(1489596360.868010) can0 076#2C1FC0800FFF0000
(1489596360.868263) can0 077#000007FF7FF84E06
(1489596360.868510) can0 07D#011DD4D08E9FD7FF
(1489596360.868760) can0 213#FFFF00048001FF41
(1489596360.869012) can0 214#000000000000F2D0
(1489596360.869261) can0 216#0502020182000000
(1489596360.869510) can0 217#0000000000000000
(1489596360.869730) can0 3CA#FF80080000000000
(1489596360.869980) can0 415#0000C4FB0FFE0FFE
(1489596360.870230) can0 416#9D00F00001000000
(1489596360.870480) can0 3A8#010014B000000000
(1489596360.870730) can0 41D#8000E00000000000
(1489596360.870979) can0 41E#0000000000000000
(1489596360.871261) can0 4B0#01008000D008E8D4
(1489596360.872260) can0 167#72804210001A0300
(1489596360.872511) can0 202#04F6300060000000
(1489596360.872760) can0 204#C0007D0176000000
(1489596360.873636) can0 085#7D04800086408F65
(1489596360.873993) can0 186#140401F981F70000
(1489596360.874117) can0 187#DC1408C800700300
(1489596360.876625) can0 242#06CB2021D0000001
(1489596360.876856) can0 40A#C100334641365030
(1489596360.877140) can0 42C#8C4000000B500000
(1489596360.877386) can0 04A#0200000000000000
(1489596360.877636) can0 04B#00C0D8D8D8D8C000
(1489596360.878010) can0 04C#20AFFFC000000000
(1489596360.878135) can0 091#7EF57EF6C54DF000
(1489596360.878385) can0 092#6FFB6FBE736C534D
(1489596360.878605) can0 217#0000000000000000
(1489596360.879135) can0 33B#0000000000000000
(1489596360.882011) can0 047#2000000000000000
(1489596360.882510) can0 165#20C0000000000000
(1489596360.883011) can0 167#72804210001A0300
(1489596360.883260) can0 178#000001FF0E76CA76
(1489596360.883637) can0 082#830854048C804000
(1489596360.883759) can0 085#7D04800085508F65
(1489596360.884009) can0 200#0000804480440000
(1489596360.884260) can0 202#04F5380060000000
(1489596360.884635) can0 078#0468000000000000
(1489596360.884885) can0 204#C0007D0176000000
(1489596360.885137) can0 230#100600007C000000
(1489596360.885385) can0 261#0000000000000000
(1489596360.887760) can0 091#7EF47EF4C74EF000
(1489596360.888010) can0 076#2C1FC0800FFF0000
(1489596360.888260) can0 077#000007FF7FF84E07
(1489596360.888511) can0 07D#011DD3E08E9FD7FF
(1489596360.888730) can0 092#6FFC6FBD736A544E
(1489596360.888980) can0 213#FFFF00048001FF41
(1489596360.889260) can0 214#000000000000F1E0
(1489596360.889510) can0 216#0502020182000000
(1489596360.889759) can0 217#0000000000000000
(1489596360.890009) can0 3A8#010014B000000000
(1489596360.890260) can0 415#0000C8FA0FFE0FFE
(1489596360.890510) can0 41D#8000E00000000000
(1489596360.890730) can0 4B0#01008000E008E8D3
(1489596360.891992) can0 167#72804210001A0300
(1489596360.892510) can0 202#04F4400060000000
(1489596360.892760) can0 204#C0007D0176000000
(1489596360.893012) can0 42F#7D04002E662C0177
(1489596360.893259) can0 455#A000000000000000
(1489596360.893618) can0 085#7D04800084608F65
(1489596360.893885) can0 3CC#9000000000000000
(1489596360.894135) can0 186#140401F981F70000
(1489596360.894259) can0 187#DC1408C800700300
(1489596360.897369) can0 091#7EF47EF4C64FF000
(1489596360.897759) can0 217#0000000000000000
(1489596360.898010) can0 092#6FFD6FBD7366564F
(1489596360.898885) can0 05A#00000045EF510000
(1489596360.899135) can0 3CA#FF80080000000000
(1489596360.899384) can0 081#0000000000000000
(1489596360.899636) can0 083#0020000000000000
(1489596360.899884) can0 2A1#FFFFFFFF00000000
(1489596360.900134) can0 3E6#0001040880000000
(1489596360.900384) can0 5B3#B300FFFFFFFFFFFF
(1489596360.902011) can0 047#2000000000000000
(1489596360.902259) can0 165#20C0000000000000
(1489596360.902510) can0 167#72804210001A0300
(1489596360.902760) can0 200#0000804580450000
(1489596360.903009) can0 202#04F3480060000000
(1489596360.903259) can0 204#C0007D0176000000
(1489596360.903510) can0 230#100600007C000000
(1489596360.903743) can0 082#830854048C804000
(1489596360.903980) can0 085#7D04800083708F65
(1489596360.904492) can0 078#0169800000000000
(1489596360.907386) can0 091#7EF47EF4C550F000
(1489596360.907760) can0 076#2C1FC0800FFF0000
(1489596360.908046) can0 077#000007FF7FF84E06
(1489596360.908235) can0 07D#011DD2F08E9FE7FF
(1489596360.908483) can0 092#6FFE6FC073675050
(1489596360.908733) can0 213#FFFF00048001FF41
(1489596360.909016) can0 214#000000000000F0F0
(1489596360.909261) can0 216#0502020182000000
(1489596360.909512) can0 217#0000000000000000
(1489596360.909763) can0 415#0000CCF90FFE0FFE
(1489596360.910012) can0 3A8#010014B000000000
(1489596360.910262) can0 41D#8000E00000000000
(1489596360.910515) can0 4B0#01008000F008E8D2
(1489596360.911994) can0 167#72804210001A0300
(1489596360.912259) can0 202#04F2500060000000
(1489596360.912509) can0 204#C0007D0173000000
(1489596360.913638) can0 085#7D04800082808F65
(1489596360.913855) can0 186#140401F981F70000
(1489596360.914010) can0 187#DC1408C800700300
(1489596360.916636) can0 242#06CB201FD0000001
(1489596360.917828) can0 217#0000000000000000
(1489596360.918073) can0 091#7EF47EF5C351F000
(1489596360.918285) can0 092#6FFE6FC173694C51
(1489596360.922038) can0 047#2000000000000000
(1489596360.922322) can0 165#20C0000000000000
(1489596360.922574) can0 167#72804210001A0300
(1489596360.923031) can0 200#0000804580450000
(1489596360.923266) can0 202#04F1580060000000
(1489596360.923513) can0 204#C0007D0173000000
(1489596360.923762) can0 082#830854048C804000
(1489596360.924017) can0 085#7D04800081908F65
(1489596360.924262) can0 230#100600007C000000
(1489596360.924511) can0 3CC#9000000000000000
(1489596360.924761) can0 078#0168800000000000
(1489596360.925015) can0 42F#7D04002E662C0177
(1489596360.926762) can0 42C#8C4000000B500000
(1489596360.927763) can0 076#2C1FC0800FFF0000
(1489596360.928012) can0 077#000007FF7FF84E07
(1489596360.928261) can0 07D#011DE1008E9FD7FF
(1489596360.928511) can0 091#7EF47EF6C152F000
(1489596360.928762) can0 092#6FFD6FBF73665152
(1489596360.929012) can0 213#FFFF00048001FF41
(1489596360.929232) can0 214#000000000000FF00
(1489596360.929511) can0 216#0502020182000000
(1489596360.929761) can0 217#0000000000000000
(1489596360.930010) can0 3A8#010014B000000000
(1489596360.930233) can0 3CA#FF80080000000000
(1489596360.930358) can0 415#0000D0F80FFE0FFE
(1489596360.930607) can0 41D#8000E00000000000
(1489596360.930994) can0 4B0#010080000008E8E1
(1489596360.931993) can0 167#72804210001A0400
(1489596360.932263) can0 202#04F0600060000000
(1489596360.932511) can0 204#C0007D0173000000
(1489596360.932759) can0 261#0000000000000000
(1489596360.933511) can0 186#140401F981F70000
(1489596360.933761) can0 085#7D04800080A08F65
(1489596360.934010) can0 187#DC1408C800700300
(1489596360.934229) can0 18A#0020180113000000
(1489596360.935854) can0 05D#835A9B652F000000
(1489596360.937731) can0 217#0000000000000000
(1489596360.938010) can0 091#7EF47EF7BF53F000
(1489596360.938261) can0 092#6FFD6FBE73645353
(1489596360.939135) can0 33B#0000000000000000
(1489596360.942012) can0 047#2000000000000000
(1489596360.942259) can0 165#20C0000000000000
(1489596360.942508) can0 167#72804710001A0400
(1489596360.942759) can0 200#0000804A804A0000
(1489596360.943010) can0 202#04EF680060000000
(1489596360.943259) can0 204#C0007D0173000000
(1489596360.943479) can0 230#100600007C000000
(1489596360.943775) can0 082#830854048C804000
(1489596360.944026) can0 085#7D0480007FB08F65
(1489596360.944481) can0 078#0068000000000000
(1489596360.947826) can0 076#2C1FC0800FFF0000
(1489596360.948074) can0 077#000007FF7FF84E07
(1489596360.948323) can0 07D#011DE0108E9FD7FF
(1489596360.948576) can0 091#7EF47EF6BF54F000
(1489596360.948781) can0 092#6FFB6FBE73675154
(1489596360.949016) can0 213#FFFF00048001FF41
(1489596360.949261) can0 214#000000000000FE10
(1489596360.949512) can0 216#0502020182000000
(1489596360.949759) can0 217#0000000000000000
(1489596360.950013) can0 415#0000D4F70FFE0FFE
(1489596360.950262) can0 41D#8000E00000000000
(1489596360.950388) can0 4B0#010080001008E8E0
(1489596360.950761) can0 3A8#010014B000000000
(1489596360.952011) can0 167#72804710001A0400
(1489596360.952512) can0 202#04EE700060000000
(1489596360.952761) can0 204#C0007D0174000000
(1489596360.953015) can0 42F#7D04002E662E0176
(1489596360.953638) can0 085#7D0480007EC08F65
(1489596360.953886) can0 186#140401F981F70000
(1489596360.954011) can0 187#DC1408C800700300
(1489596360.954247) can0 3CC#9000000000000000
(1489596360.956513) can0 242#06CB201DD0000001
(1489596360.957765) can0 217#0000000000000000
(1489596360.958032) can0 091#7EF67EF4BE55F000
(1489596360.958263) can0 092#6FFB6FBC73685155
(1489596360.959012) can0 3CA#FF80080000000000
(1489596360.962015) can0 047#2000000000000000
(1489596360.962323) can0 05C#00F000ED201E0000
(1489596360.962532) can0 165#20C0000000000000
(1489596360.962764) can0 167#72804710001A0400
(1489596360.963013) can0 200#0000804880480000
(1489596360.963262) can0 202#04ED780060000000
(1489596360.963513) can0 204#C0007D0174000000
(1489596360.963762) can0 082#830854048C804000
(1489596360.964014) can0 085#7D0480007DD08F65
(1489596360.964262) can0 230#100600007C000000
(1489596360.964638) can0 078#0168800000000000
(1489596360.964889) can0 422#000000923802FE02
(1489596360.965127) can0 423#9360000000000000
(1489596360.965388) can0 430#370012ADC8897700
(1489596360.967767) can0 076#2C1FC0800FFF0000
(1489596360.968012) can0 077#000007FF7FF84A07
(1489596360.968262) can0 07D#011DDF208E9FD7FF
(1489596360.968512) can0 091#7EFA7EF4B956F000
(1489596360.968763) can0 092#6FFC6FB973655556
(1489596360.969014) can0 213#FFFF00048001FF41
(1489596360.969262) can0 214#000000000000FD20
(1489596360.969512) can0 216#0502020182000000
(1489596360.969762) can0 217#0000000000000000
(1489596360.970012) can0 3A8#010014B000000000
(1489596360.970263) can0 415#0000D8F60FFE0FFE
(1489596360.970511) can0 416#9E00EF0001000000
(1489596360.970731) can0 41D#8000E00000000000
(1489596360.971010) can0 4B0#010080002008E8DF
(1489596360.972262) can0 167#72804A10001A0400
(1489596360.972513) can0 202#04FC000060000000
(1489596360.972761) can0 204#C0007D0174000000
(1489596360.973388) can0 186#140401F981F70000
(1489596360.973638) can0 187#DB1408C800800300
(1489596360.973887) can0 085#7D0480007CE08F65
(1489596360.975640) can0 3A7#0E400A085F700000
(1489596360.976516) can0 42C#8C4000000B500000
(1489596360.977764) can0 217#0000000000000000
(1489596360.978013) can0 04A#0200000000000000
(1489596360.978260) can0 04B#00C0D8D8D8D8C000
(1489596360.978516) can0 04C#20AFFFC000000000
(1489596360.978761) can0 091#7EF97EF4B957F000
(1489596360.979012) can0 092#6FFB6FB973635757
(1489596360.981996) can0 047#2000000000000000
(1489596360.982492) can0 165#20C0000000000000
(1489596360.982991) can0 167#72804A10001A0400
(1489596360.983509) can0 178#000001FF0E76CA76
(1489596360.983759) can0 082#830854048C804000
(1489596360.984009) can0 085#7D0480007BF08F65
(1489596360.984259) can0 200#0000804880480000
(1489596360.984510) can0 202#04FB080060000000
(1489596360.984759) can0 3CC#9000000000000000
(1489596360.984982) can0 078#0568800000000000
(1489596360.985260) can0 204#C0007D0174000000
(1489596360.985384) can0 230#100600007C000000
(1489596360.985634) can0 261#0000000000000000
(1489596360.986384) can0 42F#7D04002E66300176
(1489596360.987388) can0 091#7EF47EF4BD58F000
(1489596360.987759) can0 092#6FFB6FBC73674F58
(1489596360.988009) can0 076#2C1FC0800FFF0000
(1489596360.988259) can0 077#000007FF7FF84E05
(1489596360.988508) can0 07D#011DDE308E9FD800
(1489596360.988729) can0 213#FFFF00048001FF41
(1489596360.988980) can0 214#000000000000FC30
(1489596360.989261) can0 216#0502020182000000
(1489596360.989509) can0 217#0000000000000000
(1489596360.989759) can0 3A6#0E400A085F700000
(1489596360.990010) can0 3CA#FF80080000000000
(1489596360.990259) can0 415#0000DCF50FFE0FFE
(1489596360.990479) can0 3A8#010014B000000000
(1489596360.990728) can0 41D#8000E00000000000
(1489596360.990979) can0 4B0#010080003008E8DE
(1489596360.992010) can0 167#72804A10001A0400
(1489596360.992259) can0 202#04FA100060000000
(1489596360.992509) can0 204#C0007D0175000000
(1489596360.993010) can0 455#A000000000000000
(1489596360.993260) can0 186#140401F981F70000
(1489596360.993384) can0 187#DB1408C800800300
(1489596360.993635) can0 085#7D0480008A008F65
(1489596360.996510) can0 242#06CB201DD0000001
(1489596360.997778) can0 217#0000000000000000
(1489596360.998026) can0 091#7EF47EF4BC59F000
(1489596360.998261) can0 092#6FFC6FBE736B4759
(1489596360.998887) can0 05A#00000045E5F10000
(1489596360.999135) can0 083#0020000000000000
(1489596360.999384) can0 2A1#FFFFFFFF00000000
(1489596360.999635) can0 33B#0000000000000000
(1489596361.002011) can0 047#2000000000000000
(1489596361.002260) can0 165#20C0000000000000
(1489596361.002509) can0 167#72804A10001A0400
(1489596361.002760) can0 200#0000804580450000
(1489596361.002978) can0 202#04F9180060000000
(1489596361.003228) can0 204#C0007D0175000000
(1489596361.003509) can0 230#100600007C000000
(1489596361.003760) can0 082#830854048C804000
(1489596361.004010) can0 085#7D04800089108F65
(1489596361.004634) can0 078#0069000000000000
(1489596361.007761) can0 076#2C1FC0800FFF0000
(1489596361.008027) can0 077#000007FF7FF84A06
(1489596361.008261) can0 07D#011DDD408E9FD7FF
(1489596361.008509) can0 091#7EF47EF6B95AF000
(1489596361.008760) can0 092#6FFE6FBE7369465A
(1489596361.009011) can0 213#FFFF00048001FF41
(1489596361.009259) can0 214#000000000000FB40
(1489596361.009509) can0 216#0502020182000000
(1489596361.009759) can0 217#0000000000000000
(1489596361.010009) can0 3A8#010014B000000000
(1489596361.010259) can0 415#0000E0F40FFE0FFE
(1489596361.010510) can0 41D#8000E00000000000
(1489596361.010604) can0 188#4000000000000000
(1489596361.011009) can0 4B0#010080004008E8DD
(1489596361.012010) can0 167#72804A10001A0400
(1489596361.012509) can0 202#04F8200060000000
(1489596361.012761) can0 204#C0007D0175000000
(1489596361.013012) can0 186#140401F981F70000
(1489596361.013261) can0 187#DB1408C800800300
(1489596361.013509) can0 42F#7D04002E66300176
(1489596361.013729) can0 085#7D04800088208F65
(1489596361.013978) can0 3CC#9000000000000000
(1489596361.017760) can0 091#7EF67EF7B55BF000
(1489596361.018011) can0 092#6FFE6FBF7368455B
(1489596361.018259) can0 217#0000000000000000
(1489596361.018885) can0 3CA#FF80080000000000
(1489596361.022011) can0 047#2000000000000000
(1489596361.022323) can0 165#20C0000000000000
(1489596361.022532) can0 167#72804A10001A0400
(1489596361.022765) can0 200#0000804480440000
(1489596361.023011) can0 202#04F7280060000000
(1489596361.023261) can0 204#C0007D0175000000
(1489596361.023511) can0 230#100600007C000000
(1489596361.023765) can0 082#830854048C804000
(1489596361.024010) can0 085#7D04800087308F65
(1489596361.024511) can0 078#0168800000000000
(1489596361.026141) can0 42C#8C4000000B500000
(1489596361.027767) can0 076#2C1FC0800FFF0000
(1489596361.028031) can0 077#000007FF7FF84E07
(1489596361.028262) can0 07D#011DDC508E9FE7FF
(1489596361.028511) can0 091#7EF57EF6B65CF000
(1489596361.028764) can0 092#6FFC6FBF736B435C
(1489596361.029014) can0 213#FFFF00048001FF41
(1489596361.029262) can0 214#000000000000FA50
(1489596361.029515) can0 216#0502020182000000
(1489596361.029762) can0 217#0000000000000000
(1489596361.030012) can0 3A8#010014B000000000
(1489596361.030135) can0 415#0000E4F30FFE0FFE
(1489596361.030385) can0 41D#8000E00000000000
(1489596361.030637) can0 4B0#010080005008E8DC
(1489596361.032010) can0 167#72804A10001A0400
(1489596361.032260) can0 202#04F6300060000000
(1489596361.032511) can0 204#C0007D0178000000
(1489596361.032761) can0 261#0000000000000000
(1489596361.033012) can0 186#140401F981F70000
(1489596361.033261) can0 187#DB1408C800800300
(1489596361.033511) can0 18A#0020180113000000
(1489596361.033760) can0 085#7D04800086408F65
(1489596361.035888) can0 05D#835A836535000000
(1489596361.036762) can0 242#06CB201ED1000001
(1489596361.037763) can0 217#0000000000000000
(1489596361.038010) can0 091#7EF47EF5B75DF000
(1489596361.038260) can0 092#6FFD6FBE736C415D
(1489596361.042016) can0 047#2000000000000000
(1489596361.042323) can0 165#20C0000000000000
(1489596361.042537) can0 167#72804A10001A0400
(1489596361.043016) can0 200#0000804480440000
(1489596361.043262) can0 202#04F5380060000000
(1489596361.043512) can0 204#C0007D0178000000
(1489596361.043762) can0 082#830854048C804000
(1489596361.044011) can0 085#7D04800085508F65
(1489596361.044261) can0 230#100600007C000000
(1489596361.044511) can0 3CC#9000000000000000
(1489596361.044760) can0 078#0168800000000000
(1489596361.045014) can0 42F#7D04002E66300176
(1489596361.047763) can0 076#2C1FC0800FFF0000
(1489596361.048012) can0 077#000007FF7FF84E07
(1489596361.048262) can0 07D#011DDB608E9FE7FF
(1489596361.048510) can0 091#7EF47EF4B75EF000
(1489596361.048762) can0 092#6FFD6FBC7366485E
(1489596361.049012) can0 213#FFFF00048001FF41
(1489596361.049263) can0 214#000000000000F960
(1489596361.049512) can0 216#0502020182000000
(1489596361.049761) can0 217#0000000000000000
(1489596361.050013) can0 3CA#FF80080000000000
(1489596361.050262) can0 415#0000E8F20FFE0FFE
(1489596361.050512) can0 41D#8000E00000000000
(1489596361.050733) can0 4B0#010080006008E8DB
(1489596361.050983) can0 3A8#010014B000000000
(1489596361.052118) can0 167#72804A10001A0300
(1489596361.052509) can0 202#04F4400060000000
(1489596361.052759) can0 204#C0007D0178000000
(1489596361.053010) can0 186#140401F981F70000
(1489596361.053260) can0 187#DB1408C800800300
(1489596361.053634) can0 085#7D04800084608F65
(1489596361.057385) can0 091#7EF47EF4B65FF000
(1489596361.057820) can0 217#0000000000000000
(1489596361.058074) can0 092#6FFC6FBD7364495F
(1489596361.059283) can0 33B#0000000000000000
(1489596361.062075) can0 047#2000000000000000
(1489596361.062321) can0 05C#009000F3201E0000
(1489596361.062573) can0 165#20C0000000000000
(1489596361.062823) can0 167#72804410001A0300
(1489596361.063031) can0 200#0000803E803E0000
(1489596361.063264) can0 202#04F3480060000000
(1489596361.063482) can0 204#C0007D0178000000
(1489596361.063761) can0 082#830854048C804000
(1489596361.064010) can0 085#7D04800083708F65
(1489596361.064261) can0 230#100600007C000000
(1489596361.064510) can0 078#0068000000000000
(1489596361.064762) can0 422#000000923802FE02
(1489596361.065014) can0 423#9360000000000000
(1489596361.065262) can0 430#370012ADC8897700
(1489596361.067388) can0 091#7EF47EF4B560F000
(1489596361.067760) can0 092#6FFA6FBE73684560
(1489596361.068009) can0 076#2C1FC0800FFF0000
(1489596361.068259) can0 077#000007FF7FF84E06
(1489596361.068508) can0 07D#011DDA708E9FD7FF
(1489596361.068760) can0 213#FFFF00048001FF41
(1489596361.069011) can0 214#000000000000F870
(1489596361.069228) can0 216#0502020182000000
(1489596361.069509) can0 217#0000000000000000
(1489596361.069758) can0 3A8#010014B000000000
(1489596361.070009) can0 415#0000ECF10FFE0FFE
(1489596361.070259) can0 416#9F00EE0001000000
(1489596361.070508) can0 41D#8000E00000000000
(1489596361.070728) can0 4B0#010080007008E8DA
(1489596361.072010) can0 167#72804410001A0300
(1489596361.072259) can0 186#140401F981F70000
(1489596361.072509) can0 187#DA1408C800900300
(1489596361.072758) can0 202#04F2500060000000
(1489596361.072979) can0 204#C0007D017A000000
(1489596361.073228) can0 42F#7D04002E662D0176
(1489596361.073634) can0 085#7D04800082808F65
(1489596361.073884) can0 3CC#9000000000000000
(1489596361.076508) can0 242#06CB201FD1000001
(1489596361.076759) can0 40A#C1014B3931485232
(1489596361.077010) can0 42C#8C4000000B500000
(1489596361.077384) can0 04A#0200000000000000
(1489596361.077634) can0 04B#00C0D8D8D8D8C000
(1489596361.077978) can0 04C#20AFFFC000000000
(1489596361.078135) can0 091#7EF47EF5B361F000
(1489596361.078384) can0 092#6FF96FBF736A4261
(1489596361.078633) can0 217#0000000000000000
(1489596361.079009) can0 3CA#FF80080000000000
(1489596361.082012) can0 047#2000000000000000
(1489596361.082508) can0 165#20C0000000000000
(1489596361.083008) can0 167#72804510001A0300
(1489596361.083258) can0 178#000002010E76CA76
(1489596361.083634) can0 082#830854048C804000
(1489596361.083758) can0 085#7D04800081908F65
(1489596361.084009) can0 200#0000803B803B0000
(1489596361.084258) can0 202#04F1580060000000
(1489596361.084509) can0 078#0568800000000000
(1489596361.084759) can0 204#C0007D017A000000
(1489596361.085009) can0 230#100600007C000000
(1489596361.085258) can0 261#0000000000000000
(1489596361.087366) can0 091#7EF47EF6B162F000
(1489596361.087759) can0 092#6FFB6FBE73664462
(1489596361.088010) can0 076#2C1FC0800FFF0000
(1489596361.088259) can0 077#000007FF7FF84A07
(1489596361.088509) can0 07D#011DD9808E9FD7FF
(1489596361.088763) can0 213#FFFF00048001FF41
(1489596361.089009) can0 214#000000000000F780
(1489596361.089258) can0 216#0502020182000000
(1489596361.089508) can0 217#0000000000000000
(1489596361.089758) can0 415#0000F0F00FFE0FFE
(1489596361.090008) can0 3A8#010014B000000000
(1489596361.090258) can0 41D#8000E00000000000
(1489596361.090509) can0 4B0#010080008008E8D9
(1489596361.091980) can0 167#72804010001A0300
(1489596361.092257) can0 186#140401F981F70000
(1489596361.092506) can0 187#DA1408C800900300
(1489596361.092757) can0 202#04F0600060000000
(1489596361.093002) can0 204#C0007D017A000000
(1489596361.093257) can0 455#A000000000000000
(1489596361.093633) can0 085#7D04800080A08F65
(1489596361.097758) can0 217#0000000000000000
(1489596361.098065) can0 091#7EF47EF5B163F000
(1489596361.098278) can0 092#6FFC6FBE73634563
(1489596361.098887) can0 05A#00000045EB910000
(1489596361.099259) can0 083#0020000000000000
(1489596361.099511) can0 2A1#FFFFFFFF00000000
(1489596361.102012) can0 047#2000000000000000
(1489596361.102280) can0 165#20C0000000000000
(1489596361.102513) can0 167#72804010001A0300
(1489596361.103012) can0 200#0000803A803A0000
(1489596361.103262) can0 202#04EF680060000000
(1489596361.103511) can0 204#C0007D017A000000
(1489596361.103761) can0 082#830854048C804000
(1489596361.104011) can0 085#7D0480007FB08F65
(1489596361.104261) can0 230#100600007C000000
(1489596361.104511) can0 3CC#9000000000000000
(1489596361.104761) can0 078#0169800000000000
(1489596361.105012) can0 42F#7D04002E662B0176
(1489596361.107736) can0 091#7EF47EF4B164F000
(1489596361.107978) can0 076#2C1FC0800FFF0000
(1489596361.108257) can0 077#000007FF7FF84A07
(1489596361.108507) can0 07D#011DD8908E9FD7FF
(1489596361.108756) can0 092#6FFB6FBF73674064
(1489596361.108977) can0 213#FFFF00048001FF41
(1489596361.109255) can0 214#000000000000F690
(1489596361.109505) can0 216#0502020182000000
(1489596361.109629) can0 217#0000000000000000
(1489596361.110005) can0 3A8#010014B000000000
(1489596361.110113) can0 3CA#FF80080000000000
(1489596361.110380) can0 415#0000F4EF0FFE0FFE
(1489596361.110630) can0 41D#8000E00000000000
(1489596361.111005) can0 4B0#010080009008E8D8
(1489596361.112005) can0 167#72804110001A0300
(1489596361.112254) can0 186#140401F981F70000
(1489596361.112505) can0 187#DA1408C800900300
(1489596361.112756) can0 202#04EE700060000000
(1489596361.112999) can0 204#C0007D0179000000
(1489596361.113630) can0 085#7D0480007EC08F65
(1489596361.116631) can0 242#06CB201FD0000001
(1489596361.117766) can0 217#0000000000000000
(1489596361.118017) can0 091#7EF47EF5AF65F000
(1489596361.118258) can0 092#6FFA6FBE736A3E65
(1489596361.119257) can0 33B#0000000000000000
(1489596361.122007) can0 047#2000000000000000
(1489596361.122266) can0 165#20C0000000000000
(1489596361.122508) can0 167#72804110001A0200
(1489596361.122757) can0 200#0000803E803E0000
(1489596361.123008) can0 202#04ED780060000000
(1489596361.123256) can0 204#C0007D0179000000
(1489596361.123505) can0 230#100600007C000000
(1489596361.123756) can0 082#830854048C804000
(1489596361.124006) can0 085#7D0480007DD08F65
(1489596361.124381) can0 078#0068000000000000
(1489596361.126381) can0 42C#8C4000000B500000
(1489596361.127132) can0 265#1000000410000000
(1489596361.127381) can0 453#3257364570646166
(1489596361.127756) can0 091#7EF47EF5AE66F000
(1489596361.128006) can0 076#2C1FC0800FFF0000
(1489596361.128256) can0 077#000007FF7FF84A07
(1489596361.128506) can0 07D#011DD7A08E9FD7FF
(1489596361.128757) can0 092#6FFB6FBD73674066
(1489596361.129008) can0 213#FFFF00048001FF41
(1489596361.129257) can0 214#000000000000F5A0
(1489596361.129381) can0 216#0502020182000000
(1489596361.129601) can0 217#0000000000000000
(1489596361.129990) can0 3A8#010014B000000000
(1489596361.130131) can0 415#0000F8EE0FFE0FFE
(1489596361.130351) can0 41D#8000E00000000000
(1489596361.130601) can0 4B0#01008000A008E8D7
(1489596361.131865) can0 186#140401F981F70000
(1489596361.132131) can0 167#72804110001A0200
(1489596361.132382) can0 187#DA1408C800900300
(1489596361.132632) can0 18A#0020180113000000
(1489596361.132880) can0 202#04FC000060000000
(1489596361.133134) can0 204#C0007D0179000000
(1489596361.133381) can0 261#0000000000000000
(1489596361.133630) can0 3E5#0000000080000000
(1489596361.133851) can0 085#7D0480007CE08F65
(1489596361.134101) can0 3CC#9000000000000000
(1489596361.134226) can0 42F#7D04002E662A0177
(1489596361.135864) can0 05D#835AAB652B000000
(1489596361.137757) can0 217#0000000000000000
(1489596361.138006) can0 091#7EF47EF4AE67F000
(1489596361.138256) can0 092#6FFB6FBD73644267
(1489596361.139007) can0 3CA#FF80080000000000
(1489596361.142009) can0 047#2000000000000000
(1489596361.142267) can0 165#20C0000000000000
(1489596361.142506) can0 167#72803D10001A0200
(1489596361.142755) can0 200#0000803E803E0000
(1489596361.143006) can0 202#04FB080060000000
(1489596361.143225) can0 204#C0007D0179000000
(1489596361.143506) can0 230#100600007C000000
(1489596361.143757) can0 082#830854048C804000
(1489596361.144006) can0 085#7D0480007BF08F65
(1489596361.144381) can0 078#0168800000000000
(1489596361.147756) can0 076#2C1FC0800FFF0000
(1489596361.148061) can0 077#000007FF7FF84A06
(1489596361.148311) can0 07D#011DD6B08E9FD7FF
(1489596361.148523) can0 091#7EF47EF4AD68F000
(1489596361.148761) can0 092#6FFB6FBE73673D68
(1489596361.149011) can0 213#FFFF00048001FF41
(1489596361.149258) can0 214#000000000000F4B0
(1489596361.149507) can0 216#0502020182000000
(1489596361.149757) can0 217#0000000000000000
(1489596361.150007) can0 415#0000FCED0FFE0FFE
(1489596361.150258) can0 41D#8000E00000000000
(1489596361.150382) can0 4B0#01008000B008E8D6
(1489596361.150742) can0 3A8#010014B000000000
(1489596361.151990) can0 186#140401F981F70000
(1489596361.152130) can0 167#72803D10001A0200
(1489596361.152382) can0 187#DA1408C800900300
(1489596361.152631) can0 202#04FA100060000000
(1489596361.152881) can0 204#C0007D0176000000
(1489596361.153617) can0 085#7D0480008A008F65
(1489596361.156489) can0 242#06CB2025D1000001
(1489596361.157809) can0 217#0000000000000000
(1489596361.158058) can0 091#7EF47EF4AC69F000
(1489596361.158271) can0 092#6FFC6FBE736B3769
(1489596361.162015) can0 047#2000000000000000
(1489596361.162309) can0 05C#003000F9201E0000
(1489596361.162480) can0 165#20C0000000000000
(1489596361.162770) can0 167#72803D10001A0200
(1489596361.163261) can0 200#0000803E803E0000
(1489596361.163507) can0 202#04F9180060000000
(1489596361.163757) can0 082#830854048D804000
(1489596361.164007) can0 085#7D04800089108F65
(1489596361.164257) can0 204#C0007D0176000000
(1489596361.164507) can0 230#100600007C000000
(1489596361.164757) can0 078#0168800000000000
(1489596361.164981) can0 3CC#9000000000000000
(1489596361.165258) can0 422#000000923802FE02
(1489596361.165506) can0 423#9360000000000000
(1489596361.165757) can0 42F#7D04002E66290177
(1489596361.165978) can0 430#370012ADC8897700
(1489596361.167371) can0 091#7EF47EF4AB6AF000
(1489596361.167755) can0 092#6FFC6FBD73683A6A
(1489596361.168005) can0 076#2C1FC0800FFF0000
(1489596361.168256) can0 077#000007FF7FF84A07
(1489596361.168506) can0 07D#011DD5C08E9FD7FF
(1489596361.168725) can0 213#FFFF00048001FF41
(1489596361.168977) can0 214#000000000000F3C0
(1489596361.169255) can0 216#0502020182000000
(1489596361.169505) can0 217#0000000000000000
(1489596361.169756) can0 3A8#010014B000000000
(1489596361.169975) can0 3CA#FF80080000000000
(1489596361.170225) can0 415#0000C0FC0FFE0FFE
(1489596361.170510) can0 416#9000FD0001000000
(1489596361.170757) can0 41D#8000E00000000000
(1489596361.170975) can0 4B0#01008000C008E8D5
(1489596361.171739) can0 186#140401F981F70000
(1489596361.172005) can0 187#D91408C800A00300
(1489596361.172256) can0 167#72803C10001A0200
(1489596361.172505) can0 202#04F8200060000000
(1489596361.172755) can0 204#C0007D0176000000
(1489596361.173631) can0 085#7D04800088208F65
(1489596361.176255) can0 3A7#0E400A085F700000
(1489596361.177393) can0 42C#8C4000000B500000
(1489596361.177642) can0 04A#0200000000000000
(1489596361.177881) can0 04B#00C0D8D8D8D8C000
(1489596361.178131) can0 04C#20AFFFC000000000
(1489596361.178382) can0 091#7EF47EF4AA6BF000
(1489596361.178516) can0 092#6FFB6FBD73653D6B
(1489596361.178808) can0 217#0000000000000000
(1489596361.179308) can0 33B#0000000000000000
(1489596361.182063) can0 047#2000000000000000
(1489596361.182558) can0 165#20C0000000000000
(1489596361.183059) can0 167#72803E10001A0200
(1489596361.183269) can0 178#000001FF0E75CA76
(1489596361.183646) can0 082#830854048D804000
(1489596361.183760) can0 085#7D04800087308F65
(1489596361.184008) can0 200#0000804380430000
(1489596361.184257) can0 202#04F7280060000000
(1489596361.184507) can0 078#0468000000000000
(1489596361.184758) can0 204#C0007D0176000000
(1489596361.185010) can0 230#100600007C000000
(1489596361.185256) can0 261#0000000000000000
(1489596361.187761) can0 076#2C1FC0800FFF0000
(1489596361.188008) can0 077#000007FF7FF84E06
(1489596361.188261) can0 07D#011DD4D08E9FD7FF
(1489596361.188507) can0 091#7EF47EF5A86CF000
(1489596361.188758) can0 092#6FF96FBD73683B6C
(1489596361.189011) can0 213#FFFF00048001FF41
(1489596361.189258) can0 214#000000000000F2D0
(1489596361.189507) can0 216#0502020182000000
(1489596361.189758) can0 217#0000000000000000
(1489596361.190007) can0 3A6#0E400A085F700000
(1489596361.190257) can0 3A8#010014B000000000
(1489596361.190506) can0 415#0000C4FB0FFE0FFE
(1489596361.190757) can0 41D#8000E00000000000
(1489596361.191006) can0 4B0#01008000D008E8D4
(1489596361.191852) can0 186#140401F981F70000
(1489596361.192006) can0 187#D91408C800A00300
(1489596361.192256) can0 167#72803E10001A0200
(1489596361.192757) can0 202#04F6300060000000
(1489596361.193008) can0 204#C0007D0176000000
(1489596361.193257) can0 42F#7D04002E662A0177
(1489596361.193506) can0 455#A000000000000000
(1489596361.193757) can0 085#7D04800086408F65
(1489596361.194007) can0 3CC#9000000000000000
(1489596361.196632) can0 242#06CB202BD1000001
(1489596361.197759) can0 091#7EF47EF4A86DF000
(1489596361.198019) can0 092#6FF96FBB736B396D
(1489596361.198260) can0 217#0000000000000000
(1489596361.198884) can0 05A#00000045F1310000
(1489596361.199134) can0 3CA#FF80080000000000
(1489596361.199256) can0 083#0020000000000000
(1489596361.199508) can0 2A1#FFFFFFFF00000000
(1489596361.202009) can0 047#2000000000000000
(1489596361.202258) can0 165#20C0000000000000
(1489596361.202507) can0 167#72803E10001A0300
(1489596361.202757) can0 200#0000804380430000
(1489596361.203006) can0 202#04F5380060000000
(1489596361.203227) can0 204#C0007D0176000000
(1489596361.203506) can0 230#100600007C000000
(1489596361.203757) can0 082#830854048D804000
(1489596361.204006) can0 085#7D04800085508F65
(1489596361.204383) can0 078#0169800000000000
(1489596361.207758) can0 076#2C1FC0800FFF0000
(1489596361.208020) can0 077#000007FF7FF84A06
(1489596361.208259) can0 07D#011DD3E08E9FD7FF
(1489596361.208507) can0 091#7EF37EF4A86EF000
(1489596361.208757) can0 092#6FFB6FB973693A6E
(1489596361.209010) can0 213#FFFF00048001FF41
(1489596361.209260) can0 214#000000000000F1E0
(1489596361.209509) can0 216#0502020182000000
(1489596361.209758) can0 217#0000000000000000
(1489596361.210008) can0 3A8#010014B000000000
(1489596361.210257) can0 415#0000C8FA0FFE0FFE
(1489596361.210507) can0 41D#8000E00000000000
(1489596361.210632) can0 4B0#01008000E008E8D3
(1489596361.211352) can0 186#140401F981F70000
(1489596361.211632) can0 187#D91408C800A00300
(1489596361.212132) can0 167#72804210001A0300
(1489596361.212508) can0 202#04F4400060000000
(1489596361.212757) can0 204#C0007D0176000000
(1489596361.213634) can0 085#7D04800084608F65
(1489596361.217760) can0 091#7EF47EF4A66FF000
(1489596361.218058) can0 092#6FFC6FBA7367396F
(1489596361.218269) can0 217#0000000000000000
(1489596361.222015) can0 047#2000000000000000
(1489596361.222310) can0 165#20C0000000000000
(1489596361.222480) can0 167#72804210001A0300
(1489596361.223007) can0 200#0000804380430000
(1489596361.223258) can0 202#04F3480060000000
(1489596361.223507) can0 204#C0007D0176000000
(1489596361.223758) can0 082#830854048D804000
(1489596361.224006) can0 085#7D04800083708F65
(1489596361.224258) can0 230#100600007C000000
(1489596361.224506) can0 3CC#9000000000000000
(1489596361.224758) can0 078#0168800000000000
(1489596361.225010) can0 42F#7D04002E662C0177
(1489596361.226132) can0 42C#8C4000000B500000
(1489596361.227758) can0 091#7EF57EF4A470F000
(1489596361.228006) can0 076#2C1FC0800FFF0000
(1489596361.228256) can0 077#000007FF7FF84A05
(1489596361.228507) can0 07D#011DD2F08E9FE7FF
(1489596361.228757) can0 092#6FFC6FBC73693470
(1489596361.229008) can0 213#FFFF00048001FF41
(1489596361.229256) can0 214#000000000000F0F0
(1489596361.229506) can0 216#0502020182000000
(1489596361.229757) can0 217#0000000000000000
(1489596361.230007) can0 3CA#FF80080000000000
(1489596361.230132) can0 415#0000CCF90FFE0FFE
(1489596361.230353) can0 41D#8000E00000000000
(1489596361.230602) can0 4B0#01008000F008E8D2
(1489596361.230992) can0 3A8#010014B000000000
(1489596361.231382) can0 186#140401F981F70000
(1489596361.231506) can0 187#D91408C800A00300
(1489596361.231757) can0 18A#0020180113000000
(1489596361.232117) can0 167#72804210001A0300
(1489596361.232381) can0 202#04F2500060000000
(1489596361.232633) can0 204#C0007D0177000000
(1489596361.232882) can0 261#0000000000000000
(1489596361.233633) can0 085#7D04800082808F65
(1489596361.235882) can0 05D#835A936531000000
(1489596361.236883) can0 242#06CB2034D1000001
(1489596361.237759) can0 217#0000000000000000
(1489596361.238007) can0 091#7EF77EF4A171F000
(1489596361.238256) can0 092#6FFB6FBD736B3171
(1489596361.239256) can0 33B#0000000000000000
(1489596361.242008) can0 047#2000000000000000
(1489596361.242269) can0 165#20C0000000000000
(1489596361.242508) can0 167#72804210001A0300
(1489596361.242757) can0 200#0000804180410000
(1489596361.243006) can0 202#04F1580060000000
(1489596361.243227) can0 204#C0007D0177000000
(1489596361.243507) can0 230#100600007C000000
(1489596361.243756) can0 082#830854048D804000
(1489596361.244008) can0 085#7D04800081908F65
(1489596361.244381) can0 078#0068000000000000
(1489596361.247760) can0 091#7EF47EF4A372F000
(1489596361.248018) can0 076#2C1FC0800FFF0000
(1489596361.248259) can0 077#000007FF7FF84E06
(1489596361.248507) can0 07D#011DE1008E9FE7FF
(1489596361.248757) can0 092#6FFC6FBD73683272
(1489596361.249009) can0 213#FFFF00048001FF41
(1489596361.249257) can0 214#000000000000FF00
(1489596361.249506) can0 216#0502020182000000
(1489596361.249757) can0 217#0000000000000000
(1489596361.250005) can0 3A8#010014B000000000
(1489596361.250256) can0 415#0000D0F80FFE0FFE
(1489596361.250506) can0 41D#8000E00000000000
(1489596361.250631) can0 4B0#010080000008E8E1
(1489596361.251115) can0 186#140401F981F70000
(1489596361.251381) can0 187#D91408C800A00300
(1489596361.252260) can0 167#72804210001A0300
(1489596361.252757) can0 202#04F0600060000000
(1489596361.253007) can0 204#C0007D0177000000
(1489596361.253255) can0 42F#7D04002E662B0177
(1489596361.253631) can0 085#7D04800080A08F65
(1489596361.253881) can0 3CC#9000000000000000
(1489596361.257384) can0 091#7EF47EF4A273F000
(1489596361.257772) can0 092#6FFD6FBE73653273
(1489596361.258009) can0 217#0000000000000000
(1489596361.259008) can0 3CA#FF80080000000000
(1489596361.262011) can0 047#2000000000000000
(1489596361.262268) can0 05C#00D000EF201E0000
(1489596361.262509) can0 165#20C0000000000000
(1489596361.262758) can0 167#72804110001A0300
(1489596361.263007) can0 200#0000804080400000
(1489596361.263256) can0 202#04EF680060000000
(1489596361.263506) can0 204#C0007D0177000000
(1489596361.263756) can0 082#830854048D804000
(1489596361.263977) can0 085#7D0480007FB08F65
(1489596361.264227) can0 230#100600007C000000
(1489596361.264476) can0 078#0168800000000000
(1489596361.264727) can0 422#000000923802FE02
(1489596361.264977) can0 423#9360000000000000
(1489596361.265225) can0 430#370012ADC8897700
(1489596361.267364) can0 091#7EF47EF4A174F000
(1489596361.267754) can0 092#6FFB6FBF73682F74
(1489596361.268005) can0 076#2C1FC0800FFF0000
(1489596361.268254) can0 077#000007FF7FF84E06
(1489596361.268506) can0 07D#011DE0108E9FD7FF
(1489596361.268755) can0 213#FFFF00048001FF41
(1489596361.269005) can0 214#000000000000FE10
(1489596361.269254) can0 216#0502020182000000
(1489596361.269475) can0 217#0000000000000000
(1489596361.269756) can0 415#0000D4F70FFE0FFE
(1489596361.270007) can0 3A8#010014B000000000
(1489596361.270254) can0 416#9100FC0001000000
(1489596361.270506) can0 41D#8000E00000000000
(1489596361.270755) can0 4B0#010080001008E8E0
(1489596361.271004) can0 186#140401F981F70000
(1489596361.271130) can0 187#D81408C800B00300
(1489596361.271989) can0 167#72804110001A0300
(1489596361.272262) can0 202#04EE700060000000
(1489596361.272630) can0 204#C0007D0179000000
(1489596361.273631) can0 085#7D0480007EC08F65
(1489596361.276630) can0 242#06CB2037D1000001
(1489596361.276880) can0 3B3#4048001210050002
(1489596361.277130) can0 40A#C1023130373639FF
(1489596361.277351) can0 42C#8C4000000B500000
(1489596361.277747) can0 04A#0200000000000000
(1489596361.278005) can0 04B#00C0D8D8D8D8C000
(1489596361.278224) can0 04C#20AFFFC000000000
(1489596361.278515) can0 091#7EF47EF4A075F000
(1489596361.278755) can0 092#6FFA6FBE736B2D75
(1489596361.279005) can0 217#0000000000000000
(1489596361.282006) can0 047#2000000000000000
(1489596361.282516) can0 165#20C0000000000000
(1489596361.283006) can0 167#72804110001A0300
(1489596361.283505) can0 178#000002000E76CA76
(1489596361.283755) can0 082#830854048D804000
(1489596361.284005) can0 085#7D0480007DD08F65
(1489596361.284255) can0 200#0000804080400000
(1489596361.284505) can0 078#0568800000000000
(1489596361.284754) can0 202#04ED780060000000
(1489596361.285007) can0 3CC#9000000000000000
(1489596361.285225) can0 204#C0007D0179000000
(1489596361.285474) can0 230#100600007C000000
(1489596361.285755) can0 261#0000000000000000
(1489596361.286382) can0 42F#7D04002E662B0177
(1489596361.287756) can0 091#7EF47EF49F76F000
(1489596361.288005) can0 076#2C1FC0800FFF0000
(1489596361.288255) can0 077#000007FF7FF84A07
(1489596361.288505) can0 07D#011DDF208E9FD7FF
(1489596361.288755) can0 092#6FFA6FBC73693076
(1489596361.289005) can0 213#FFFF00048001FF41
(1489596361.289255) can0 214#000000000000FD20
(1489596361.289504) can0 216#0502020182000000
(1489596361.289725) can0 217#0000000000000000
(1489596361.289974) can0 3A8#010014B000000000
(1489596361.290099) can0 3CA#FF80080000000000
(1489596361.290349) can0 415#0000D8F60FFE0FFE
(1489596361.290599) can0 41D#8000E00000000000
(1489596361.290988) can0 4B0#010080002008E8DF
(1489596361.291141) can0 186#140401F981F70000
(1489596361.291383) can0 187#D81408C800B00300
(1489596361.292006) can0 167#72804110001A0300
(1489596361.292255) can0 202#04FC000060000000
(1489596361.292505) can0 204#C0007D0179000000
(1489596361.292755) can0 455#A000000000000000
(1489596361.293632) can0 085#7D0480007CE08F65
(1489596361.297755) can0 091#7EF67EF49C77F000
(1489596361.297999) can0 092#6FFA6FBC73673177
(1489596361.298254) can0 217#0000000000000000
(1489596361.298880) can0 05A#00000045E7D10000
(1489596361.299380) can0 083#0020000000000000
(1489596361.299630) can0 2A1#FFFFFFFF00000000
(1489596361.299849) can0 33B#0000000000000000
(1489596361.302005) can0 047#2000000000000000
(1489596361.302255) can0 165#20C0000000000000
(1489596361.302505) can0 167#72804110001A0300
(1489596361.302754) can0 200#0000803E803E0000
(1489596361.303004) can0 202#04FB080060000000
(1489596361.303254) can0 204#C0007D0179000000
(1489596361.303505) can0 230#100600007C000000
(1489596361.303755) can0 082#830854048D804000
(1489596361.304005) can0 085#7D0480007BF08F65
(1489596361.304255) can0 078#0069000000000000
(1489596361.307384) can0 091#7EF67EF49B78F000
(1489596361.307765) can0 092#6FFA6FBE73692C78
(1489596361.308005) can0 076#2C1FC0800FFF0000
(1489596361.308255) can0 077#000007FF7FF84A06
(1489596361.308504) can0 07D#011DDE308E9FE7FF
(1489596361.308756) can0 213#FFFF00048001FF41
(1489596361.309005) can0 214#000000000000FC30
(1489596361.309255) can0 216#0502020182000000
(1489596361.309504) can0 217#0000000000000000
(1489596361.309755) can0 415#0000DCF50FFE0FFE
(1489596361.310004) can0 41D#8000E00000000000
(1489596361.310129) can0 454#3646200372204242
(1489596361.310349) can0 4B0#010080003008E8DE
(1489596361.310600) can0 186#140401F981F70000
(1489596361.310880) can0 187#D81408C800B00300
(1489596361.311129) can0 3A8#010014B000000000
(1489596361.311988) can0 167#72804110001A0300
(1489596361.312504) can0 202#04FA100060000000
(1489596361.312755) can0 204#C0007D0178000000
(1489596361.313006) can0 42F#7D04002E662B0177
(1489596361.313630) can0 085#7D0480008A008F65
(1489596361.313879) can0 3CC#9000000000000000
(1489596361.317131) can0 242#06CB2039D1000001
(1489596361.317809) can0 091#7EF47EF49C79F000
(1489596361.318057) can0 092#6FFA6FBE736B2979
(1489596361.318269) can0 217#0000000000000000
(1489596361.319019) can0 3CA#FF80080000000000
(1489596361.322023) can0 047#2000000000000000
(1489596361.322309) can0 165#20C0000000000000
(1489596361.322519) can0 167#72804110001A0300
(1489596361.322759) can0 200#0000803F803F0000
(1489596361.323006) can0 202#04F9180060000000
(1489596361.323257) can0 204#C0007D0178000000
(1489596361.323506) can0 230#100600007C000000
(1489596361.323756) can0 082#830854048D804000
(1489596361.324006) can0 085#7D04800089108F65
(1489596361.324256) can0 078#0168800000000000
(1489596361.326134) can0 42C#8C4000000B500000
(1489596361.327725) can0 091#7EF47EF49B7AF000
(1489596361.328015) can0 076#2C1FC0800FFF0000
(1489596361.328238) can0 077#000007FF7FF84A07
(1489596361.328505) can0 07D#011DDD408E9FE7FF
(1489596361.328754) can0 092#6FFB6FBE73672B7A
(1489596361.329006) can0 213#FFFF00048001FF41
(1489596361.329254) can0 214#000000000000FB40
(1489596361.329504) can0 216#0502020182000000
(1489596361.329755) can0 217#0000000000000000
(1489596361.330004) can0 415#0000E0F40FFE0FFE
(1489596361.330254) can0 41D#8000E00000000000
(1489596361.330349) can0 4B0#010080004008E8DD
(1489596361.330630) can0 186#140401F981F70000
(1489596361.331005) can0 187#D81408C800B00300
(1489596361.331129) can0 18A#0020180113000000
(1489596361.331379) can0 3A8#010014B000000000
(1489596361.332005) can0 167#72804010001A0300
(1489596361.332254) can0 202#04F8200060000000
(1489596361.332504) can0 204#C0007D0178000000
(1489596361.332755) can0 261#0000000000000000
(1489596361.333631) can0 085#7D04800088208F65
(1489596361.335880) can0 05D#835ABB6527000000
(1489596361.337755) can0 217#0000000000000000
(1489596361.338015) can0 091#7EF47EF49A7BF000
(1489596361.338255) can0 092#6FFB6FBF73642C7B
(1489596361.342006) can0 047#2000000000000000
(1489596361.342303) can0 165#20C0000000000000
(1489596361.342517) can0 167#72804010001A0300
(1489596361.343008) can0 200#0000803F803F0000
(1489596361.343255) can0 202#04F7280060000000
(1489596361.343506) can0 204#C0007D0178000000
(1489596361.343758) can0 082#830854048D804000
(1489596361.344005) can0 085#7D04800087308F65
(1489596361.344254) can0 230#100600007C000000
(1489596361.344505) can0 078#0168800000000000
(1489596361.344754) can0 3CC#9000000000000000
(1489596361.344998) can0 42F#7D04002E662B0177
(1489596361.347762) can0 091#7EF47EF5987CF000
(1489596361.348011) can0 076#2C1FC0800FFF0000
(1489596361.348259) can0 077#000007FF7FF84A07
(1489596361.348526) can0 07D#011DDC508E9FD7FF
(1489596361.348764) can0 092#6FF96FBE73672B7C
(1489596361.349001) can0 213#FFFF00048001FF41
(1489596361.349260) can0 214#000000000000FA50
(1489596361.349512) can0 216#0502020182000000
(1489596361.349760) can0 217#0000000000000000
(1489596361.350010) can0 3A8#010014B000000000
(1489596361.350260) can0 3CA#FF80080000000000
(1489596361.350511) can0 186#140401F981F70000
(1489596361.350634) can0 187#D81408C800B00300
(1489596361.350991) can0 415#0000E4F30FFE0FFE
(1489596361.351135) can0 41D#8000E00000000000
(1489596361.351354) can0 4B0#010080005008E8DC
(1489596361.352119) can0 167#72804010001A0300
(1489596361.352384) can0 202#04F6300060000000
(1489596361.352760) can0 204#C0007D0177000000
(1489596361.353641) can0 085#7D04800086408F65
(1489596361.356636) can0 242#06CB203AD1000001
(1489596361.357772) can0 217#0000000000000000
(1489596361.358023) can0 091#7EF47EF6967DF000
(1489596361.358259) can0 092#6FF96FBC736A297D
(1489596361.359383) can0 33B#0000000000000000
(1489596361.362009) can0 047#2000000000000000
(1489596361.362272) can0 05C#007000F5201E0000
(1489596361.362512) can0 165#20C0000000000000
(1489596361.362755) can0 167#72804010001A0300
(1489596361.363007) can0 200#0000804280420000
(1489596361.363255) can0 59E#9E00FFFFFFFFFFFF
(1489596361.363506) can0 202#04F5380060000000
(1489596361.363757) can0 082#830854048D804000
(1489596361.364006) can0 085#7D04800085508F65
(1489596361.364255) can0 078#0068000000000000
(1489596361.364476) can0 204#C0007D0177000000
(1489596361.364726) can0 230#100600007C000000
(1489596361.364979) can0 422#000000923802FE02
(1489596361.365256) can0 423#9360000000000000
(1489596361.365506) can0 430#370012ADC8897700
(1489596361.365757) can0 43A#0000020000000000
(1489596361.367740) can0 091#7EF47EF6957EF000
(1489596361.368004) can0 076#2C1FC0800FFF0000
(1489596361.368254) can0 077#000007FF7FF84A07
(1489596361.368504) can0 07D#011DDB608E9FD7FF
(1489596361.368755) can0 092#6FFB6FBB7369287E
(1489596361.369006) can0 213#FFFF00048001FF41
(1489596361.369129) can0 214#000000000000F960
(1489596361.369380) can0 216#0502020182000000
(1489596361.369629) can0 217#0000000000000000
(1489596361.370004) can0 3CD#0000000000000000
(1489596361.370099) can0 3D8#0000000080456030
(1489596361.370350) can0 3A8#010014B000000000
(1489596361.370630) can0 186#140401F981F70000
(1489596361.370879) can0 187#D71408C800C00300
(1489596361.371129) can0 415#0000E8F20FFE0FFE
(1489596361.371383) can0 416#9200FB0001000000
(1489596361.371630) can0 41D#8000E00000000000
(1489596361.371880) can0 4B0#010080006008E8DB
(1489596361.372128) can0 167#72804010001A0300
(1489596361.372613) can0 202#04F4400060000000
(1489596361.373004) can0 204#C0007D0177000000
(1489596361.373629) can0 085#7D04800084608F65
(1489596361.373879) can0 3CC#9000000000000000
(1489596361.374011) can0 42F#7D04002E662B0177
(1489596361.376489) can0 3A7#0E400A085F700000
(1489596361.376728) can0 42C#8C4000000B500000
(1489596361.377374) can0 04A#0200000000000000
(1489596361.377746) can0 04B#00C0D8D8D8D8C000
(1489596361.377995) can0 04C#20AFFFC000000000
(1489596361.378245) can0 091#7EF47EF4967FF000
(1489596361.378495) can0 092#6FFC6FBC7368267F
(1489596361.378747) can0 217#0000000000000000
(1489596361.378995) can0 3CA#FF80080000000000
(1489596361.382004) can0 047#2000000000000000
(1489596361.382503) can0 165#20C0000000000000
(1489596361.383003) can0 167#72804010001A0300
(1489596361.383253) can0 178#000001FF0E76CA76
(1489596361.383629) can0 082#830854048D804000
(1489596361.383754) can0 085#7D04800083708F65
(1489596361.384003) can0 200#0000804280420000
(1489596361.384224) can0 202#04F3480060000000
(1489596361.384503) can0 078#0568800000000000
(1489596361.384754) can0 204#C0007D0177000000
(1489596361.385004) can0 230#100600007C000000
(1489596361.385254) can0 261#0000000000000000
(1489596361.387754) can0 091#7EF47EF49580F000
(1489596361.388004) can0 076#2C1FC0800FFF0000
(1489596361.388224) can0 077#000007FF7FF84A06
(1489596361.388503) can0 07D#011DDA708E9FE7FF
(1489596361.388730) can0 092#6FFB6FBF736A2180
(1489596361.389004) can0 213#FFFF00048001FF41
(1489596361.389253) can0 214#000000000000F870
(1489596361.389505) can0 216#0502020182000000
(1489596361.389753) can0 217#0000000000000000
(1489596361.390003) can0 3A6#0E400A085F700000
(1489596361.390253) can0 415#0000ECF10FFE0FFE
(1489596361.390504) can0 186#140401F981F70000
(1489596361.390724) can0 187#D71408C800C00300
(1489596361.390974) can0 3A8#010014B000000000
(1489596361.391099) can0 41D#8000E00000000000
(1489596361.391349) can0 4B0#010080007008E8DA
(1489596361.392112) can0 167#72804010001A0200
(1489596361.392503) can0 202#04F2500060000000
(1489596361.392754) can0 204#C0007D0176000000
(1489596361.393005) can0 455#A000000000000000
(1489596361.393629) can0 085#7D04800082808F65
(1489596361.396503) can0 242#06CB203BD1000001
(1489596361.397754) can0 091#7EF47EF49481F000
(1489596361.398006) can0 092#6FFB6FC0736C1D81
(1489596361.398253) can0 217#0000000000000000
(1489596361.398878) can0 05A#00000045ED710000
(1489596361.399378) can0 083#0020000000000000
(1489596361.399630) can0 2A1#FFFFFFFF00000000
(1489596361.402004) can0 047#2000000000000000
(1489596361.402253) can0 165#20C0000000000000
(1489596361.402503) can0 167#72804010001A0200
(1489596361.403003) can0 200#0000804280420000
(1489596361.403253) can0 202#04F1580060000000
(1489596361.403503) can0 204#C0007D0176000000
(1489596361.403723) can0 082#830854048D804000
(1489596361.404003) can0 085#7D04800081908F65
(1489596361.404254) can0 230#100600007C000000
(1489596361.404503) can0 078#0169800000000000
(1489596361.404754) can0 3CC#9000000000000000
(1489596361.404975) can0 42F#7D04002E662B0177
(1489596361.407753) can0 091#7EF47EF59282F000
(1489596361.408019) can0 076#2C1FC0800FFF0000
(1489596361.408267) can0 077#000007FF7FF84A07
(1489596361.408516) can0 07D#011DD9808E9FE7FF
(1489596361.408725) can0 092#6FFD6FBE736A1E82
(1489596361.408977) can0 213#FFFF00048001FF41
(1489596361.409226) can0 214#000000000000F780
(1489596361.409503) can0 216#0502020182000000
(1489596361.409754) can0 217#0000000000000000
(1489596361.410004) can0 186#140401F981F70000
(1489596361.410128) can0 187#D71408C800C00300
(1489596361.410378) can0 3CA#FF80080000000000
(1489596361.410599) can0 3A8#010014B000000000
(1489596361.410974) can0 415#0000F0F00FFE0FFE
(1489596361.411100) can0 41D#8000E00000000000
(1489596361.411349) can0 4B0#010080008008E8D9
(1489596361.412111) can0 167#72804010001A0300
(1489596361.412503) can0 202#04F0600060000000
(1489596361.412628) can0 204#C0007D0176000000
(1489596361.413613) can0 085#7D04800080A08F65
(1489596361.416752) can0 350#0000000000000000
(1489596361.417504) can0 3E0#0000000080000000
(1489596361.417753) can0 091#7EF47EF69083F000
(1489596361.418003) can0 092#6FFD6FBD73672183
(1489596361.418253) can0 217#0000000000000000
(1489596361.419378) can0 33B#0000000000000000
(1489596361.422004) can0 047#2000000000000000
(1489596361.422253) can0 165#20C0000000000000
(1489596361.422503) can0 167#72804310001A0300
(1489596361.422754) can0 200#0000804380430000
(1489596361.422974) can0 202#04EF680060000000
(1489596361.423253) can0 204#C0007D0176000000
(1489596361.423503) can0 230#100600007C000000
(1489596361.423754) can0 082#830854048D804000
(1489596361.424003) can0 085#7D0480007FB08F65
(1489596361.424252) can0 078#0068000000000000
(1489596361.426507) can0 42C#8C4000000B500000
(1489596361.427753) can0 091#7EF47EF78E84F000
(1489596361.428003) can0 076#2C1FC0800FFF0000
(1489596361.428254) can0 077#000007FF7FF84E07
(1489596361.428503) can0 07D#011DD8908E9FE7FF
(1489596361.428754) can0 092#6FFB6FBD736A1F84
(1489596361.428974) can0 213#FFFF00048001FF41
(1489596361.429224) can0 214#000000000000F690
(1489596361.429503) can0 216#0502020182000000
(1489596361.429628) can0 217#0000000000000000
(1489596361.430002) can0 186#140401F981F70000
(1489596361.430128) can0 187#D71408C800C00300
(1489596361.430378) can0 18A#0020180113000000
(1489596361.430628) can0 415#0000F4EF0FFE0FFE
(1489596361.430878) can0 41D#8000E00000000000
(1489596361.431099) can0 3A8#010014B000000000
(1489596361.431349) can0 4B0#010080009008E8D8
(1489596361.432111) can0 167#72804310001A0300
(1489596361.432628) can0 202#04EE700060000000
(1489596361.432878) can0 204#C0007D0175000000
(1489596361.433130) can0 261#0000000000000000
(1489596361.433349) can0 42F#7D04002E662C0177
(1489596361.433599) can0 085#7D0480007EC08F65
(1489596361.433849) can0 3CC#9000000000000000
(1489596361.435862) can0 05D#835AA3652D000000
(1489596361.436736) can0 242#06CB203CD1000001
(1489596361.437812) can0 091#7EF47EF88C85F000
(1489596361.438060) can0 092#6FF86FBD736B2085
(1489596361.438312) can0 217#0000000000000000
(1489596361.439020) can0 3CA#FF80080000000000
(1489596361.442010) can0 047#2000000000000000
(1489596361.442254) can0 165#20C0000000000000
(1489596361.442503) can0 167#72804310001A0300
(1489596361.442754) can0 200#0000804580450000
(1489596361.443004) can0 202#04ED780060000000
(1489596361.443255) can0 204#C0007D0175000000
(1489596361.443475) can0 230#100600007C000000
(1489596361.443757) can0 082#830854048D804000
(1489596361.444059) can0 085#7D0480007DD08F65
(1489596361.444311) can0 078#0168800000000000
(1489596361.447810) can0 091#7EF67EF98886F000
(1489596361.448060) can0 076#2C1FC0800FFF0000
(1489596361.448310) can0 077#000007FF7FF84A06
(1489596361.448560) can0 07D#011DD7A08E9FE7FF
(1489596361.448772) can0 092#6FF86FBE73672286
(1489596361.448983) can0 213#FFFF00048001FF41
(1489596361.449257) can0 214#000000000000F5A0
(1489596361.449501) can0 216#0502020182000000
(1489596361.449755) can0 186#140401F981F70000
(1489596361.450005) can0 187#D71408C800C00300
(1489596361.450130) can0 217#0000000000000000
(1489596361.450379) can0 3A8#010014B000000000
(1489596361.450601) can0 415#0000F8EE0FFE0FFE
(1489596361.450977) can0 41D#8000E00000000000
(1489596361.451129) can0 4B0#01008000A008E8D7
(1489596361.452131) can0 167#72804410001A0300
(1489596361.452504) can0 202#04FC000060000000
(1489596361.452758) can0 204#C0007D0175000000
(1489596361.453633) can0 085#7D0480007CE08F65
(1489596361.457757) can0 217#0000000000000000
(1489596361.458057) can0 091#7EF87EF98587F000
(1489596361.458268) can0 092#6FFA6FBF73652087
(1489596361.462073) can0 047#2000000000000000
(1489596361.462302) can0 05C#001000FB201E0000
(1489596361.462533) can0 165#20C0000000000000
(1489596361.462784) can0 167#72804410001A0300
(1489596361.463256) can0 200#0000804580450000
(1489596361.463504) can0 202#04FB080060000000
(1489596361.463753) can0 082#830854048D804000
(1489596361.464003) can0 085#7D0480007BF08F65
(1489596361.464253) can0 078#0168800000000000
(1489596361.464503) can0 204#C0007D0175000000
(1489596361.464754) can0 230#100600007C000000
(1489596361.465001) can0 3CC#9000000000000000
(1489596361.465255) can0 422#000000923802FE02
(1489596361.465372) can0 423#9360000000000000
(1489596361.465626) can0 42F#7D04002E662D0177
(1489596361.466001) can0 430#370012ADC8897700
(1489596361.466121) can0 431#057D004F91800002
(1489596361.467751) can0 091#7EF87EF98488F000
(1489596361.468034) can0 076#2C1FC0800FFF0000
(1489596361.468252) can0 077#000008007FF84607
(1489596361.468501) can0 07D#011DD6B08E9FD7FF
(1489596361.468751) can0 092#6FFB6FC0736A1888
(1489596361.469008) can0 213#FFFF00048001FF41
(1489596361.469252) can0 214#000000000000F4B0
(1489596361.469501) can0 216#0502020182000000
(1489596361.469751) can0 217#0000000000000000
(1489596361.470002) can0 186#140401F981F70000
(1489596361.470124) can0 187#D61408C800D00300
(1489596361.470374) can0 3A8#010014B000000000
(1489596361.470626) can0 3CA#FF80080000000000
(1489596361.471000) can0 415#0000FCED0FFE0FFE
(1489596361.471121) can0 416#9300FA0001000000
(1489596361.471375) can0 41D#8000E00000000000
(1489596361.471627) can0 4B0#01008000B008E8D6
(1489596361.472126) can0 167#72804410001A0300
(1489596361.472375) can0 202#04FA100060000000
(1489596361.472750) can0 204#C0007D0176000000
(1489596361.473628) can0 085#7D0480008A008F65
(1489596361.476501) can0 242#06CB203CD1000001
(1489596361.476825) can0 40A#C104014107F670C1
(1489596361.477033) can0 42C#8C4000000B500000
(1489596361.477780) can0 04A#0200000000000000
(1489596361.478029) can0 04B#00C0D8D8D8D8C000
(1489596361.478278) can0 04C#20AFFFC000000000
(1489596361.478499) can0 091#7EF57EF88789F000
(1489596361.478749) can0 092#6FFC6FBF736D1489
(1489596361.478998) can0 217#0000000000000000
(1489596361.479372) can0 33B#0000000000000000
(1489596361.482002) can0 047#2000000000000000
(1489596361.482528) can0 165#20C0000000000000
(1489596361.483028) can0 167#72804410001A0300
(1489596361.483278) can0 178#000002000E76CA76
(1489596361.483527) can0 082#830854048D804000
(1489596361.483778) can0 085#7D04800089108F65
(1489596361.483999) can0 200#0000804380430000
(1489596361.484247) can0 202#04F9180060000000
(1489596361.484497) can0 078#0468000000000000
(1489596361.484747) can0 204#C0007D0176000000
(1489596361.485001) can0 230#100600007C000000
(1489596361.485248) can0 261#0000000000000000
(1489596361.487748) can0 091#7EF47EF6898AF000
(1489596361.488081) can0 076#2C1FC0800FFF0000
(1489596361.488278) can0 077#000008007FF84A07
(1489596361.488535) can0 07D#011DD5C08E9FE800
(1489596361.488753) can0 092#6FFC6FBD736A188A
(1489596361.489007) can0 213#FFFF00048001FF41
(1489596361.489121) can0 214#000000000000F3C0
(1489596361.489374) can0 216#0502020182000000
(1489596361.489625) can0 186#140401F981F70000
(1489596361.490001) can0 187#D61408C800D00300
(1489596361.490124) can0 217#0000000000000000
(1489596361.490374) can0 415#0000C0FC0FFE0FFE
(1489596361.490624) can0 3A8#010014B000000000
(1489596361.490873) can0 41D#8000E00000000000
(1489596361.491123) can0 4B0#01008000C008E8D5
(1489596361.492000) can0 167#72804410001A0300
(1489596361.492499) can0 202#04F8200060000000
(1489596361.492749) can0 204#C0007D0176000000
(1489596361.493002) can0 42F#7D04002E662D0177
(1489596361.493249) can0 455#A000000000000000
(1489596361.493624) can0 085#7D04800088208F65
(1489596361.493875) can0 3CC#9000000000000000
(1489596361.497751) can0 091#7EF47EF48A8BF000
(1489596361.498075) can0 092#6FFB6FBC73681B8B
(1489596361.498278) can0 217#0000000000000000
(1489596361.498783) can0 05A#00000045F3110000
(1489596361.499075) can0 3CA#FF80080000000000
(1489596361.499412) can0 083#0020000000000000
(1489596361.499659) can0 2A1#FFFFFFFF00000000
(1489596361.502040) can0 047#2000000000000000
(1489596361.502331) can0 165#20C0000000000000
(1489596361.502533) can0 167#72804410001A0300
(1489596361.502784) can0 200#0000804280420000
(1489596361.503034) can0 202#04F7280060000000
(1489596361.503252) can0 204#C0007D0176000000
(1489596361.503500) can0 230#100600007C000000
(1489596361.503749) can0 082#830854048D804000
(1489596361.504000) can0 085#7D04800087308F65
(1489596361.504248) can0 078#0169800000000000
(1489596361.507754) can0 091#7EF47EF4898CF000
(1489596361.508078) can0 076#2C1FC0800FFF0000
(1489596361.508278) can0 077#000007FF7FF84E06
(1489596361.508576) can0 07D#011DD4D08E9FE7FF
(1489596361.508778) can0 092#6FF96FBC736A1A8C
(1489596361.509036) can0 213#FFFF00048001FF41
(1489596361.509123) can0 186#140401F981F70000
(1489596361.509374) can0 187#D61408C800D00300
(1489596361.509623) can0 214#000000000000F2D0
(1489596361.509998) can0 216#0502020182000000
(1489596361.510122) can0 217#0000000000000000
(1489596361.510374) can0 415#0000C4FB0FFE0FFE
(1489596361.510624) can0 3A8#010014B000000000
(1489596361.510875) can0 41D#8000E00000000000
(1489596361.511124) can0 4B0#01008000D008E8D4
(1489596361.512000) can0 167#72804410001A0300
(1489596361.512248) can0 202#04F6300060000000
(1489596361.512499) can0 204#C0007D0178000000
(1489596361.513628) can0 085#7D04800086408F65
(1489596361.516625) can0 242#06CB203DD1000001
(1489596361.517829) can0 217#0000000000000000
(1489596361.518028) can0 091#7EF47EF4888DF000
(1489596361.518326) can0 092#6FFB6FBC736C158D
(1489596361.522081) can0 047#2000000000000000
(1489596361.522278) can0 165#20C0000000000000
(1489596361.522575) can0 167#72804410001A0300
(1489596361.523074) can0 200#0000804280420000
(1489596361.523278) can0 202#04F5380060000000
(1489596361.523576) can0 204#C0007D0178000000
(1489596361.523778) can0 082#830854048D804000
(1489596361.524034) can0 085#7D04800085508F65
(1489596361.524284) can0 078#0168800000000000
(1489596361.524502) can0 230#100600007C000000
(1489596361.524744) can0 3CC#9000000000000000
(1489596361.525004) can0 42F#7D04002E662D0177
(1489596361.526624) can0 42C#8C4000000B500000
(1489596361.527408) can0 091#7EF47EF4878EF000
(1489596361.527786) can0 092#6FFD6FBC7369158E
(1489596361.528004) can0 076#2C1FC0800FFF0000
(1489596361.528251) can0 077#000007FF7FF84A06
(1489596361.528499) can0 07D#011DD3E08E9FE7FF
(1489596361.528749) can0 213#FFFF00048001FF41
(1489596361.529003) can0 186#140401F981F70000
(1489596361.529249) can0 187#D61408C800D00300
(1489596361.529499) can0 18A#0020180113000000
(1489596361.529749) can0 214#000000000000F1E0
(1489596361.529999) can0 216#0502020182000000
(1489596361.530248) can0 217#0000000000000000
(1489596361.530499) can0 3A8#010014B000000000
(1489596361.530623) can0 3CA#FF80080000000000
(1489596361.530999) can0 415#0000C8FA0FFE0FFE
(1489596361.531124) can0 41D#8000E00000000000
(1489596361.531373) can0 4B0#01008000E008E8D3
(1489596361.532123) can0 167#72804510001A0300
(1489596361.532499) can0 202#04F4400060000000
(1489596361.532752) can0 204#C0007D0178000000
(1489596361.533001) can0 261#0000000000000000
(1489596361.533624) can0 085#7D04800084608F65
(1489596361.535875) can0 05D#835A8B6533000000
(1489596361.537785) can0 217#0000000000000000
(1489596361.538075) can0 091#7EF47EF4868FF000
(1489596361.538278) can0 092#6FFE6FBD7368138F
(1489596361.539407) can0 33B#0000000000000000
(1489596361.542079) can0 047#2000000000000000
(1489596361.542281) can0 165#20C0000000000000
(1489596361.542575) can0 167#72804310001A0300
(1489596361.542778) can0 200#0000803F803F0000
(1489596361.543074) can0 202#04F3480060000000
(1489596361.543278) can0 204#C0007D0178000000
(1489596361.543534) can0 230#100600007C000000
(1489596361.543754) can0 082#830854048D804000
(1489596361.543998) can0 085#7D04800083708F65
(1489596361.544248) can0 078#0068000000000000
(1489596361.547754) can0 076#2C1FC0800FFF0000
(1489596361.548075) can0 077#000007FF7FF84E06
(1489596361.548279) can0 07D#011DD2F08E9FE7FF
(1489596361.548577) can0 091#7EF17EF48890F000
(1489596361.548781) can0 092#6FFC6FBE736D0E90
(1489596361.549036) can0 186#140401F981F70000
(1489596361.549253) can0 187#D61408C800D00300
(1489596361.549498) can0 213#FFFF00048001FF41
(1489596361.549748) can0 214#000000000000F0F0
(1489596361.549998) can0 216#0502020182000000
(1489596361.550248) can0 217#0000000000000000
(1489596361.550374) can0 3A8#010014B000000000
(1489596361.550627) can0 415#0000CCF90FFE0FFE
(1489596361.551000) can0 41D#8000E00000000000
(1489596361.551124) can0 4B0#01008000F008E8D2
(1489596361.551999) can0 167#72804310001A0300
(1489596361.552499) can0 202#04F2500060000000
(1489596361.552748) can0 204#C0007D0177000000
(1489596361.553002) can0 42F#7D04002E662C0177
(1489596361.553624) can0 085#7D04800082808F65
(1489596361.553873) can0 3CC#9000000000000000
(1489596361.556624) can0 242#06CB203CD1000001
(1489596361.557829) can0 091#7EF07EF48891F000
(1489596361.558029) can0 092#6FFA6FBD736F0E91
(1489596361.558325) can0 217#0000000000000000
(1489596361.559034) can0 3CA#FF80080000000000
(1489596361.562041) can0 047#2000000000000000
(1489596361.562334) can0 05C#00B000F1201E0000
(1489596361.562528) can0 165#20C0000000000000
(1489596361.562825) can0 167#72804310001A0300
(1489596361.563028) can0 200#0000804280420000
(1489596361.563284) can0 202#04F1580060000000
(1489596361.563534) can0 204#C0007D0177000000
(1489596361.563751) can0 082#830854048D804000
(1489596361.564001) can0 085#7D04800081908F65
(1489596361.564249) can0 078#0168800000000000
(1489596361.564498) can0 230#100600007C000000
(1489596361.564749) can0 422#000000923802FE02
(1489596361.565027) can0 423#9360000000000000
(1489596361.565267) can0 430#370012ADC8897700
(1489596361.567740) can0 076#2C1FC0800FFF0000
(1489596361.567989) can0 077#000007FF7FF84E07
(1489596361.568239) can0 07D#011DE1008E9FF7FF
(1489596361.568488) can0 091#7EF37EF58392F000
(1489596361.568738) can0 092#6FFA6FBC73691492
(1489596361.569041) can0 186#140401F981F70000
(1489596361.569279) can0 187#D51408C800E00300
(1489596361.569526) can0 213#FFFF00048001FF41
(1489596361.569776) can0 214#000000000000FF00
(1489596361.570026) can0 216#0502020182000000
(1489596361.570275) can0 217#0000000000000000
(1489596361.570525) can0 3A8#010014B000000000
(1489596361.570776) can0 415#0000D0F80FFE0FFE
(1489596361.571005) can0 416#9400F90001000000
(1489596361.571113) can0 41D#8000E00000000000
(1489596361.571362) can0 4B0#010080000008E8E1
(1489596361.572237) can0 167#72804210001A0300
(1489596361.572488) can0 202#04F0600060000000
(1489596361.572737) can0 204#C0007D0177000000
(1489596361.573632) can0 085#7D04800080A08F65
(1489596361.576631) can0 42C#8C4000000B500000
(1489596361.577466) can0 04A#0200000000000000
(1489596361.577664) can0 04B#00C0D8D8D8D8C000
(1489596361.577926) can0 04C#20AFFFC000000000
(1489596361.578173) can0 091#7EF47EF48293F000
(1489596361.578422) can0 092#6FFB6FBB73661693
(1489596361.578633) can0 217#0000000000000000
(1489596361.582314) can0 047#2000000000000000
(1489596361.582687) can0 3A7#0E400A085F700000
(1489596361.583062) can0 165#20C0000000000000
(1489596361.583311) can0 167#72804210001A0300
(1489596361.583664) can0 082#830854048D804000
(1489596361.583757) can0 085#7D0480007FB08F65
(1489596361.584038) can0 178#000002000E76CA76
(1489596361.584313) can0 078#0368800000000000
(1489596361.584539) can0 3CC#9000000000000000
(1489596361.584740) can0 200#0000804280420000
(1489596361.585036) can0 202#04EF680060000000
(1489596361.585284) can0 204#C0007D0177000000
(1489596361.585518) can0 230#100600007C000000
(1489596361.585737) can0 261#0000000000000000
(1489596361.586625) can0 42F#7D04002E662C0177
(1489596361.587786) can0 091#7EF47EF48194F000
(1489596361.588059) can0 076#2C1FC0800FFF0000
(1489596361.588287) can0 077#000007FF7FF84A06
(1489596361.588539) can0 07D#011DE0108E9FE7FF
(1489596361.588769) can0 092#6FFB6FBC73691194
(1489596361.588988) can0 186#140401F981F70000
(1489596361.589236) can0 187#D51408C800E00300
(1489596361.589486) can0 213#FFFF00048001FF41
(1489596361.589736) can0 214#000000000000FE10
(1489596361.589986) can0 216#0502020182000000
(1489596361.590111) can0 217#0000000000000000
(1489596361.590361) can0 3A6#0E400A085F700000
(1489596361.590611) can0 3A8#010014B000000000
(1489596361.590999) can0 3CA#FF80080000000000
(1489596361.591104) can0 415#0000D4F70FFE0FFE
(1489596361.591363) can0 41D#8000E00000000000
(1489596361.591614) can0 4B0#010080001008E8E0
(1489596361.592125) can0 167#72804110001A0300
(1489596361.592362) can0 202#04EE700060000000
(1489596361.592612) can0 204#C0007D0178000000
(1489596361.592989) can0 455#A000000000000000
(1489596361.593625) can0 085#7D0480007EC08F65
(1489596361.596625) can0 242#06CB203BD1000001
(1489596361.597845) can0 091#7EF37EF48195F000
(1489596361.598096) can0 092#6FFA6FBD736B0E95
(1489596361.598352) can0 217#0000000000000000
(1489596361.598843) can0 05A#00000045E9B10000
(1489596361.599592) can0 083#0020000000000000
(1489596361.599792) can0 2A1#FFFFFFFF00000000
(1489596361.600038) can0 33B#0000000000000000
(1489596361.602025) can0 047#2000000000000000
(1489596361.602469) can0 165#20C0000000000000
(1489596361.602492) can0 167#72804110001A0300
(1489596361.602842) can0 200#0000803F803F0000
(1489596361.603213) can0 202#04ED780060000000
(1489596361.603249) can0 204#C0007D0178000000
(1489596361.603563) can0 230#100600007C000000
(1489596361.603788) can0 082#830854048D804000
(1489596361.604038) can0 085#7D0480007DD08F65
(1489596361.604286) can0 078#0469000000000000
(1489596361.607398) can0 091#7EF47EF47F96F000
(1489596361.607792) can0 092#6FFB6FBC73681096
(1489596361.608037) can0 076#2C1FC0800FFF0000
(1489596361.608289) can0 077#000007FF7FF84A06
(1489596361.608539) can0 07D#011DDF208E9FE7FF
(1489596361.608787) can0 186#140401F981F70000
(1489596361.609038) can0 187#D51408C800E00300
(1489596361.609285) can0 213#FFFF00048001FF41
(1489596361.609537) can0 214#000000000000FD20
(1489596361.609786) can0 216#0502020182000000
(1489596361.610036) can0 217#0000000000000000
(1489596361.610286) can0 3A8#010014B000000000
(1489596361.610414) can0 415#0000D8F60FFE0FFE
(1489596361.610662) can0 41D#8000E00000000000
(1489596361.611036) can0 4B0#010080002008E8DF
(1489596361.612040) can0 167#72804110001A0300
(1489596361.612537) can0 202#04FC000060000000
(1489596361.612786) can0 204#C0007D0178000000
(1489596361.613038) can0 42F#7D04002E662C0177
(1489596361.613663) can0 085#7D0480007CE08F65
(1489596361.613914) can0 3CC#9000000000000000
(1489596361.617396) can0 091#7EF77EF47B97F000
(1489596361.617842) can0 092#6FFB6FBD73680E97
(1489596361.618040) can0 217#0000000000000000
(1489596361.619039) can0 3CA#FF80080000000000
(1489596361.622095) can0 047#2000000000000000
(1489596361.622350) can0 165#20C0000000000000
(1489596361.622597) can0 167#72804210001A0300
(1489596361.622848) can0 200#0000803F803F0000
(1489596361.623096) can0 202#04FB080060000000
(1489596361.623311) can0 204#C0007D0178000000
(1489596361.623540) can0 230#100600007C000000
(1489596361.623762) can0 082#830854048D804000
(1489596361.623989) can0 078#0168800000000000
(1489596361.624238) can0 085#7D0480007BF08F65
(1489596361.626149) can0 42C#8C4000000B500000
(1489596361.627837) can0 186#140401F981F70000
(1489596361.628087) can0 076#2C1FC0800FFF0000
(1489596361.628287) can0 077#000007FF7FF84A06
(1489596361.628535) can0 07D#011DDE308E9FD7FF
(1489596361.628786) can0 091#7EF57EF47C98F000
(1489596361.629038) can0 092#6FFA6FBF736C0898
(1489596361.629164) can0 187#D51408C800E00300
(1489596361.629409) can0 18A#0020180113000000
(1489596361.629661) can0 213#FFFF00048001FF41
(1489596361.630036) can0 214#000000000000FC30
(1489596361.630160) can0 216#0502020182000000
(1489596361.630411) can0 217#0000000000000000
(1489596361.630659) can0 3A8#010014B000000000
(1489596361.630909) can0 415#0000DCF50FFE0FFE
(1489596361.631160) can0 41D#8000E00000000000
(1489596361.631409) can0 4B0#010080003008E8DE
(1489596361.632162) can0 167#72804210001A0300
(1489596361.632410) can0 202#04FA100060000000
(1489596361.632659) can0 204#C0007D0178000000
(1489596361.633014) can0 261#0000000000000000
(1489596361.633632) can0 085#7D0480008A008F65
(1489596361.635882) can0 05D#835AB36529000000
(1489596361.636780) can0 242#06CB203BD1000001
(1489596361.637783) can0 217#0000000000000000
(1489596361.638030) can0 091#7EF37EF47D99F000
(1489596361.638280) can0 092#6FFB6FBF736F0399
(1489596361.642031) can0 047#2000000000000000
(1489596361.642406) can0 165#20C0000000000000
(1489596361.642535) can0 167#72804210001A0300
(1489596361.643031) can0 200#0000803F803F0000
(1489596361.643281) can0 202#04F9180060000000
(1489596361.643530) can0 204#C0007D0178000000
(1489596361.643780) can0 082#830854048D804000
(1489596361.644030) can0 078#0168800000000000
(1489596361.644256) can0 085#7D04800089108F65
(1489596361.644505) can0 230#100600007C000000
(1489596361.644757) can0 3CC#9000000000000000
(1489596361.645008) can0 42F#7D04002E662C0177
(1489596361.647631) can0 186#140401F981F70000
(1489596361.647905) can0 076#2C1FC0800FFF0000
(1489596361.648155) can0 077#000007FF7FF84A07
(1489596361.648405) can0 07D#011DDD408E9FF7FF
(1489596361.648503) can0 091#7EF27EF47D9AF000
(1489596361.648755) can0 092#6FFD6FBF736C039A
(1489596361.649008) can0 187#D51408C800E00300
(1489596361.649255) can0 213#FFFF00048001FF41
(1489596361.649506) can0 214#000000000000FB40
(1489596361.649755) can0 216#0502020182000000
(1489596361.650005) can0 217#0000000000000000
(1489596361.650256) can0 3A8#010014B000000000
(1489596361.650506) can0 3CA#FF80080000000000
(1489596361.650755) can0 415#0000E0F40FFE0FFE
(1489596361.651005) can0 41D#8000E00000000000
(1489596361.651255) can0 4B0#010080004008E8DD
(1489596361.652006) can0 167#72804210001A0200
(1489596361.652255) can0 202#04F8200060000000
(1489596361.652506) can0 204#C0007D0178000000
(1489596361.653606) can0 085#7D04800088208F65
(1489596361.657756) can0 217#0000000000000000
(1489596361.658029) can0 091#7EF47EF47A9BF000
(1489596361.658280) can0 092#6FFE6FBF7369049B
(1489596361.659530) can0 33B#0000000000000000
(1489596361.662030) can0 047#2000000000000000
(1489596361.662281) can0 05C#005000F7201E0000
(1489596361.662530) can0 165#20C0000000000000
(1489596361.662780) can0 167#72804010001A0300
(1489596361.663030) can0 200#0000803E803E0000
(1489596361.663256) can0 202#04F7280060000000
(1489596361.663506) can0 204#C0007D0178000000
(1489596361.663756) can0 082#830854048D804000
(1489596361.664006) can0 085#7D04800087308F65
(1489596361.664255) can0 078#0068000000000000
(1489596361.664505) can0 230#100600007C000000
(1489596361.664755) can0 422#000000923802FE02
(1489596361.665008) can0 423#9360000000000000
(1489596361.665255) can0 430#3F0012ADE8897700
(1489596361.667381) can0 091#7EF47EF4799CF000
(1489596361.667756) can0 092#6FFC6FC0736B029C
(1489596361.668006) can0 076#2C1FC0800FFF0000
(1489596361.668255) can0 077#000007FF7FF84E07
(1489596361.668506) can0 07D#011DDC508E9FF7FF
(1489596361.668755) can0 186#140401F981F70000
(1489596361.669007) can0 187#D41408C800F00300
(1489596361.669258) can0 213#FFFF00048001FF41
(1489596361.669505) can0 214#000000000000FA50
(1489596361.669755) can0 216#0502020182000000
(1489596361.670005) can0 217#0000000000000000
(1489596361.670255) can0 3A8#010014B000000000
(1489596361.670375) can0 415#0000E4F30FFE0FFE
(1489596361.670630) can0 416#9500F80001000000
(1489596361.671002) can0 41D#8000E00000000000
(1489596361.671131) can0 4B0#010080005008E8DC
(1489596361.672131) can0 167#72804010001A0300
(1489596361.672631) can0 202#04F6300060000000
(1489596361.673007) can0 204#C0007D0176000000
(1489596361.673133) can0 42F#7D04002E662B0177
(1489596361.673381) can0 456#8000000000000000
(1489596361.673635) can0 085#7D04800086408F65
(1489596361.674005) can0 3CC#9000000000000000
(1489596361.676631) can0 242#06CB203AD1000001
(1489596361.677782) can0 04A#0200000000000000
(1489596361.678029) can0 04B#00C0D8D8D8D8C000
(1489596361.678280) can0 04C#20AFFFC000000000
(1489596361.678530) can0 091#7EF47EF4789DF000
(1489596361.678756) can0 092#6FFC6FBF736B029D
(1489596361.679005) can0 217#0000000000000000
(1489596361.679255) can0 3CA#FF80080000000000
(1489596361.679506) can0 3EB#8D04140000100000
(1489596361.679629) can0 40A#C110409060250000
(1489596361.680005) can0 42C#8C4000000B500000
(1489596361.682038) can0 047#2000000000000000
(1489596361.682533) can0 165#20C0000000000000
(1489596361.683007) can0 167#72804010001A0300
(1489596361.683255) can0 178#000001FF0E76CA76
(1489596361.683506) can0 082#830854048D804000
(1489596361.683755) can0 085#7D04800085508F65
(1489596361.684005) can0 200#0000804380430000
(1489596361.684255) can0 202#04F5380060000000
(1489596361.684505) can0 078#0568800000000000
(1489596361.684756) can0 204#C0007D0176000000
(1489596361.685008) can0 230#100600007C000000
(1489596361.685255) can0 261#0000000000000000
(1489596361.687608) can0 186#140401F981F70000
(1489596361.687757) can0 091#7EF47EF6759EF000
(1489596361.688030) can0 076#2C1FC0800FFF0000
(1489596361.688257) can0 077#000007FF7FF84E07
(1489596361.688506) can0 07D#011DDB608E9FE7FF
(1489596361.688755) can0 092#6FFD6FBD7367069E
(1489596361.689008) can0 187#D41408C800F00300
(1489596361.689255) can0 213#FFFF00048001FF41
(1489596361.689508) can0 214#000000000000F960
(1489596361.689754) can0 216#0502020182000000
(1489596361.690005) can0 217#0000000000000000
(1489596361.690255) can0 415#0000E8F20FFE0FFE
(1489596361.690506) can0 3A8#010014B000000000
(1489596361.690756) can0 41D#8000E00000000000
(1489596361.691005) can0 4B0#010080006008E8DB
(1489596361.692006) can0 167#72804110001A0300
(1489596361.692256) can0 202#04F4400060000000
(1489596361.692505) can0 204#C0007D0176000000
(1489596361.692755) can0 3E2#0000000080000000
(1489596361.693258) can0 455#A000000000000000
(1489596361.693506) can0 085#7D04800084608F65
(1489596361.696629) can0 084#1100004A2E000B00
(1489596361.697783) can0 217#0000000000000000
(1489596361.698030) can0 091#7EF47EF5759FF000
(1489596361.698279) can0 092#6FFD6FBD7364089F
(1489596361.698780) can0 05A#00000045EF510000
(1489596361.699029) can0 168#0000000000000000
(1489596361.699530) can0 083#0020000000000000
(1489596361.699756) can0 2A1#FFFFFFFF00000000
(1489596361.702008) can0 047#2000000000000000
(1489596361.702280) can0 165#20C0000000000000
(1489596361.702529) can0 167#72804110001A0300
(1489596361.703030) can0 200#0000804380430000
(1489596361.703279) can0 202#04F3480060000000
(1489596361.703507) can0 204#C0007D0176000000
(1489596361.703755) can0 082#830854048D804000
(1489596361.704005) can0 085#7D04800083708F65
(1489596361.704254) can0 078#0169800000000000
(1489596361.704505) can0 230#100600007C000000
(1489596361.704754) can0 3CC#9000000000000000
(1489596361.705007) can0 42F#7D04002E662B0177
(1489596361.707130) can0 186#140401F981F70000
(1489596361.707380) can0 187#D41408C800F00300
(1489596361.707630) can0 091#7EF77EF472A0F000
(1489596361.707881) can0 092#6FFB6FBE736804A0
(1489596361.708130) can0 076#2C1FC0800FFF0000
(1489596361.708380) can0 077#000007FF7FF84E06
(1489596361.708502) can0 07D#011DDA708E9FD7FF
(1489596361.708755) can0 213#FFFF00048001FF41
(1489596361.709006) can0 214#000000000000F870
(1489596361.709255) can0 216#0502020182000000
(1489596361.709505) can0 217#0000000000000000
(1489596361.709754) can0 3CA#FF80080000000000
(1489596361.710005) can0 415#0000ECF10FFE0FFE
(1489596361.710255) can0 41D#8000E00000000000
(1489596361.710505) can0 3A8#010014B000000000
(1489596361.710754) can0 4B0#010080007008E8DA
(1489596361.712008) can0 167#72804110001A0300
(1489596361.712379) can0 202#04F2500060000000
(1489596361.712629) can0 204#C0007D0174000000
(1489596361.713632) can0 085#7D04800082808F65
(1489596361.716631) can0 242#06CB2037D1000001
(1489596361.717784) can0 091#7EFA7EF46EA1F000
(1489596361.718032) can0 092#6FF96FBD736905A1
(1489596361.718280) can0 217#0000000000000000
(1489596361.719530) can0 33B#0000000000000000
(1489596361.722031) can0 047#2000000000000000
(1489596361.722400) can0 165#20C0000000000000
(1489596361.722530) can0 167#72804110001A0300
(1489596361.722779) can0 200#0000804880480000
(1489596361.723029) can0 202#04F1580060000000
(1489596361.723279) can0 204#C0007D0174000000
(1489596361.723505) can0 230#100600007C000000
(1489596361.723755) can0 082#830854048D804000
(1489596361.724004) can0 078#0068000000000000
(1489596361.724255) can0 085#7D04800081908F65
(1489596361.726385) can0 42C#8C4000000B500000
(1489596361.727029) can0 186#140401F981F70000
(1489596361.727280) can0 187#D41408C800F00300
(1489596361.727530) can0 18A#0020180113000000
(1489596361.727756) can0 091#7EFA7EF46DA2F000
(1489596361.728005) can0 076#2C1FC0800FFF0000
(1489596361.728255) can0 077#000007FF7FF84A07
(1489596361.728505) can0 07D#011DD9808E9FD7FF
(1489596361.728755) can0 092#6FFA6FBD736408A2
(1489596361.729008) can0 213#FFFF00048001FF41
(1489596361.729256) can0 214#000000000000F780
(1489596361.729377) can0 216#0502020182000000
(1489596361.729630) can0 217#0000000000000000
(1489596361.730004) can0 415#0000F0F00FFE0FFE
(1489596361.730127) can0 41D#8000E00000000000
(1489596361.730380) can0 4B0#010080008008E8D9
(1489596361.730755) can0 3A8#010014B000000000
(1489596361.732005) can0 167#72804110001A0300
(1489596361.732505) can0 202#04F0600060000000
(1489596361.732755) can0 204#C0007D0174000000
(1489596361.733007) can0 261#0000000000000000
(1489596361.733256) can0 42F#7D04002E662C0177
(1489596361.733628) can0 085#7D04800080A08F65
(1489596361.733880) can0 3CC#9000000000000000
(1489596361.735880) can0 05D#835A9B652F000000
(1489596361.737032) can0 169#0083C00000000000
(1489596361.737780) can0 091#7EF47EF472A3F000
(1489596361.738029) can0 092#6FFA6FBD736209A3
(1489596361.738255) can0 217#0000000000000000
(1489596361.739005) can0 3CA#FF80080000000000
(1489596361.742009) can0 047#2000000000000000
(1489596361.742279) can0 165#20C0000000000000
(1489596361.742535) can0 167#72804410001A0300
(1489596361.742779) can0 200#0000804780470000
(1489596361.743006) can0 202#04EF680060000000
(1489596361.743279) can0 204#C0007D0174000000
(1489596361.743529) can0 230#100600007C000000
(1489596361.743780) can0 082#830854048D804000
(1489596361.744029) can0 078#0168800000000000
(1489596361.744279) can0 085#7D0480007FB08F65
(1489596361.746781) can0 186#140401F981F70000
(1489596361.747030) can0 187#D41408C800F00300
(1489596361.747779) can0 091#7EF47EF471A4F000
(1489596361.748029) can0 076#2C1FC0800FFF0000
(1489596361.748280) can0 077#000007FF7FF84A06
(1489596361.748530) can0 07D#011DD8908E9FC800
(1489596361.748757) can0 092#6FFA6FBE736801A4
(1489596361.748982) can0 213#FFFF00048001FF41
(1489596361.749254) can0 214#000000000000F690
(1489596361.749504) can0 216#0502020182000000
(1489596361.749755) can0 217#0000000000000000
(1489596361.750004) can0 415#0000F4EF0FFE0FFE
(1489596361.750254) can0 41D#8000E00000000000
(1489596361.750504) can0 4B0#010080009008E8D8
(1489596361.750754) can0 3A8#010014B000000000
(1489596361.752004) can0 167#72804310001A0300
(1489596361.752379) can0 202#04EE700060000000
(1489596361.752631) can0 204#C0007D0175000000
(1489596361.753507) can0 085#7D0480007EC08F65
(1489596361.756700) can0 242#06CB2037D1000001
(1489596361.757832) can0 217#0000000000000000
(1489596361.758036) can0 091#7EF47EF470A5F000
(1489596361.758277) can0 092#6FFA6FBD736CFDA5
(1489596361.762029) can0 047#2000000000000000
(1489596361.762406) can0 05C#00F000ED201E0000
(1489596361.762511) can0 165#20C0000000000000
(1489596361.762755) can0 167#72804310001A0300
(1489596361.763254) can0 200#0000804780470000
(1489596361.763505) can0 202#04ED780060000000
(1489596361.763755) can0 082#830854048D804000
(1489596361.764004) can0 078#0168800000000000
(1489596361.764258) can0 085#7D0480007DD08F65
(1489596361.764505) can0 204#C0007D0175000000
(1489596361.764755) can0 230#100600007C000000
(1489596361.765010) can0 3CC#9000000000000000
(1489596361.765255) can0 422#000000923802FE02
(1489596361.765505) can0 423#9360000000000000
(1489596361.765754) can0 42F#7D04002E662C0177
(1489596361.766004) can0 430#370012ADC8897700
(1489596361.767005) can0 186#140401F981F70000
(1489596361.767254) can0 187#E31408C800000300
(1489596361.767757) can0 091#7EF47EF46FA6F000
(1489596361.768004) can0 076#2C1FC0800FFF0000
(1489596361.768255) can0 077#000007FF7FF84A07
(1489596361.768505) can0 07D#011DD7A08E9FD7FF
(1489596361.768754) can0 092#6FFB6FBD7369FEA6
(1489596361.769007) can0 213#FFFF00048001FF41
(1489596361.769254) can0 214#000000000000F5A0
(1489596361.769509) can0 216#0502020182000000
(1489596361.769754) can0 217#0000000000000000
(1489596361.770004) can0 3A8#010014B000000000
(1489596361.770254) can0 3CA#FF80080000000000
(1489596361.770375) can0 415#0000F8EE0FFE0FFE
(1489596361.770630) can0 416#9600F70001000000
(1489596361.771005) can0 41D#8000E00000000000
(1489596361.771127) can0 4B0#01008000A008E8D7
(1489596361.772250) can0 167#72804310001A0300
(1489596361.772504) can0 202#04FC000060000000
(1489596361.772749) can0 204#C0007D0175000000
(1489596361.773631) can0 085#7D0480007CE08F65
(1489596361.774630) can0 3A7#0E400A085F700000
(1489596361.776655) can0 3B3#4048001210050002
(1489596361.776906) can0 3C3#60C1000000004000
(1489596361.777155) can0 42C#8C4000000B500000
(1489596361.777403) can0 04A#0200000000000000
(1489596361.777755) can0 04B#00C0D8D8D8D8C000
(1489596361.778005) can0 04C#20AFFFC000000000
(1489596361.778255) can0 091#7EF47EF66CA7F000
(1489596361.778505) can0 092#6FFB6FBE7366FFA7
(1489596361.778755) can0 217#0000000000000000
(1489596361.779506) can0 33B#0000000000000000
(1489596361.782009) can0 047#2000000000000000
(1489596361.782655) can0 165#20C0000000000000
(1489596361.783076) can0 167#72804510001A0300
(1489596361.783291) can0 178#000001FF0E76CA76
(1489596361.783537) can0 082#830854048D804000
(1489596361.783784) can0 085#7D0480007BF08F65
(1489596361.784009) can0 200#0000804480440000
(1489596361.784258) can0 078#0468000000000000
(1489596361.784508) can0 202#04FB080060000000
(1489596361.784757) can0 204#C0007D0175000000
(1489596361.785011) can0 230#100600007C000000
(1489596361.785258) can0 261#0000000000000000
(1489596361.786507) can0 186#140401F981F70000
(1489596361.786757) can0 187#E31408C800000300
(1489596361.787760) can0 091#7EF47EF76AA8F000
(1489596361.788033) can0 076#2C1FC0800FFF0000
(1489596361.788258) can0 077#000007FF7FF84A06
(1489596361.788508) can0 07D#011DD6B08E9FE7FF
(1489596361.788759) can0 092#6FFA6FC07369FAA8
(1489596361.788986) can0 213#FFFF00048001FF41
(1489596361.789110) can0 214#000000000000F4B0
(1489596361.789384) can0 216#0502020182000000
(1489596361.789633) can0 217#0000000000000000
(1489596361.790007) can0 3A6#0E400A085F700000
(1489596361.790116) can0 415#0000FCED0FFE0FFE
(1489596361.790381) can0 41D#8000E00000000000
(1489596361.790634) can0 3A8#010014B000000000
(1489596361.791011) can0 4B0#01008000B008E8D6
(1489596361.792008) can0 167#72804510001A0300
(1489596361.792507) can0 202#04FA100060000000
(1489596361.792758) can0 204#C0007D0178000000
(1489596361.793019) can0 42F#7D04002E662D0177
(1489596361.793247) can0 455#A000000000000000
(1489596361.793623) can0 085#7D0480008A008F65
(1489596361.793744) can0 3CC#9000000000000000
(1489596361.796630) can0 242#06CB203AD1000001
(1489596361.797753) can0 091#7EF47EF66AA9F000
(1489596361.797999) can0 092#6FFB6FC07369F8A9
(1489596361.798249) can0 217#0000000000000000
(1489596361.798874) can0 05A#00000045E5F10000
(1489596361.799124) can0 3CA#FF80080000000000
(1489596361.799498) can0 083#0020000000000000
(1489596361.799751) can0 2A1#FFFFFFFF00000000
(1489596361.802000) can0 047#2000000000000000
(1489596361.802248) can0 165#20C0000000000000
(1489596361.802498) can0 167#72804510001A0300
(1489596361.802750) can0 200#0000804080400000
(1489596361.802995) can0 202#04F9180060000000
(1489596361.803245) can0 204#C0007D0178000000
(1489596361.803496) can0 230#100600007C000000
(1489596361.803750) can0 082#830854048D804000
(1489596361.803998) can0 078#0169800000000000
(1489596361.804248) can0 085#7D04800089108F65
(1489596361.806250) can0 186#140401F981F70000
(1489596361.806530) can0 187#E31408C800000300
(1489596361.807752) can0 091#7EF47EF56AAAF000
(1489596361.808033) can0 076#2C1FC0800FFF0000
(1489596361.808283) can0 077#000007FF7FF84A07
(1489596361.808501) can0 07D#011DD5C08E9FE7FF
(1489596361.808750) can0 092#6FFC6FBF7366FAAA
(1489596361.809002) can0 213#FFFF00048001FF41
(1489596361.809248) can0 214#000000000000F3C0
(1489596361.809497) can0 216#0502020182000000
(1489596361.809748) can0 217#0000000000000000
(1489596361.809997) can0 415#0000C0FC0FFE0FFE
(1489596361.810247) can0 41D#8000E00000000000
(1489596361.810501) can0 4B0#01008000C008E8D5
(1489596361.810623) can0 3A8#010014B000000000
(1489596361.811998) can0 167#72804510001A0300
(1489596361.812247) can0 202#04F8200060000000
(1489596361.812498) can0 204#C0007D0178000000
(1489596361.813629) can0 085#7D04800088208F65
(1489596361.817750) can0 217#0000000000000000
(1489596361.818075) can0 091#7EF77EF467ABF000
(1489596361.818276) can0 092#6FFB6FBF7365FBAB
(1489596361.822078) can0 047#2000000000000000
(1489596361.822278) can0 165#20C0000000000000
(1489596361.822574) can0 167#72804510001A0300
(1489596361.823073) can0 200#0000804080400000
(1489596361.823248) can0 202#04F7280060000000
(1489596361.823532) can0 204#C0007D0178000000
(1489596361.823823) can0 082#830854048D804000
(1489596361.824025) can0 085#7D04800087308F65
(1489596361.824282) can0 078#0168800000000000
(1489596361.824533) can0 230#100600007C000000
(1489596361.824783) can0 3CC#9000000000000000
(1489596361.825035) can0 42F#7D04002E662E0177
(1489596361.826156) can0 186#140401F981F70000
(1489596361.826407) can0 187#E31408C800000300
(1489596361.826659) can0 18A#0020180113000000
(1489596361.826854) can0 42C#8C4000000B500000
(1489596361.827731) can0 091#7EF77EF466ACF000
(1489596361.828026) can0 076#2C1FC0800FFF0000
(1489596361.828250) can0 077#000007FF7FF84E07
(1489596361.828496) can0 07D#011DD4D08E9FD7FF
(1489596361.828747) can0 092#6FFA6FBE736AF7AC
(1489596361.829000) can0 213#FFFF00048001FF41
(1489596361.829121) can0 214#000000000000F2D0
(1489596361.829370) can0 216#0502020182000000
(1489596361.829622) can0 217#0000000000000000
(1489596361.829995) can0 3CA#FF80080000000000
(1489596361.830121) can0 415#0000C4FB0FFE0FFE
(1489596361.830370) can0 41D#8000E00000000000
(1489596361.830619) can0 4B0#01008000D008E8D4
(1489596361.830870) can0 3A8#010014B000000000
(1489596361.831995) can0 167#72804610001A0300
(1489596361.832250) can0 202#04F6300060000000
(1489596361.832622) can0 204#C0007D0179000000
(1489596361.832871) can0 261#0000000000000000
(1489596361.833625) can0 085#7D04800086408F65
(1489596361.835997) can0 05D#8359836536000000
(1489596361.836953) can0 242#06CB203AD1000001
(1489596361.837823) can0 217#0000000000000000
(1489596361.838027) can0 091#7EF47EF468ADF000
(1489596361.838327) can0 092#6FFC6FBB736CF5AD
(1489596361.839658) can0 33B#0000000000000000
(1489596361.842074) can0 047#2000000000000000
(1489596361.842277) can0 165#20C0000000000000
(1489596361.842576) can0 167#72804610001A0300
(1489596361.842781) can0 200#0000803D803D0000
(1489596361.843073) can0 202#04F5380060000000
(1489596361.843279) can0 204#C0007D0179000000
(1489596361.843496) can0 230#100600007C000000
(1489596361.843745) can0 082#830854048D804000
(1489596361.843996) can0 078#0068000000000000
(1489596361.844245) can0 085#7D04800085508F65
(1489596361.846001) can0 186#140401F981F70000
(1489596361.846276) can0 187#E31408C800000300
(1489596361.847776) can0 091#7EF17EF46AAEF000
(1489596361.848026) can0 076#2C1FC0800FFF0000
(1489596361.848276) can0 077#000007FF7FF84A07
(1489596361.848497) can0 07D#011DD3E08E9FE7FF
(1489596361.848747) can0 092#6FFE6FB97369F7AE
(1489596361.848986) can0 213#FFFF00048001FF41
(1489596361.849246) can0 214#000000000000F1E0
(1489596361.849495) can0 216#0502020182000000
(1489596361.849745) can0 217#0000000000000000
(1489596361.849995) can0 3A8#010014B000000000
(1489596361.850120) can0 415#0000C8FA0FFE0FFE
(1489596361.850370) can0 41D#8000E00000000000
(1489596361.850621) can0 4B0#01008000E008E8D3
(1489596361.851996) can0 167#72804610001A0300
(1489596361.852495) can0 202#04F4400060000000
(1489596361.852745) can0 204#C0007D0179000000
(1489596361.852985) can0 42F#7D04002E662C0177
(1489596361.853498) can0 085#7D04800084608F65
(1489596361.853747) can0 3CC#9000000000000000
(1489596361.857758) can0 217#0000000000000000
(1489596361.858056) can0 091#7EF27EF468AFF000
(1489596361.858303) can0 092#6FFF6FBA7367F6AF
(1489596361.858556) can0 596#9600FFFFFFFFFFFF
(1489596361.859080) can0 3CA#FF80080000000000
(1489596361.862043) can0 047#2000000000000000
(1489596361.862294) can0 05C#009000F3201E0000
(1489596361.862545) can0 165#20C0000000000000
(1489596361.862799) can0 167#72804110001A0300
