(1489419474.300793) can0 59E#9E00FFFFFFFFFFFF
(1489419474.301372) can0 078#000A000000000000
(1489419474.301848) can0 422#000000881800FE00
(1489419474.302068) can0 423#F340000000000000
(1489419474.302301) can0 430#0000125608FE2400
(1489419474.302536) can0 431#047500F391800000
(1489419474.302829) can0 43A#0000000000000000
(1489419474.303034) can0 593#9300FFFFFFFFFFFF
(1489419474.305850) can0 3E2#0000000080000000
(1489419474.306371) can0 455#A000000000000000
(1489419474.307345) can0 242#049C1FBDC8000001
(1489419474.309475) can0 047#64A863263DBC0000
(1489419474.309697) can0 05A#00000009EDF10000
(1489419474.309967) can0 168#0000000000000000
(1489419474.312859) can0 05D#20C4B8D15A000000
(1489419474.313891) can0 169#007FC00000000000
(1489419474.316725) can0 3B3#10400000E6000000
(1489419474.318833) can0 5B3#B300FFFFFFFFFFFF
(1489419474.319088) can0 081#0000000000000000
(1489419474.319346) can0 083#0FE0000000900000
(1489419474.319605) can0 2A1#FFFFFFFF00000000
(1489419474.319863) can0 33B#0000000000000000
(1489419474.320122) can0 3E6#0001040880000000
(1489419474.321309) can0 078#000A000000000000
(1489419474.329524) can0 047#64A863263DBC0000
(1489419474.336835) can0 42C#8C0000000B300000
(1489419474.341316) can0 078#000A000000000000
(1489419474.347261) can0 242#049C1F86C7000001
(1489419474.347483) can0 3B3#10400000E6050000
(1489419474.349574) can0 047#64A863263DBC0000
(1489419474.361162) can0 078#020A000000000000
(1489419474.369709) can0 05C#E08C00F3200C0000
(1489419474.369862) can0 047#64A863263DBC0000
(1489419474.372621) can0 350#0000000000000000
(1489419474.373648) can0 3E0#0000000080000000
(1489419474.376805) can0 3EB#6204140339200000
(1489419474.377090) can0 33B#0000000000000000
(1489419474.379657) can0 05C#E09C00F1200D0000
(1489419474.381179) can0 078#000A000000000000
(1489419474.387262) can0 242#049C1F5BC7000001
(1489419474.387447) can0 40A#C1023130373639FF
(1489419474.387718) can0 42C#8C0000000B300000
(1489419474.389625) can0 047#64A863263DBC0000
(1489419474.390101) can0 165#22C0000000000000
(1489419474.390576) can0 167#00800000001A3200
(1489419474.391108) can0 178#00000200063CCA7F
(1489419474.391612) can0 200#0000807280720000
(1489419474.391803) can0 202#04F4500020000000
(1489419474.392074) can0 204#C0007D0000000000
(1489419474.392314) can0 230#0000000081000000
(1489419474.392567) can0 261#0000000000000000
(1489419474.393489) can0 42F#7D04003846F10000
(1489419474.399592) can0 167#00800000001A3200
(1489419474.399893) can0 202#04F3580020000000
(1489419474.400102) can0 204#C0007D0000000000
(1489419474.401244) can0 078#050B800000000000
(1489419474.401483) can0 422#000000882802FE02
(1489419474.401697) can0 423#F360000000000000
(1489419474.401978) can0 431#057C00F390000002
(1489419474.405931) can0 455#A000000000000000
(1489419474.409561) can0 047#64A863263DBC0000
(1489419474.409841) can0 05A#00000009F3910000
(1489419474.410044) can0 165#22C0000000000000
(1489419474.410277) can0 167#00800000001A3200
(1489419474.410513) can0 200#0000807280720000
(1489419474.410859) can0 202#04F2600020000000
(1489419474.411079) can0 204#C0007D0000000000
(1489419474.411316) can0 230#0000000081000000
(1489419474.412864) can0 05D#20C3A0D161000000
(1489419474.417042) can0 083#0FE0000000900000
(1489419474.417290) can0 2A1#FFFFFFFF00000000
(1489419474.419565) can0 167#00800000001A3200
(1489419474.420068) can0 202#04F1680020000000
(1489419474.420316) can0 204#C0007D0000000000
(1489419474.420576) can0 42F#7D04003846DA0000
(1489419474.421304) can0 078#010A800000000000
(1489419474.427174) can0 242#049C1F44C7000001
(1489419474.429597) can0 047#64A863263DBC0000
(1489419474.429910) can0 165#22C0000000000000
(1489419474.430095) can0 167#00800000001A3200
(1489419474.430348) can0 200#0000807280720000
(1489419474.430582) can0 202#04F0700020000000
(1489419474.430891) can0 204#C0007D0000000000
(1489419474.431066) can0 230#0000000081000000
(1489419474.437114) can0 33B#0000000000000000
(1489419474.437526) can0 42C#8C0000000B300000
(1489419474.439649) can0 167#00800000001A3200
(1489419474.439902) can0 202#04EF780020000000
(1489419474.440139) can0 204#C0007D0000000000
(1489419474.440363) can0 261#0000000000000000
(1489419474.441622) can0 078#000A000000000000
(1489419474.448076) can0 596#9600FFFFFFFFFFFF
(1489419474.449623) can0 047#64A863263DBC0000
(1489419474.449903) can0 165#22C0000000000000
(1489419474.450133) can0 167#00800000001A3200
(1489419474.450638) can0 200#0000807280720000
(1489419474.450901) can0 202#04FE000020000000
(1489419474.451109) can0 204#C0007D0000000000
(1489419474.451371) can0 230#0000000081000000
(1489419474.451611) can0 42F#7D04003846D90000
(1489419474.458596) can0 076#3E8044800FFF0000
(1489419474.458828) can0 077#00000FFE7FFFFBFE
(1489419474.459066) can0 07D#01DB2210CDBFEFFE
(1489419474.459304) can0 213#FFFF00040111FF41
(1489419474.459565) can0 214#000000000000FE10
(1489419474.459807) can0 167#00800000001A2C00
(1489419474.459982) can0 216#0000000082000000
(1489419474.460303) can0 202#04FD080020000000
(1489419474.460539) can0 204#C0007D0000000000
(1489419474.460756) can0 217#0000000000000000
(1489419474.461017) can0 415#0000D4F70FFE0FFE
(1489419474.461254) can0 416#9100FC0001000000
(1489419474.461490) can0 41D#8000E00000000000
(1489419474.461756) can0 078#010A800000000000
(1489419474.462020) can0 41E#0000000000000000
(1489419474.462239) can0 4B0#01008000100ED822
(1489419474.468528) can0 217#0000000000000000
(1489419474.468776) can0 242#049C1F34C7000001
(1489419474.469588) can0 047#64A863263DBC0000
(1489419474.469947) can0 05C#E02C00F8200D0000
(1489419474.470183) can0 165#22C0000000000000
(1489419474.470418) can0 167#00800000001A2C00
(1489419474.470651) can0 200#0000807280720000
(1489419474.470923) can0 202#04FC100020000000
(1489419474.471112) can0 204#C0007D0000000000
(1489419474.471389) can0 230#0000000081000000
(1489419474.478637) can0 076#3E8044800FFF0000
(1489419474.478872) can0 077#00000FFE7FFFFBFE
(1489419474.479108) can0 07D#01DA2220E4BFEFFE
(1489419474.479322) can0 213#FFFF00040111FF41
(1489419474.479581) can0 214#000000000000FD20
(1489419474.479819) can0 167#00800000001A2C00
(1489419474.480084) can0 216#0000000082000000
(1489419474.480299) can0 217#0000000000000000
(1489419474.480538) can0 202#04FB180020000000
(1489419474.480802) can0 204#C0007D0000000000
(1489419474.481006) can0 415#0000D8F60FFE0FFE
(1489419474.481229) can0 41D#8000E00000000000
(1489419474.481489) can0 4B0#01008000200ED022
(1489419474.481774) can0 078#010A800000000000
(1489419474.482290) can0 42F#7D04003846C50000
(1489419474.487334) can0 42C#8C0000000B300000
(1489419474.488545) can0 217#0000000000000000
(1489419474.489616) can0 047#64A863263DBC0000
(1489419474.490121) can0 165#22C0000000000000
(1489419474.490590) can0 167#00800000001A3500
(1489419474.490880) can0 178#00000200063CCA7F
(1489419474.491319) can0 200#0000807280720000
(1489419474.491569) can0 202#04F8200060000000
(1489419474.491866) can0 204#C0007D0000000000
(1489419474.492083) can0 230#0000000081000000
(1489419474.492321) can0 261#0000000000000000
(1489419474.497170) can0 33B#0000000000000000
(1489419474.498617) can0 076#3E8044800FFF0000
(1489419474.498925) can0 077#00000FFE7FFFFBFE
(1489419474.499088) can0 07D#01DA2130EABFEFFE
(1489419474.499295) can0 213#FFFF00040111FF41
(1489419474.499557) can0 214#000000000000FC30
(1489419474.499790) can0 167#00800000001A3500
(1489419474.500071) can0 216#0000000082000000
(1489419474.500307) can0 202#04F7280060000000
(1489419474.500569) can0 204#C0007D0000000000
(1489419474.500787) can0 217#0000000000000000
(1489419474.501026) can0 415#0000DCF50FFE0FFE
(1489419474.501239) can0 41D#8000E00000000000
(1489419474.501498) can0 4B0#01008000300ED021
(1489419474.501735) can0 078#040B000000000000
(1489419474.501972) can0 422#000000883802FE02
(1489419474.502235) can0 423#F360000000000000
(1489419474.502471) can0 430#3F00125668FEB700
(1489419474.505938) can0 455#A000000000000000
(1489419474.507585) can0 242#049C1F21C6000001
(1489419474.508660) can0 217#0000000000000000
(1489419474.509686) can0 047#64A863263DBC0000
(1489419474.509957) can0 05A#00000009F9310000
(1489419474.510129) can0 165#22C0000000000000
(1489419474.510371) can0 167#00800000001A3500
(1489419474.510942) can0 200#0000807180710000
(1489419474.511088) can0 202#04F6300060000000
(1489419474.511347) can0 204#C0007D0000000000
(1489419474.511587) can0 230#0000000081000000
(1489419474.511867) can0 42F#7D04003846E20000
(1489419474.512870) can0 05D#20C388D167000000
(1489419474.517159) can0 083#0FE0000000900000
(1489419474.517481) can0 2A1#FFFFFFFF00000000
(1489419474.518702) can0 076#3E8044800FFF0000
(1489419474.518949) can0 077#00000FFE7FFFFBFE
(1489419474.519179) can0 07D#01D82240EC3FEFFE
(1489419474.519414) can0 213#FFFF00040111FF41
(1489419474.519589) can0 214#000000000000FB40
(1489419474.519881) can0 167#00800000001A3500
(1489419474.520085) can0 216#0000000082000000
(1489419474.520375) can0 202#04F5380060000000
(1489419474.520597) can0 204#C0007D0000000000
(1489419474.520918) can0 217#0000000000000000
(1489419474.521106) can0 415#0000E0F40FFE0FFE
(1489419474.521304) can0 41D#8000E00000000000
(1489419474.521563) can0 4B0#01008000400EC022
(1489419474.521908) can0 078#010A800000000000
(1489419474.528733) can0 217#0000000000000000
(1489419474.529692) can0 047#64A863263DBC0000
(1489419474.529928) can0 165#22C0000000000000
(1489419474.530153) can0 167#00800000001A3500
(1489419474.530344) can0 200#0000807180710000
(1489419474.530579) can0 202#04F4400060000000
(1489419474.530908) can0 204#C0007D0000000000
(1489419474.531149) can0 230#0000000081000000
(1489419474.537317) can0 42C#8C0000000B300000
(1489419474.538717) can0 076#3E8044800FFF0000
(1489419474.538971) can0 077#00000FFE7FFFFBFE
(1489419474.539097) can0 07D#01D82150EC3FEFFE
(1489419474.539436) can0 213#FFFF00040111FF41
(1489419474.539652) can0 214#000000000000FA50
(1489419474.539966) can0 167#00800000001A3500
(1489419474.540094) can0 216#0000000082000000
(1489419474.540406) can0 217#0000000000000000
(1489419474.540627) can0 202#04F3480060000000
(1489419474.540940) can0 204#C0007D0000000000
(1489419474.541062) can0 415#0000E4F30FFE0FFE
(1489419474.541294) can0 41D#8000E00000000000
(1489419474.541582) can0 4B0#01008000500EC021
(1489419474.541857) can0 078#010A800000000000
(1489419474.542107) can0 261#0000000000000000
(1489419474.542655) can0 42F#7D04003846E40000
(1489419474.547327) can0 242#049C1F0BC6000001
(1489419474.548608) can0 217#0000000000000000
(1489419474.549635) can0 047#64A863263DBC0000
(1489419474.549946) can0 165#22C0000000000000
(1489419474.550125) can0 167#00800000001A3500
(1489419474.550350) can0 200#0000807180710000
(1489419474.550587) can0 202#04F2500060000000
(1489419474.550908) can0 204#C0007D0000000000
(1489419474.551150) can0 230#0000000081000000
(1489419474.557220) can0 33B#0000000000000000
(1489419474.558633) can0 076#3E8044800FFF0000
(1489419474.558897) can0 077#00000FFE7FFFFBFE
(1489419474.559093) can0 07D#01D72160EC3FEFFE
(1489419474.559349) can0 213#FFFF00040111FF41
(1489419474.559548) can0 214#000000000000F960
(1489419474.559809) can0 216#0000000082000000
(1489419474.560084) can0 167#00800000001A3100
(1489419474.560321) can0 202#04F1580060000000
(1489419474.560582) can0 204#C0007D0000000000
(1489419474.560777) can0 217#0000000000000000
(1489419474.560976) can0 415#0000E8F20FFE0FFE
(1489419474.561242) can0 416#9200FB0001000000
(1489419474.561499) can0 078#000A000000000000
(1489419474.561735) can0 41D#8000E00000000000
(1489419474.561974) can0 4B0#01008000600EB821
(1489419474.568556) can0 217#0000000000000000
(1489419474.569630) can0 047#64A863263DBC0000
(1489419474.569918) can0 05C#E0CC00EE200D0000
(1489419474.570155) can0 165#22C0000000000000
(1489419474.570390) can0 167#00800000001A3100
(1489419474.570918) can0 200#0000807180710000
(1489419474.571120) can0 202#04F0600060000000
(1489419474.571349) can0 204#C0007D0000000000
(1489419474.571638) can0 230#0000000081000000
(1489419474.571887) can0 42F#7D04003846D80000
(1489419474.578702) can0 076#3E8044800FFF0000
(1489419474.578910) can0 077#00000FFE7FFFFBFE
(1489419474.579144) can0 07D#01D72070EBBFEFFE
(1489419474.579363) can0 213#FFFF00040111FF41
(1489419474.579697) can0 214#000000000000F870
(1489419474.579971) can0 167#00800000001A3100
(1489419474.580166) can0 216#0000000082000000
(1489419474.580384) can0 202#04EF680060000000
(1489419474.580649) can0 204#C0007D0000000000
(1489419474.580921) can0 217#0000000000000000
(1489419474.581087) can0 415#0000ECF10FFE0FFE
(1489419474.581368) can0 41D#8000E00000000000
(1489419474.581605) can0 078#010A800000000000
(1489419474.581924) can0 4B0#01008000700EB820
(1489419474.587286) can0 242#049C1F02C6000001
(1489419474.587563) can0 40A#C104014107F670C1
(1489419474.587827) can0 42C#8C0000000B300000
(1489419474.588676) can0 217#0000000000000000
(1489419474.589671) can0 047#64A863263DBC0000
(1489419474.590159) can0 165#22C0000000000000
(1489419474.590646) can0 167#00800000001A3600
(1489419474.590955) can0 178#000002000E80CA70
(1489419474.591400) can0 200#0000807180710000
(1489419474.591593) can0 202#04EE700060000000
(1489419474.591911) can0 204#C0007D0000000000
(1489419474.592097) can0 230#0000000081000000
(1489419474.592359) can0 261#0000000000000000
(1489419474.598609) can0 076#3E8044800FFF0000
(1489419474.598880) can0 077#00000FFE7FFFFBFE
(1489419474.599143) can0 07D#01D52180EBBFEFFE
(1489419474.599380) can0 213#FFFF00040111FF41
(1489419474.599616) can0 214#000000000000F780
(1489419474.599855) can0 167#00800000001A3600
(1489419474.600044) can0 216#0000000082000000
(1489419474.600280) can0 217#0000000000000000
(1489419474.600547) can0 202#04ED780060000000
(1489419474.600813) can0 204#C0007D0000000000
(1489419474.601050) can0 415#0000F0F00FFE0FFE
(1489419474.601240) can0 41D#8000E00000000000
(1489419474.601500) can0 4B0#01008000800EA821
(1489419474.601736) can0 078#050B800000000000
(1489419474.602011) can0 422#000000883802FE02
(1489419474.602250) can0 423#F360000000000000
(1489419474.602487) can0 430#3700125648FE3700
(1489419474.602722) can0 42F#7D04003846E20000
(1489419474.605935) can0 455#A000000000000000
(1489419474.608586) can0 217#0000000000000000
(1489419474.609640) can0 047#64A863263DBC0000
(1489419474.609952) can0 05A#00000009EFD10000
(1489419474.610162) can0 165#22C0000000000000
(1489419474.610424) can0 167#00800000001A3600
(1489419474.610662) can0 200#0000807180710000
(1489419474.610952) can0 202#04FC000060000000
(1489419474.611215) can0 204#C0007D0000000000
(1489419474.611409) can0 230#0000000081000000
(1489419474.612943) can0 05D#20C3B0D15D000000
(1489419474.617238) can0 083#0FE0000000900000
(1489419474.617446) can0 2A1#FFFFFFFF00000000
(1489419474.617706) can0 33B#0000000000000000
(1489419474.618619) can0 076#3E8044800FFF0000
(1489419474.618853) can0 077#00000FFE7FFFFBFE
(1489419474.619092) can0 07D#01D52090EBBFEFFE
(1489419474.619297) can0 213#FFFF00040111FF41
(1489419474.619576) can0 214#000000000000F690
(1489419474.619810) can0 216#0000000082000000
(1489419474.620034) can0 167#00800000001A3600
(1489419474.620271) can0 202#04FB080060000000
(1489419474.620529) can0 204#C0007D0000000000
(1489419474.620789) can0 217#0000000000000000
(1489419474.621007) can0 415#0000F4EF0FFE0FFE
(1489419474.621270) can0 41D#8000E00000000000
(1489419474.621503) can0 4B0#01008000900EA820
(1489419474.621766) can0 078#000A000000000000
(1489419474.627273) can0 242#049C1F02C7000001
(1489419474.628508) can0 217#0000000000000000
(1489419474.629648) can0 047#64A863263DBC0000
(1489419474.629957) can0 165#22C0000000000000
(1489419474.630185) can0 167#00800000001A3600
(1489419474.630663) can0 200#0000807180710000
(1489419474.630954) can0 202#04FA100060000000
(1489419474.631130) can0 204#C0007D0000000000
(1489419474.631349) can0 230#0000000081000000
(1489419474.631607) can0 42F#7D04003846E60000
(1489419474.636938) can0 42C#8C0000000B300000
(1489419474.638625) can0 076#3E8044800FFF0000
(1489419474.638877) can0 077#00000FFE7FFFFBFE
(1489419474.639116) can0 07D#01D420A0EB3FEFFE
(1489419474.639353) can0 213#FFFF00040111FF41
(1489419474.639612) can0 214#000000000000F5A0
(1489419474.639780) can0 216#0000000082000000
(1489419474.640088) can0 167#00800000001A3600
(1489419474.640299) can0 202#04F9180060000000
(1489419474.640507) can0 204#C0007D0000000000
(1489419474.640794) can0 217#0000000000000000
(1489419474.641043) can0 415#0000F8EE0FFE0FFE
(1489419474.641277) can0 41D#8000E00000000000
(1489419474.641535) can0 261#0000000000000000
(1489419474.641771) can0 078#010A800000000000
(1489419474.642015) can0 4B0#01008000A00EA020
(1489419474.648553) can0 217#0000000000000000
(1489419474.649649) can0 047#64A863263DBC0000
(1489419474.649912) can0 165#22C0000000000000
(1489419474.650169) can0 167#00800000001A3600
(1489419474.650404) can0 200#0000807180710000
(1489419474.650639) can0 202#04F8200060000000
(1489419474.650912) can0 204#C0007D0000000000
(1489419474.651143) can0 230#0000000081000000
(1489419474.658568) can0 076#3E8044800FFF0000
(1489419474.658811) can0 077#00000FFE7FFFFBFE
(1489419474.659052) can0 07D#01D41FB0EB3FEFFE
(1489419474.659315) can0 213#FFFF00040111FF41
(1489419474.659551) can0 214#000000000000F4B0
(1489419474.659791) can0 216#0000000082000000
(1489419474.660026) can0 167#00800000001A3600
(1489419474.660291) can0 217#0000000000000000
(1489419474.660526) can0 202#04F7280060000000
(1489419474.660790) can0 204#C0007D0000000000
(1489419474.661026) can0 415#0000FCED0FFE0FFE
(1489419474.661218) can0 416#9300FA0001000000
(1489419474.661478) can0 41D#8000E00000000000
(1489419474.661718) can0 078#010A800000000000
(1489419474.661994) can0 4B0#01008000B00EA01F
(1489419474.662539) can0 42F#7D04003846E60000
(1489419474.668283) can0 242#049C1F06C7000001
(1489419474.668555) can0 217#0000000000000000
(1489419474.669630) can0 047#64A863263DBC0000
(1489419474.669957) can0 05C#E06C00F4200D0000
(1489419474.670158) can0 165#22C0000000000000
(1489419474.670421) can0 167#00800000001A3600
(1489419474.670658) can0 200#0000807180710000
(1489419474.670941) can0 202#04F6300060000000
(1489419474.671147) can0 204#C0007D0000000000
(1489419474.671391) can0 230#0000000081000000
(1489419474.677230) can0 33B#0000000000000000
(1489419474.678599) can0 076#3E8044800FFF0000
(1489419474.678876) can0 077#00000FFE7FFFFBFE
(1489419474.679047) can0 07D#01D31FC0EABFEFFE
(1489419474.679306) can0 213#FFFF00040111FF41
(1489419474.679542) can0 214#000000000000F3C0
(1489419474.679775) can0 167#00800000001A3600
(1489419474.680029) can0 216#0000000082000000
(1489419474.680266) can0 202#04F5380060000000
(1489419474.680525) can0 204#C0007D0000000000
(1489419474.680784) can0 217#0000000000000000
(1489419474.681030) can0 415#0000C0FC0FFE0FFE
(1489419474.681266) can0 41D#8000E00000000000
(1489419474.681526) can0 078#000A000000000000
(1489419474.681761) can0 4B0#01008000C00E981F
(1489419474.688162) can0 42C#8C0000000B300000
(1489419474.688527) can0 217#0000000000000000
(1489419474.689579) can0 047#64A863263DBC0000
(1489419474.690109) can0 165#22C0000000000000
(1489419474.690579) can0 167#00800000001A3600
(1489419474.691083) can0 178#000002000E80CA71
(1489419474.691553) can0 200#0000807180710000
(1489419474.691869) can0 202#04F4400060000000
(1489419474.692074) can0 204#C0007D0000000000
(1489419474.692307) can0 230#0000000081000000
(1489419474.692570) can0 261#0000000000000000
(1489419474.693501) can0 42F#7D04003846E60000
(1489419474.698589) can0 076#3E8044800FFF0000
(1489419474.698870) can0 077#00000FFE7FFFFBFE
(1489419474.699048) can0 07D#01D31ED0EA3FEFFE
(1489419474.699283) can0 213#FFFF00048111FF41
(1489419474.699544) can0 214#000000000000F2D0
(1489419474.699778) can0 167#00800000001A3600
(1489419474.700032) can0 216#0000000082000000
(1489419474.700268) can0 202#04F3480060000000
(1489419474.700528) can0 204#C0007D0000000000
(1489419474.700762) can0 217#0000000000000000
(1489419474.701006) can0 415#0000C4FB0FFE0FFE
(1489419474.701268) can0 41D#8000E00000000000
(1489419474.701502) can0 078#050B800000000000
(1489419474.701737) can0 422#000000883802FE02
(1489419474.701980) can0 423#F360000000000000
(1489419474.702214) can0 430#3700125648FE3700
(1489419474.702478) can0 4B0#01008000D00E981E
(1489419474.705930) can0 455#A000000000000000
(1489419474.707581) can0 242#049C1F0AC7000001
(1489419474.708529) can0 217#0000000000000000
(1489419474.709581) can0 047#64A863263DBC0000
(1489419474.709872) can0 05A#00000009F5710000
(1489419474.710076) can0 165#22C0000000000000
(1489419474.710309) can0 167#00800000001A3600
(1489419474.710545) can0 200#0000807180710000
(1489419474.710871) can0 202#04F2500060000000
(1489419474.711076) can0 204#C0007D0000000000
(1489419474.711336) can0 230#0000000081000000
(1489419474.712878) can0 05D#20C398D163000000
(1489419474.717218) can0 083#0FE0000000900000
(1489419474.717453) can0 2A1#FFFFFFFF00000000
(1489419474.718557) can0 076#3E8044800FFF0000
(1489419474.718791) can0 077#00000FFE7FFFFBFE
(1489419474.719035) can0 07D#01D31DE0EA3FEFFE
(1489419474.719271) can0 213#FFFF00048111FF41
(1489419474.719530) can0 214#000000000000F1E0
(1489419474.719763) can0 216#0000000082000000
(1489419474.720009) can0 167#00800000001A3600
(1489419474.720245) can0 217#0000000000000000
(1489419474.720504) can0 202#04F1580060000000
(1489419474.720739) can0 204#C0007D0000000000
(1489419474.720983) can0 415#0000C8FA0FFE0FFE
(1489419474.721245) can0 41D#8000E00000000000
(1489419474.721479) can0 4B0#01008000E00E981D
(1489419474.721740) can0 078#010A800000000000
(1489419474.722271) can0 42F#7D04003846E60000
(1489419474.727584) can0 3B3#80400000E6050000
(1489419474.728557) can0 217#0000000000000000
(1489419474.729659) can0 047#64A863263DBC0000
(1489419474.729919) can0 165#22C0000000000000
(1489419474.730175) can0 167#00800000001A3600
(1489419474.730413) can0 200#0000807180710000
(1489419474.730649) can0 202#04F0600060000000
(1489419474.730919) can0 204#C0007D0000000000
(1489419474.731180) can0 230#0000000081000000
(1489419474.736920) can0 3C3#40C1000000004000
(1489419474.737181) can0 42C#8C0000000B300000
(1489419474.737417) can0 33B#0000000000000000
(1489419474.738605) can0 076#3E8044800FFF0000
(1489419474.738919) can0 077#00000FFE7FFFFBFE
(1489419474.739102) can0 07D#01D11EF0EA3FEFFE
(1489419474.739338) can0 213#FFFF00048111FF41
(1489419474.739577) can0 214#000000000000F0F0
(1489419474.739839) can0 216#0000000082000000
(1489419474.740061) can0 05C#E0DC00ED208D0000
(1489419474.740322) can0 167#00800000001A3600
(1489419474.740558) can0 202#04EF680060000000
(1489419474.740782) can0 204#C0007D0000000000
(1489419474.741045) can0 217#0000000000000000
(1489419474.741281) can0 415#0000CCF90FFE0FFE
(1489419474.741518) can0 41D#8000E00000000000
(1489419474.741784) can0 078#000A000000000000
(1489419474.742045) can0 261#0000000000000000
(1489419474.742282) can0 4B0#01008000F00E881E
(1489419474.748378) can0 242#049C1F0CC7000801
(1489419474.748611) can0 217#0000000000000000
(1489419474.749636) can0 047#64A863263DBC0000
(1489419474.749926) can0 165#22C0000000000000
(1489419474.750165) can0 167#00800000001A3600
(1489419474.750637) can0 200#0000807180710000
(1489419474.750921) can0 202#04EE700060000000
(1489419474.751157) can0 204#C0007D0000000000
(1489419474.751378) can0 230#0000000081000000
(1489419474.751617) can0 42F#7D04003846E60000
(1489419474.756312) can0 430#7700125648FE7700
(1489419474.757244) can0 3B3#80480000E6050000
(1489419474.758638) can0 076#3E8044800FFF0000
(1489419474.758922) can0 077#00000FFE7FFFFBFE
(1489419474.759132) can0 07D#01D12D00E9BFEFFE
(1489419474.759368) can0 213#FFFF00048111FF41
(1489419474.759632) can0 214#000000000000FF00
(1489419474.759921) can0 167#00800000001A3600
(1489419474.760106) can0 216#0000000082000000
(1489419474.760327) can0 202#04ED780060000000
(1489419474.760591) can0 204#C0007D0000000000
(1489419474.760827) can0 217#0000000000000000
(1489419474.761074) can0 415#0000D0F80FFE0FFE
(1489419474.761309) can0 416#9400F90001000000
(1489419474.761572) can0 41D#8000E00000000000
(1489419474.761811) can0 078#010A800000000000
(1489419474.762076) can0 4B0#01008000000E882D
(1489419474.768579) can0 217#0000000000000000
(1489419474.769665) can0 047#64A863263DBC0000
(1489419474.769923) can0 05C#E00C00FA208D0000
(1489419474.770185) can0 165#22C0000000000000
(1489419474.770422) can0 167#00800000001A3600
(1489419474.770683) can0 200#0000807180710000
(1489419474.770923) can0 202#04FC000060000000
(1489419474.771135) can0 204#C0007D0000000000
(1489419474.771413) can0 230#0000000081000000
(1489419474.778598) can0 076#3E8040800FFF0000
(1489419474.778879) can0 077#00000FFE7FFFFBFE
(1489419474.779084) can0 07D#01D12C10E9BFEFFE
(1489419474.779318) can0 213#FFFF00048111FF41
(1489419474.779554) can0 214#000000000000FE10
(1489419474.779879) can0 167#00800000001A3600
(1489419474.780058) can0 216#0000000082000000
(1489419474.780292) can0 217#0000000000000000
(1489419474.780554) can0 202#04FB080060000000
(1489419474.780788) can0 204#C0007D0000000000
(1489419474.781042) can0 415#0000D4F70FFE0FFE
(1489419474.781278) can0 41D#8000E00000000000
(1489419474.781538) can0 078#010A800000000000
(1489419474.781773) can0 4B0#01008000100E882C
(1489419474.782304) can0 42F#7D04003846E60000
(1489419474.787279) can0 242#049C9F0EC6000801
(1489419474.787538) can0 3B3#80480000E6050000
(1489419474.787772) can0 40A#C110409060250000
(1489419474.788016) can0 42C#8C0000000B300000
(1489419474.788617) can0 217#0000000000000000
(1489419474.789591) can0 047#64A863263DBC0000
(1489419474.790121) can0 165#22C0000000000000
(1489419474.790565) can0 167#00800000001A3600
(1489419474.790880) can0 178#000002000E80CA71
(1489419474.791319) can0 200#0000807180710000
(1489419474.791555) can0 202#04FA100060000000
(1489419474.791880) can0 204#C0007D0000000000
(1489419474.792059) can0 230#0000000081000000
(1489419474.792319) can0 261#0000000000000000
(1489419474.797303) can0 33B#0000000000000000
(1489419474.798617) can0 076#3E8040800FFF0000
(1489419474.798851) can0 077#00000FFE7FFFFBFE
(1489419474.799092) can0 07D#01D02C20E93FEFFE
(1489419474.799329) can0 213#FFFF00048111FF41
(1489419474.799592) can0 214#000000000000FD20
(1489419474.799814) can0 216#0000000082000000
(1489419474.800051) can0 05C#E03C00F6208E0000
(1489419474.800291) can0 167#20800000001A3600
(1489419474.800524) can0 202#04F9180060000000
(1489419474.800785) can0 204#C0007D0000000000
(1489419474.801052) can0 217#0000000000000000
(1489419474.801288) can0 415#0000D8F60FFE0FFE
(1489419474.801550) can0 078#040B000000000000
(1489419474.801791) can0 41D#8000E00000000000
(1489419474.802026) can0 422#000000883802FE02
(1489419474.802261) can0 423#F360000000000000
(1489419474.802500) can0 430#7700125648FE7700
(1489419474.802762) can0 4B0#01008000200E802C
(1489419474.805544) can0 188#4000000000000000
(1489419474.805951) can0 455#A000000000000000
(1489419474.808576) can0 217#0000000000000000
(1489419474.809671) can0 05A#00000009FB110000
(1489419474.809930) can0 047#64A863263DBC0000
(1489419474.810137) can0 165#22C0000000000000
(1489419474.810399) can0 167#20800000001A3600
(1489419474.810927) can0 200#0000807180710000
(1489419474.811190) can0 202#04F8200060000000
(1489419474.811400) can0 204#C0007D0000000000
(1489419474.811649) can0 230#0000000081000000
(1489419474.811883) can0 42F#7D04003846E60000
(1489419474.812890) can0 05D#20C380D169000000
(1489419474.817258) can0 083#0FE0000000900000
(1489419474.817515) can0 2A1#FFFFFFFF00000000
(1489419474.818569) can0 076#3E8040800FFF0000
(1489419474.818884) can0 077#00000FFE7FFFFBFE
(1489419474.819062) can0 07D#01D02B30E93FEFFE
(1489419474.819294) can0 213#FFFF00048111FF41
(1489419474.819553) can0 214#000000000000FC30
(1489419474.819787) can0 216#0000000082000000
(1489419474.820019) can0 167#20800000001A3600
(1489419474.820277) can0 202#04F7280060000000
(1489419474.820511) can0 204#C0007D0000000000
(1489419474.820769) can0 217#0000000000000000
(1489419474.820994) can0 415#0000DCF50FFE0FFE
(1489419474.821257) can0 41D#8000E00000000000
(1489419474.821490) can0 4B0#01008000300E802B
(1489419474.821750) can0 078#010A800000000000
(1489419474.827284) can0 242#049C9F07C6000801
(1489419474.828522) can0 217#0000000000000000
(1489419474.829684) can0 047#64A863263DBC0000
(1489419474.829943) can0 165#22C0000000000000
(1489419474.830168) can0 167#20800000001A3600
(1489419474.830437) can0 200#0000807180710000
(1489419474.830673) can0 202#04F6300060000000
(1489419474.830929) can0 204#C0007D0000000000
(1489419474.831144) can0 230#0000000081000000
(1489419474.836855) can0 42C#8C0000000B300000
(1489419474.838638) can0 076#3E8040800FFF0000
(1489419474.838858) can0 077#00000FFE7FFFFBFE
(1489419474.839103) can0 07D#01D02A40E8BFEFFE
(1489419474.839340) can0 213#FFFF00048111FF41
(1489419474.839576) can0 214#000000000000FB40
(1489419474.839841) can0 216#0000000082000000
(1489419474.840077) can0 167#20800000001A3600
(1489419474.840315) can0 217#0000000000000000
(1489419474.840556) can0 202#04F5380060000000
(1489419474.840762) can0 204#C0007D0000000000
(1489419474.840998) can0 415#0000E0F40FFE0FFE
(1489419474.841256) can0 41D#8000E00000000000
(1489419474.841524) can0 4B0#01008000400E802A
(1489419474.841786) can0 078#010A800000000000
(1489419474.842031) can0 261#0000000000000000
(1489419474.842270) can0 3A8#0000271000000000
(1489419474.843294) can0 42F#7D04003846E60000
(1489419474.848597) can0 217#0000000000000000
(1489419474.849765) can0 047#2000000000000000
(1489419474.849973) can0 165#22C0000000000000
(1489419474.850235) can0 167#20800000001A3600
(1489419474.850472) can0 200#0000807180710000
(1489419474.850707) can0 202#04F4400060000000
(1489419474.850975) can0 204#C0007D0000000000
(1489419474.851195) can0 230#0000000081000000
(1489419474.857327) can0 33B#0000000000000000
(1489419474.858634) can0 076#3E8040800FFF0000
(1489419474.858862) can0 077#00000FFE7FFFFBFE
(1489419474.859105) can0 07D#01CF2A50E83FEFFE
(1489419474.859343) can0 213#FFFF00048111FF41
(1489419474.859578) can0 214#000000000000FA50
(1489419474.859843) can0 216#0000000082000000
(1489419474.860080) can0 167#20800000001A3600
(1489419474.860265) can0 202#04F3480060000000
(1489419474.860523) can0 204#C0007D0000000000
(1489419474.860756) can0 217#0000000000000000
(1489419474.861034) can0 415#0000E4F30FFE0FFE
(1489419474.861270) can0 416#9500F80001000000
(1489419474.861533) can0 078#000A000000000000
(1489419474.861751) can0 3A8#0000271000000000
(1489419474.862038) can0 41D#8000E00000000000
(1489419474.862269) can0 4B0#01008000500E702B
(1489419474.867430) can0 082#800014001C800000
(1489419474.867677) can0 085#7D0000008410FFFE
(1489419474.867934) can0 242#049C9F06C7000801
(1489419474.868170) can0 3CC#B000000000000000
(1489419474.868593) can0 217#0000000000000000
(1489419474.869701) can0 047#2000000000000000
(1489419474.869971) can0 05C#E0AC00EF208E0000
(1489419474.870206) can0 165#22C0000000000000
(1489419474.870429) can0 167#20800000001A3600
(1489419474.870917) can0 200#0000807180710000
(1489419474.871154) can0 202#04F2500060000000
(1489419474.871411) can0 204#C0007D0000000000
(1489419474.871672) can0 230#0000000081000000
(1489419474.871919) can0 42F#7D04003846E60000
(1489419474.874480) can0 3A6#0E40020064700000
(1489419474.875443) can0 3A7#0E40020064700000
(1489419474.875972) can0 265#6001000410000000
(1489419474.876207) can0 453#3257364570646166
(1489419474.877446) can0 085#7D0000008320FFFE
(1489419474.878652) can0 076#3E8040800FFF0000
(1489419474.878902) can0 077#00000FFE7FFFFBFE
(1489419474.879134) can0 07D#01CF2960E83FEFFE
(1489419474.879360) can0 213#FFFF00048111FF41
(1489419474.879621) can0 214#000000000000F960
(1489419474.879922) can0 05C#E0BC00EF200D0000
(1489419474.880099) can0 216#0000000082000000
(1489419474.880334) can0 167#20800000001A3600
(1489419474.880573) can0 202#04F1580060000000
(1489419474.880836) can0 204#C0007D0000000000
(1489419474.881088) can0 217#0000000000000000
(1489419474.881324) can0 415#0000E8F20FFE0FFE
(1489419474.881586) can0 078#010A800000000000
(1489419474.881826) can0 3A8#0000271000000000
(1489419474.882088) can0 41D#8000E00000000000
(1489419474.882324) can0 4B0#01008000600E702A
(1489419474.887378) can0 42C#8C0000000B300000
(1489419474.887640) can0 082#8000140064800000
(1489419474.887921) can0 085#7D0000008230FFFE
(1489419474.888595) can0 217#0000000000000000
(1489419474.889716) can0 047#2000000000000000
(1489419474.890231) can0 165#22C0000000000000
(1489419474.890676) can0 167#20800000001A3600
(1489419474.890921) can0 178#000002000E80CA71
(1489419474.891416) can0 200#0000807180710000
(1489419474.891652) can0 202#04F0600060000000
(1489419474.891921) can0 204#C0007D0000000000
(1489419474.892158) can0 230#0000000081000000
(1489419474.892419) can0 261#0000000000000000
(1489419474.897534) can0 085#7D0000008140FFFE
(1489419474.897732) can0 3CC#B000000000000000
(1489419474.898795) can0 076#3E8040800FFF0000
(1489419474.899002) can0 077#00000FFE7FFFFBFE
(1489419474.899240) can0 07D#01CF2870E83FEFFE
(1489419474.899477) can0 213#FFFF00048111FF41
(1489419474.899738) can0 214#000000000000F870
(1489419474.899986) can0 167#20800000001A3600
(1489419474.900215) can0 216#0000000082000000
(1489419474.900478) can0 217#0000000000000000
(1489419474.900693) can0 202#04EF680060000000
(1489419474.900928) can0 204#C0007D0000000000
(1489419474.901158) can0 415#0000ECF10FFE0FFE
(1489419474.901395) can0 41D#8000E00000000000
(1489419474.901691) can0 078#050B800000000000
(1489419474.901925) can0 422#000000883802FE02
(1489419474.902160) can0 423#F360000000000000
(1489419474.902421) can0 3A8#0000271000000000
(1489419474.902632) can0 430#7700125648FE7700
(1489419474.902923) can0 4B0#01008000700E7029
(1489419474.903107) can0 42F#7D04003846E60000
(1489419474.905964) can0 455#A000000000000000
(1489419474.907498) can0 082#8000140068800000
(1489419474.907734) can0 085#7D0000008050FFFE
(1489419474.907975) can0 242#049C9F08C6000801
(1489419474.908682) can0 217#0000000000000000
(1489419474.909706) can0 047#2000000000000000
(1489419474.909944) can0 05A#80000009F0B10000
(1489419474.910209) can0 165#22C0000000000000
(1489419474.910446) can0 167#20800000001A3600
(1489419474.910668) can0 200#0000807180710000
(1489419474.910928) can0 202#04EE700060000000
(1489419474.911186) can0 204#C0007D0000000000
(1489419474.911449) can0 230#0000000081000000
(1489419474.912948) can0 05D#20C3A8D15F000000
(1489419474.916910) can0 3C3#40C100C000004000
(1489419474.917347) can0 083#0FE0000000900000
(1489419474.917569) can0 085#7D0000007F60FFFE
(1489419474.917804) can0 2A1#FFFFFFFF00000000
(1489419474.918058) can0 33B#0000000000000000
(1489419474.918593) can0 076#3E8040800FFF0000
(1489419474.918895) can0 077#00000FFE7FFFFBFE
(1489419474.919074) can0 07D#01CD2980E7BFEFFE
(1489419474.919307) can0 213#FFFF00048111FF41
(1489419474.919570) can0 214#000000000000F780
(1489419474.919804) can0 216#0000000082000000
(1489419474.920058) can0 167#20800000001A3600
(1489419474.920294) can0 202#04ED780060000000
(1489419474.920552) can0 204#C0007D0000000000
(1489419474.920787) can0 217#0000000000000000
(1489419474.921032) can0 415#0000F0F00FFE0FFE
(1489419474.921294) can0 41D#8000E00000000000
(1489419474.921528) can0 078#000A000000000000
(1489419474.921789) can0 3A8#0000271000000000
(1489419474.922032) can0 04A#0200000000000000
(1489419474.922268) can0 04B#00C0D8D8D8D8C000
(1489419474.922528) can0 04C#30FFFFC000000000
(1489419474.922762) can0 091#FFFEFFFE03005000
(1489419474.923006) can0 092#3FFE3FFE3FFEA500
(1489419474.923240) can0 454#3646200372204242
(1489419474.923476) can0 4B0#01008000800E6829
(1489419474.927465) can0 082#8000140051800000
(1489419474.927685) can0 085#7D0000007E70FFFE
(1489419474.927928) can0 3CC#B000000000000000
(1489419474.928601) can0 217#0000000000000000
(1489419474.929730) can0 047#2000000000000000
(1489419474.929999) can0 165#22C0000000000000
(1489419474.930233) can0 167#20800000001A3600
(1489419474.930720) can0 200#0000807180710000
(1489419474.930963) can0 202#04FC000060000000
(1489419474.931224) can0 204#C0007D0000000000
(1489419474.931460) can0 230#0000000081000000
(1489419474.931722) can0 42F#7D04003846E60000
(1489419474.931964) can0 091#FFFEFFFE02015000
(1489419474.932199) can0 092#3FFE3FFE3FFEA401
(1489419474.937332) can0 42C#8C0000000B300000
(1489419474.937567) can0 085#7D0000007D80FFFE
(1489419474.938741) can0 076#3E8040800FFF0000
(1489419474.939016) can0 077#00000FFE7FFFFBFE
(1489419474.939252) can0 07D#01CD2890E7BFEFFE
(1489419474.939489) can0 213#FFFF00048111FF41
(1489419474.939725) can0 214#000000000000F690
(1489419474.939965) can0 167#20800000001A3600
(1489419474.940203) can0 216#0000000082000000
(1489419474.940436) can0 202#04FB080060000000
(1489419474.940721) can0 204#C0007D0000000000
(1489419474.940965) can0 217#0000000000000000
(1489419474.941200) can0 415#0000F4EF0FFE0FFE
(1489419474.941439) can0 41D#8000E00000000000
(1489419474.941698) can0 078#010A800000000000
(1489419474.941932) can0 04C#70FFFFC000000000
(1489419474.942198) can0 091#FFFEFFFE01025000
(1489419474.942435) can0 092#3FFE3FFE3FFEA302
(1489419474.942671) can0 261#0000000000000000
(1489419474.942928) can0 3A8#0000271000000000
(1489419474.943164) can0 4B0#01008000900E6828
(1489419474.947505) can0 082#8000140051800000
(1489419474.947738) can0 085#7D0000007C90FFFE
(1489419474.947979) can0 242#049C9ED1C2000801
(1489419474.948685) can0 217#0000000000000000
(1489419474.949776) can0 047#2000000000000000
(1489419474.949981) can0 165#22C0000000000000
(1489419474.950247) can0 167#20800000001A3600
(1489419474.950482) can0 200#0000807180710000
(1489419474.950702) can0 202#04FA100060000000
(1489419474.950968) can0 204#C0007D0000000000
(1489419474.951203) can0 230#0000000081000000
(1489419474.951856) can0 091#FFFEFFFE00035000
(1489419474.952097) can0 092#3FFE3FFE3FFEA203
(1489419474.957468) can0 085#7D0000007BA0FFFE
(1489419474.957744) can0 3CC#B000000000000000
(1489419474.957986) can0 3B3#80480000E0050000
(1489419474.959331) can0 076#3E8040800FFF0000
(1489419474.959563) can0 077#00000FFE7FFFFBFE
(1489419474.959797) can0 07D#01CD27A0E73FEFFE
(1489419474.960038) can0 167#20800000001A3600
(1489419474.960274) can0 213#FFFF00048111FF41
(1489419474.960536) can0 214#000000000000F5A0
(1489419474.960773) can0 216#0000000082000000
(1489419474.960962) can0 202#04F9180060000000
(1489419474.961258) can0 204#C0007D0000000000
(1489419474.961468) can0 217#0000000000000000
(1489419474.961757) can0 078#010A800000000000
(1489419474.961993) can0 04C#70BFFFC000000000
(1489419474.962229) can0 091#FFFEFFFEFF045000
(1489419474.962465) can0 092#3FFE3FFE3FFEA104
(1489419474.962722) can0 3A8#0000271000000000
(1489419474.962960) can0 415#0000F8EE0FFE0FFE
(1489419474.963194) can0 416#9600F70001000000
(1489419474.963459) can0 41D#8000E00000000000
(1489419474.963692) can0 42F#7D04003846E60000
(1489419474.963931) can0 4B0#01008000A00E6827
(1489419474.967465) can0 082#8000140057800000
(1489419474.967725) can0 085#7D0000007AB0FFFE
(1489419474.968621) can0 217#0000000000000000
(1489419474.969725) can0 047#2000000000000000
(1489419474.970009) can0 05C#E04C00F5201D0000
(1489419474.970245) can0 165#22C0000000000000
(1489419474.970481) can0 167#20800000001A3600
(1489419474.970743) can0 200#0000807180710000
(1489419474.970968) can0 202#04F8200060000000
(1489419474.971230) can0 204#C0007D0000000000
(1489419474.971460) can0 230#0000000081000000
(1489419474.971849) can0 091#FFFEFFFEFE055000
(1489419474.972093) can0 092#3FFE3FFE3FFEA005
(1489419474.975467) can0 188#C000000000000000
(1489419474.976033) can0 186#1409000000000000
(1489419474.976270) can0 187#0014090000000000
(1489419474.976506) can0 18A#0000000013000000
(1489419474.976768) can0 3E5#0000000080000000
(1489419474.977402) can0 33B#0000000000000000
(1489419474.977664) can0 085#7D00000079C0FFFE
(1489419474.978701) can0 076#3E8040800FFF0000
(1489419474.978936) can0 077#00000FFE7FFFFBFE
(1489419474.979193) can0 07D#01CD26B0E73FEFFE
(1489419474.979426) can0 213#FFFF00048111FF41
(1489419474.979659) can0 214#000000000000F4B0
(1489419474.979903) can0 167#20800000001A3600
(1489419474.980160) can0 216#0000000082000000
(1489419474.980393) can0 202#04F7280060000000
(1489419474.980655) can0 204#C0007D0000000000
(1489419474.980902) can0 217#0000000000000000
(1489419474.981133) can0 415#0000FCED0FFE0FFE
(1489419474.981392) can0 078#000A000000000000
(1489419474.981651) can0 3A8#0000271000000000
(1489419474.981904) can0 04C#70AFFFC000000000
(1489419474.982133) can0 091#FFFEFFFEFD065000
(1489419474.982366) can0 092#3FFE3FFE3FFE9F06
(1489419474.982624) can0 41D#8000E00000000000
(1489419474.982902) can0 4B0#01008000B00E6826
(1489419474.987354) can0 242#049C9D3EBB000801
(1489419474.987614) can0 082#800014005C800000
(1489419474.987903) can0 085#7D00000078D0FFFE
(1489419474.988107) can0 3CC#B000000000000000
(1489419474.988342) can0 40A#C000000942E1FE00
(1489419474.988578) can0 42C#8C0000000B300000
(1489419474.988903) can0 217#0000000000000000
(1489419474.989736) can0 047#2000000000000000
(1489419474.990244) can0 165#22C0000000000000
(1489419474.990690) can0 167#20800000001A3600
(1489419474.991192) can0 178#000002000E80CA71
(1489419474.991690) can0 200#0000807180710000
(1489419474.991948) can0 04A#0200000000000000
(1489419474.992184) can0 04B#00C0D8D8D8D8C000
(1489419474.992406) can0 091#FFFEFFFEFC075000
(1489419474.992644) can0 092#3FFE3FFE3FFE9E07
(1489419474.992934) can0 202#04F6300060000000
(1489419474.993144) can0 204#C0007D0000000000
(1489419474.993379) can0 230#0000000081000000
(1489419474.993644) can0 261#0000000000000000
(1489419474.994102) can0 42F#7D04003846E70000
(1489419474.995811) can0 186#1409000000000000
(1489419474.996043) can0 187#E214090000000100
(1489419474.997467) can0 085#7D00000077E0FFFE
(1489419474.998717) can0 076#3E8040800FFF0000
(1489419474.998949) can0 077#00000FFE7FFFFBFE
(1489419474.999185) can0 07D#01CD25C0E73FEFFE
(1489419474.999407) can0 213#FFFF00048111FF41
(1489419474.999670) can0 214#000000000000F3C0
(1489419474.999934) can0 167#207FFF00001A3600
(1489419475.000146) can0 216#0000000082000000
(1489419475.000381) can0 202#04F5380060000000
(1489419475.000644) can0 204#C0007D0000000000
(1489419475.000934) can0 217#0000000000000000
(1489419475.001146) can0 415#0000C0FC0FFE0FFE
(1489419475.001382) can0 078#050B800000000000
(1489419475.001645) can0 3A8#0000271000000000
(1489419475.001937) can0 41D#8000E00000000000
(1489419475.002120) can0 04C#70AFFFC000000000
(1489419475.002381) can0 091#FFFEFFFEFB085000
(1489419475.002619) can0 092#3FFE3FFE3FFE9D08
(1489419475.002856) can0 422#000000883802FE02
(1489419475.003076) can0 423#F360000000000000
(1489419475.003314) can0 430#7700125648FE7700
(1489419475.003573) can0 4B0#01008000C00E6825
(1489419475.005755) can0 3E5#0000000080000000
(1489419475.005998) can0 455#A000000000000000
(1489419475.007469) can0 082#8000140060800000
(1489419475.007706) can0 085#7D00000076F0FFFE
(1489419475.008832) can0 217#0000000000000000
(1489419475.009732) can0 05A#80000009F6510000
(1489419475.009955) can0 047#2000000000000000
(1489419475.010194) can0 165#22C0000000000000
(1489419475.010429) can0 167#207FFF00001A3600
(1489419475.010728) can0 200#0000807180710000
(1489419475.010976) can0 202#04F4400060000000
(1489419475.011237) can0 204#C0007D0000000000
(1489419475.011499) can0 230#0000000081000000
(1489419475.012009) can0 091#FFFEFFFEFA095000
(1489419475.012236) can0 092#3FFE3FFE3FFE9C09
(1489419475.012968) can0 05D#20C390D165000000
(1489419475.015654) can0 186#1409000080000000
(1489419475.015952) can0 187#E214090000000100
(1489419475.017433) can0 083#0FE0000000900000
(1489419475.017670) can0 085#7D0000008500FFFE
(1489419475.017951) can0 2A1#FFFFFFFF00000000
(1489419475.018162) can0 3CC#B000000000000000
(1489419475.018669) can0 076#3E8040800FFF0000
(1489419475.018937) can0 077#00000FFE7FFFFBFE
(1489419475.019173) can0 07D#01CC25D0E6BFEFFE
(1489419475.019409) can0 213#FFFF00048111FF41
(1489419475.019649) can0 214#000000000000F2D0
(1489419475.019936) can0 167#207FFF00001A3600
(1489419475.020147) can0 216#0000000082000000
(1489419475.020383) can0 217#0000000000000000
(1489419475.020621) can0 202#04F3480060000000
(1489419475.020936) can0 204#C0007D0000000000
(1489419475.021121) can0 415#0000C4FB0FFE0FFE
(1489419475.021351) can0 41D#8000E00000000000
(1489419475.021611) can0 078#010A800000000000
(1489419475.021847) can0 4B0#01008000D00E6025
(1489419475.022099) can0 091#FFFEFFFEF90A5000
(1489419475.022344) can0 092#3FFE3FFE3FFE9B0A
(1489419475.022576) can0 3A8#0000271000000000
(1489419475.022816) can0 42F#7D04003846E70000
(1489419475.027472) can0 082#8000140063800000
(1489419475.027707) can0 084#1100004825370A00
(1489419475.027937) can0 085#7D0000008410FFFE
(1489419475.028172) can0 242#049C9D3EB7000801
(1489419475.028668) can0 217#0000000000000000
(1489419475.029735) can0 047#2000000000000000
(1489419475.029965) can0 165#22C0000000000000
(1489419475.030212) can0 167#207FFF00001A3600
(1489419475.030448) can0 200#0000807180710000
(1489419475.030707) can0 202#04F2500060000000
(1489419475.030979) can0 204#C0007D0000000000
(1489419475.031237) can0 230#0000000081000000
(1489419475.031938) can0 091#FFFEFFFEF80B5000
(1489419475.032200) can0 092#3FFE3FFE3FFE9A0B
(1489419475.035474) can0 186#1409000080000000
(1489419475.035748) can0 187#E214090000000100
(1489419475.037383) can0 42C#8C0000000B300000
(1489419475.037618) can0 085#7D0000008320FFFE
(1489419475.037858) can0 33B#0000000000000000
(1489419475.038767) can0 076#3E8040800FFF0000
(1489419475.039017) can0 077#00000FFE7FFFFBFE
(1489419475.039257) can0 07D#01CC24E0E6BFEFFE
(1489419475.039476) can0 213#FFFF00048111FF41
(1489419475.039737) can0 214#000000000000F1E0
(1489419475.039975) can0 167#207FFF00001A4C00
(1489419475.040211) can0 216#0000000082000000
(1489419475.040473) can0 202#04F1580060000000
(1489419475.040709) can0 204#C0007D0000000000
(1489419475.040975) can0 217#0000000000000000
(1489419475.041212) can0 415#0000C8FA0FFE0FFE
(1489419475.041448) can0 41D#8000E00000000000
(1489419475.041710) can0 078#000A000000000000
(1489419475.041976) can0 261#0000000000000000
(1489419475.042211) can0 091#FFFEFFFEF70C5000
(1489419475.042448) can0 092#3FFE3FFE3FFE990C
(1489419475.042684) can0 3A8#0000271000000000
(1489419475.042939) can0 4B0#01008000E00E6024
(1489419475.047480) can0 082#8000140064800000
(1489419475.047724) can0 085#7D0000008230FFFE
(1489419475.047991) can0 3CC#B000000000000000
(1489419475.048670) can0 217#0000000000000000
(1489419475.049776) can0 047#2000000000000000
(1489419475.050017) can0 165#22C0000000000000
(1489419475.050279) can0 167#207FFF00001A4C00
(1489419475.050735) can0 200#0000807180710000
(1489419475.051003) can0 202#04F0600060000000
(1489419475.051238) can0 204#C0007D0000000000
(1489419475.051734) can0 230#0000000081000000
(1489419475.051976) can0 091#FFFEFFFEF60D5000
(1489419475.052214) can0 092#3FFE3FFE3FFE980D
(1489419475.052427) can0 42F#7D04003847210000
(1489419475.055341) can0 186#1409000080000000
(1489419475.055587) can0 187#E214090000000100
(1489419475.057489) can0 085#7D0000008140FFFE
(1489419475.058736) can0 076#3E8040800FFF0000
(1489419475.058961) can0 077#00000FFE7FFFFBFE
(1489419475.059197) can0 07D#01CC23F0E6BFEFFE
(1489419475.059436) can0 213#FFFF00048111FF41
(1489419475.059655) can0 214#000000000000F0F0
(1489419475.059945) can0 167#207FFF00001A4C00
(1489419475.060154) can0 216#0000000082000000
(1489419475.060389) can0 202#04EF680060000000
(1489419475.060653) can0 204#C0007D0000000000
(1489419475.060942) can0 217#0000000000000000
(1489419475.061128) can0 415#0000CCF90FFE0FFE
(1489419475.061389) can0 078#010A800000000000
(1489419475.061627) can0 3A8#0000271000000000
(1489419475.061953) can0 416#9700F60001000000
(1489419475.062109) can0 091#FFFEFFFEF50E5000
(1489419475.062334) can0 092#3FFE3FFE3FFE970E
(1489419475.062561) can0 41D#8000E00000000000
(1489419475.062820) can0 4B0#01008000F00E6023
(1489419475.067404) can0 242#049C9D3EB5000801
(1489419475.067623) can0 082#8000140065800000
(1489419475.067912) can0 085#7D0000008050FFFE
(1489419475.068731) can0 217#0000000000000000
(1489419475.069716) can0 05C#80EC00EB201D0000
(1489419475.069971) can0 047#2000000000000000
(1489419475.070204) can0 165#22C0000000000000
(1489419475.070467) can0 167#207FFF00001A4C00
(1489419475.070701) can0 200#0000807180710000
(1489419475.070945) can0 202#04EE700060000000
(1489419475.071205) can0 204#C0007D0000000000
(1489419475.071462) can0 230#0000000081000000
(1489419475.071926) can0 091#FFFEFFFEF40F5000
(1489419475.072091) can0 092#3FFE3FFE3FFE960F
(1489419475.074246) can0 3A6#0E40020064700000
(1489419475.075194) can0 186#1409000080000000
(1489419475.075416) can0 187#E114090000100100
(1489419475.075648) can0 18A#0000000014000000
(1489419475.075913) can0 3A7#0E40020064700000
(1489419475.077455) can0 085#7D0000007F60FFFE
(1489419475.077676) can0 3CC#B000000000000000
(1489419475.078709) can0 076#3E8040800FFF0000
(1489419475.078947) can0 077#00000FFE7FFFFBFE
(1489419475.079206) can0 07D#01CC3200E6BFEFFE
(1489419475.079442) can0 213#FFFF00048111FF41
(1489419475.079676) can0 214#000000000000FF00
(1489419475.079920) can0 167#207FFF00001A4C00
(1489419475.080179) can0 216#0000000082000000
(1489419475.080416) can0 217#0000000000000000
(1489419475.080676) can0 202#04ED780060000000
(1489419475.080914) can0 204#C0007D0000000000
(1489419475.081170) can0 415#0000D0F80FFE0FFE
(1489419475.081404) can0 078#010A800000000000
(1489419475.081666) can0 41D#8000E00000000000
(1489419475.081915) can0 091#FFFEFFFEF3105000
(1489419475.082144) can0 092#3FFE3FFE3FFE9510
(1489419475.082378) can0 3A8#0000271000000000
(1489419475.082640) can0 4B0#01008000000E6032
(1489419475.082914) can0 42F#7D04003847330000
(1489419475.087417) can0 42C#8C0000000B300000
(1489419475.087651) can0 082#8000140065800000
(1489419475.087914) can0 085#7D0000007E70FFFE
(1489419475.088616) can0 217#0000000000000000
(1489419475.089703) can0 047#2000000000000000
(1489419475.090207) can0 165#22C0000000000000
(1489419475.090701) can0 167#207FFF00001A4C00
(1489419475.090959) can0 178#000002000E80CA71
(1489419475.091434) can0 200#0000807180710000
(1489419475.091692) can0 202#04FC000060000000
(1489419475.091926) can0 04A#0200000000000000
(1489419475.092150) can0 04B#00C0D8D8D8D8C000
(1489419475.092410) can0 04C#70AFFFC000000000
(1489419475.092643) can0 091#FFFEFFFEF2115000
(1489419475.092916) can0 092#3FFE3FFE3FFE9411
(1489419475.093120) can0 204#C0007D0000000000
(1489419475.093380) can0 230#0000000081000000
(1489419475.093616) can0 261#0000000000000000
(1489419475.094976) can0 186#1409000080000000
(1489419475.095219) can0 187#E114090000100100
(1489419475.097452) can0 33B#0000000000000000
(1489419475.097677) can0 085#7D0000007D80FFFE
(1489419475.098680) can0 076#3E8040800FFF0000
(1489419475.098916) can0 077#00000FFE7FFFFBFE
(1489419475.099173) can0 07D#01CA3310E63FEFFE
(1489419475.099405) can0 213#FFFF00048111FF41
(1489419475.099638) can0 214#000000000000FE10
(1489419475.099916) can0 167#207FFF00001A4C00
(1489419475.100147) can0 216#0000000082000000
(1489419475.100380) can0 202#04FB080060000000
(1489419475.100639) can0 204#C0007D0000000000
(1489419475.100917) can0 217#0000000000000000
(1489419475.101121) can0 415#0000D4F70FFE0FFE
(1489419475.101380) can0 078#040B000000000000
(1489419475.101617) can0 41D#8000E00000000000
(1489419475.101922) can0 3A8#0000271000000000
(1489419475.102130) can0 091#FFFEFFFEF1125000
(1489419475.102341) can0 092#3FFE3FFE3FFE9312
(1489419475.102601) can0 422#000000883802FE02
(1489419475.102835) can0 423#F360000000000000
(1489419475.103079) can0 430#7700125648FE7700
(1489419475.103315) can0 4B0#01008000100E5033
(1489419475.105958) can0 455#A000000000000000
(1489419475.107482) can0 082#8000140064800000
(1489419475.107731) can0 085#7D0000007C90FFFE
(1489419475.107962) can0 242#049C9D3EB4000801
(1489419475.108224) can0 3CC#B000000000000000
(1489419475.108750) can0 217#0000000000000000
(1489419475.109742) can0 05A#80000009ECF10000
(1489419475.109999) can0 047#2000000000000000
(1489419475.110235) can0 165#22C0000000000000
(1489419475.110483) can0 167#207FFF00001A4C00
(1489419475.110984) can0 200#0000807180710000
(1489419475.111221) can0 202#04FA100060000000
(1489419475.111481) can0 204#C0007D0000000000
(1489419475.111744) can0 230#0000000081000000
(1489419475.111983) can0 091#FFFEFFFEF0135000
(1489419475.112222) can0 092#3FFE3FFE3FFE9213
(1489419475.112461) can0 42F#7D04003847340000
(1489419475.112981) can0 05D#20C3B8D15B000000
(1489419475.114847) can0 186#1409000080000000
(1489419475.115103) can0 187#E114090000100100
(1489419475.117485) can0 083#0FE0000000900000
(1489419475.117733) can0 085#7D0000007BA0FFFE
(1489419475.117968) can0 2A1#FFFFFFFF00000000
(1489419475.118731) can0 076#3E8040800FFF0000
(1489419475.118964) can0 077#00000FFE7FFFFBFE
(1489419475.119200) can0 07D#01CA3220E63FEFFE
(1489419475.119422) can0 213#FFFF00048111FF41
(1489419475.119684) can0 214#000000000000FD20
(1489419475.119948) can0 167#207FFF00001A4C00
(1489419475.120183) can0 216#0000000082000000
(1489419475.120420) can0 202#04F9180060000000
(1489419475.120659) can0 204#C0007D0000000000
(1489419475.120948) can0 217#0000000000000000
(1489419475.121158) can0 415#0000D8F60FFE0FFE
(1489419475.121415) can0 078#010A800000000000
(1489419475.121648) can0 41D#8000E00000000000
(1489419475.121949) can0 4B0#01008000200E5032
(1489419475.122126) can0 091#FFFEFFFEEF145000
(1489419475.122393) can0 092#3FFE3FFE3FFE9114
(1489419475.123986) can0 3A8#0000271000000000
(1489419475.127498) can0 082#8000140063800000
(1489419475.127734) can0 085#7D0000007AB0FFFE
(1489419475.128679) can0 217#0000000000000000
(1489419475.129753) can0 047#2000000000000000
(1489419475.130049) can0 165#22C0000000000000
(1489419475.130283) can0 167#207FFF00001A7700
(1489419475.130511) can0 200#0000807180710000
(1489419475.130772) can0 202#04F8200060000000
(1489419475.131013) can0 204#C0007D004E000000
(1489419475.131275) can0 230#0000000081000000
(1489419475.131951) can0 091#FFFEFFFEEE155000
(1489419475.132161) can0 092#3FFE3FFE3FFE9015
(1489419475.134694) can0 186#1409000080000000
(1489419475.134951) can0 187#E114090000100100
(1489419475.136876) can0 42C#8C0000000B300000
(1489419475.137508) can0 085#7D00000079C0FFFE
(1489419475.137744) can0 3CC#B000000000000000
(1489419475.138803) can0 076#3E8040800FFF0000
(1489419475.139009) can0 077#00000FFE7FFFFBFE
(1489419475.139244) can0 07D#01CA3130E5BFEFFE
(1489419475.139481) can0 213#FFFF00048111FF41
(1489419475.139727) can0 214#000000000000FC30
(1489419475.139954) can0 167#207FFF00001A7700
(1489419475.140217) can0 216#0000000082000000
(1489419475.140457) can0 217#0000000000000000
(1489419475.140692) can0 202#04F7280060000000
(1489419475.140953) can0 204#C0007D004E000000
(1489419475.141189) can0 415#0000DCF50FFE0FFE
(1489419475.141426) can0 41D#8000E00000000000
(1489419475.141689) can0 078#010A800000000000
(1489419475.141956) can0 4B0#01008000300E5031
(1489419475.142164) can0 091#FFFEFFFEED165000
(1489419475.142400) can0 092#3FFE3FFE3FFE8F16
(1489419475.142638) can0 261#0000000000000000
(1489419475.142874) can0 42F#7D04003847A80000
(1489419475.143252) can0 3A8#0100271000000000
(1489419475.147341) can0 242#049C9D3EB2000801
(1489419475.147606) can0 082#8000140062800000
(1489419475.147845) can0 085#7D00000078D0FFFE
(1489419475.148682) can0 217#0000000000000000
(1489419475.149761) can0 047#2000000000000000
(1489419475.150033) can0 165#22C0000000000000
(1489419475.150265) can0 167#207FFF00001A7700
(1489419475.150514) can0 200#0000807180710000
(1489419475.150749) can0 202#04F6300060000000
(1489419475.150990) can0 204#C0007D004E000000
(1489419475.151252) can0 230#0000000081000000
(1489419475.151953) can0 091#FFFEFFFEEC175000
(1489419475.152189) can0 092#3FFE3FFE3FFE8E17
(1489419475.154542) can0 186#1409000080000000
(1489419475.154783) can0 187#E114090000100100
(1489419475.156968) can0 3B3#8048000010050000
(1489419475.157490) can0 085#7D00000077E0FFFE
(1489419475.157753) can0 33B#0000000000000000
(1489419475.158709) can0 076#3E8040800FFF0000
(1489419475.158967) can0 077#00000FFE7FFFFBFE
(1489419475.159191) can0 07D#01CA3040E5BFEFFE
(1489419475.159426) can0 213#FFFF00048111FF41
(1489419475.159665) can0 214#000000000000FB40
(1489419475.159954) can0 216#0000000082000000
(1489419475.160164) can0 167#207FFF00001A7700
(1489419475.160400) can0 202#04F5380060000000
(1489419475.160639) can0 204#C0007D004E000000
(1489419475.160953) can0 217#0000000000000000
(1489419475.161138) can0 415#0000E0F40FFE0FFE
(1489419475.161400) can0 078#000A000000000000
(1489419475.161630) can0 416#9800F50001000000
(1489419475.161959) can0 41D#8000E00000000000
(1489419475.162138) can0 091#FFFEFFFEEB185000
(1489419475.162374) can0 092#3FFE3FFE3FFE8D18
(1489419475.162606) can0 4B0#01008000400E5030
(1489419475.163115) can0 3A8#0100271000000000
(1489419475.167488) can0 082#8000140064800000
(1489419475.167738) can0 085#7D00000076F0FFFE
(1489419475.168006) can0 3CC#B000000000000000
(1489419475.168736) can0 217#0000000000000000
(1489419475.169791) can0 047#2000000000000000
(1489419475.170057) can0 05C#808C00F1201D0000
(1489419475.170293) can0 165#22C0000000000000
(1489419475.170541) can0 167#207FFF00001A7700
(1489419475.171016) can0 200#0000807180710000
(1489419475.171277) can0 202#04F4400060000000
(1489419475.171509) can0 204#C0007D004E000000
(1489419475.171770) can0 230#0000000081000000
(1489419475.172013) can0 091#FFFEFFFEEA195000
(1489419475.172246) can0 092#3FFE3FFE3FFE8C19
(1489419475.172488) can0 42F#7D04003847CC004E
(1489419475.174359) can0 186#1409000080000000
(1489419475.174621) can0 187#E014090000200100
(1489419475.174858) can0 18A#0000000014000000
(1489419475.177489) can0 085#7D0000008500FFFE
(1489419475.178711) can0 076#3E8040800FFF0000
(1489419475.178971) can0 077#00000FFE7FFFFBFE
(1489419475.179205) can0 07D#01CA2F50E5BFEFFE
(1489419475.179437) can0 213#FFFF00048111FF41
(1489419475.179697) can0 214#000000000000FA50
(1489419475.179970) can0 167#207FFF00001A7700
(1489419475.180175) can0 216#0000000082000000
(1489419475.180444) can0 202#04F3480060000000
(1489419475.180676) can0 204#C0007D004E000000
(1489419475.180955) can0 217#0000000000000000
(1489419475.181165) can0 415#0000E4F30FFE0FFE
(1489419475.181401) can0 078#010A800000000000
(1489419475.181666) can0 41D#8000E00000000000
(1489419475.181962) can0 4B0#01008000500E502F
(1489419475.182147) can0 091#FFFEFFFEE91A5000
(1489419475.182384) can0 092#3FFE3FFE3FFE8B1A
(1489419475.183069) can0 3A8#0100271000000000
(1489419475.187451) can0 242#049C9D3EB1000801
(1489419475.187713) can0 082#8000140066800000
(1489419475.187955) can0 085#7D0000008410FFFE
(1489419475.188656) can0 217#0000000000000000
(1489419475.189645) can0 3EB#6204140339200000
(1489419475.189952) can0 047#2000000000000000
(1489419475.190390) can0 165#22C0000000000000
(1489419475.190834) can0 167#207FFF00001A6D00
(1489419475.191113) can0 178#000002000E80CA71
(1489419475.191580) can0 200#000080B980B90000
(1489419475.191825) can0 202#04F2500060000000
(1489419475.192073) can0 04A#0200000000000000
(1489419475.192309) can0 04B#00C0D8D8D8D8C000
(1489419475.192543) can0 04C#70AFFFC000000000
(1489419475.192776) can0 091#FFFEFFFEE81B5000
(1489419475.193036) can0 092#3FFE3FFE3FFE8A1B
(1489419475.193281) can0 204#C0007D004E000000
(1489419475.193517) can0 230#0000000081000000
(1489419475.193773) can0 261#0000000000000000
(1489419475.194034) can0 40A#C100334641365030
(1489419475.194296) can0 42C#8C0000000B300000
(1489419475.194558) can0 186#1409000080000000
(1489419475.194768) can0 187#E014090000200100
(1489419475.197191) can0 456#8000000000000000
(1489419475.197506) can0 085#7D0000008320FFFE
(1489419475.197741) can0 3CC#B000000000000000
(1489419475.198805) can0 076#3E8040800FFF0000
(1489419475.199047) can0 077#00000FFE7FFFFBFE
(1489419475.199283) can0 07D#01C92F60E53FEFFE
(1489419475.199520) can0 213#FFFF00048111FF41
(1489419475.199781) can0 214#000000000000F960
(1489419475.200021) can0 167#207FFF00001A6D00
(1489419475.200257) can0 216#0000000082000000
(1489419475.200462) can0 217#0000000000000000
(1489419475.200724) can0 202#04F1580060000000
(1489419475.200954) can0 204#C0007D004E000000
(1489419475.201221) can0 415#0000E8F20FFE0FFE
(1489419475.201452) can0 078#0509800000000000
(1489419475.201715) can0 41D#8000E00000000000
(1489419475.201958) can0 422#000000883802FE02
(1489419475.202194) can0 091#FFFEFFFEE71C5000
(1489419475.202430) can0 092#3FFE3FFE3FFE891C
(1489419475.202668) can0 423#F360000000000000
(1489419475.202957) can0 430#7700125648FE7700
(1489419475.203141) can0 4B0#01008000600E482F
(1489419475.203403) can0 3A8#0100271000000000
(1489419475.203721) can0 42F#7D04003847B3004E
(1489419475.205996) can0 455#A000000000000000
(1489419475.207506) can0 082#8000140068800000
(1489419475.207743) can0 085#7D0000008230FFFE
(1489419475.208715) can0 217#0000000000000000
(1489419475.209764) can0 05A#80000009F2910000
(1489419475.209965) can0 047#2000000000000000
(1489419475.210198) can0 165#22C0000000000000
(1489419475.210434) can0 167#207FFF00001A6D00
(1489419475.210776) can0 200#000080B980B90000
(1489419475.211024) can0 202#04F0600060000000
(1489419475.211286) can0 204#C0007D004E000000
(1489419475.211523) can0 230#0000000081000000
(1489419475.211942) can0 091#FFFEFFFEE61D5000
(1489419475.212171) can0 092#3FFE3FFE3FFE881D
(1489419475.213018) can0 05D#20C3A0D161000000
(1489419475.214074) can0 186#1409000080000000
(1489419475.214309) can0 187#E014090000200100
(1489419475.217493) can0 085#7D0000008140FFFE
(1489419475.217745) can0 083#0FE0000000900000
(1489419475.217974) can0 2A1#FFFFFFFF00000000
(1489419475.218237) can0 33B#0000000000000000
(1489419475.218733) can0 076#3E8040800FFF0000
(1489419475.218977) can0 077#00000FFE7FFFFBFE
(1489419475.219211) can0 07D#01C92E70E53FEFFE
(1489419475.219447) can0 213#FFFF00048111FF41
(1489419475.219635) can0 214#000000000000F870
(1489419475.219945) can0 216#0000000082000000
(1489419475.220170) can0 167#207FFF00001A6D00
(1489419475.220405) can0 202#04EF680060000000
(1489419475.220670) can0 204#C0007D004E000000
(1489419475.220960) can0 217#0000000000000000
(1489419475.221144) can0 415#0000ECF10FFE0FFE
(1489419475.221402) can0 078#0008000000000000
(1489419475.221641) can0 41D#8000E00000000000
(1489419475.221961) can0 4B0#01008000700E482E
(1489419475.222430) can0 091#7EF47EF4F71EF000
(1489419475.222669) can0 092#6FA06FA06FA9C21E
(1489419475.223101) can0 3A8#0100271000000000
(1489419475.227391) can0 242#049C9D3EB2000801
(1489419475.227669) can0 082#8000140069800000
(1489419475.227905) can0 085#7D0000008050FFFE
(1489419475.228119) can0 3B3#8048001210050000
(1489419475.228379) can0 3CC#B000000000000000
(1489419475.228745) can0 217#0000000000000000
(1489419475.229778) can0 047#2000000000000000
(1489419475.230032) can0 165#22C0000000000000
(1489419475.230293) can0 167#207FFF00001A6D00
(1489419475.230770) can0 200#000080B980B90000
(1489419475.231012) can0 202#04EE700060000000
(1489419475.231274) can0 204#C0007D004E000000
(1489419475.231496) can0 230#0000000081000000
(1489419475.231962) can0 42F#7D04003847AB004E
(1489419475.232483) can0 091#7EF47EF4F61FF000
(1489419475.232720) can0 092#6FAC6FA47030291F
(1489419475.233963) can0 186#1409000080000000
(1489419475.234145) can0 187#E014090000200100
(1489419475.237155) can0 42C#8C0000000B300000
(1489419475.237514) can0 085#7D0000007F60FFFE
(1489419475.238789) can0 076#3E8040800FFF0000
(1489419475.238983) can0 077#00000FFE7FFFFBFE
(1489419475.239213) can0 07D#01C92D80E4BFEFFE
(1489419475.239449) can0 213#FFFF00048111FF41
(1489419475.239715) can0 214#000000000000F780
(1489419475.239977) can0 167#207FFF00001A6D00
(1489419475.240174) can0 216#0000000082000000
(1489419475.240410) can0 202#04ED780060000000
(1489419475.240672) can0 204#C0007D004E000000
(1489419475.240962) can0 217#0000000000000000
(1489419475.241172) can0 415#0000F0F00FFE0FFE
(1489419475.241408) can0 078#0108800000000000
(1489419475.241676) can0 261#0000000000000000
(1489419475.241965) can0 41D#8000E00000000000
(1489419475.242146) can0 4B0#01008000800E482D
(1489419475.242434) can0 091#7EF47EF4F520F000
(1489419475.242647) can0 092#6FC96FAE7178B820
(1489419475.243207) can0 3A8#0100271000000000
(1489419475.247512) can0 082#800014006A800000
(1489419475.247747) can0 085#7D0000007E70FFFE
(1489419475.248730) can0 217#0000000000000000
(1489419475.249863) can0 047#2000000000000000
(1489419475.250068) can0 165#22C0000000000000
(1489419475.250307) can0 167#207FFF00001A6D00
(1489419475.250573) can0 200#000080B980B90000
(1489419475.250805) can0 202#04FC000060000000
(1489419475.251046) can0 204#C0007D004E000000
(1489419475.251543) can0 230#0000000081000000
(1489419475.252440) can0 091#7EF47EF4F421F000
(1489419475.252675) can0 092#6FE86FB772CE3821
(1489419475.253779) can0 186#1409000080000000
(1489419475.254019) can0 187#E014090000200100
(1489419475.257518) can0 085#7D0000007D80FFFE
(1489419475.257757) can0 3CC#B000000000000000
(1489419475.258810) can0 076#3E8040800FFF0000
(1489419475.259025) can0 077#00000FFE7FFFFBFE
(1489419475.259263) can0 07D#01C92C90E4BFEFFE
(1489419475.259499) can0 213#FFFF00048111FF41
(1489419475.259737) can0 214#000000000000F690
(1489419475.259985) can0 167#207FFF00001A6D00
(1489419475.260221) can0 216#0000000082000000
(1489419475.260431) can0 217#0000000000000000
(1489419475.260699) can0 202#04FB080060000000
(1489419475.260968) can0 204#C0007D004E000000
(1489419475.261177) can0 415#0000F4EF0FFE0FFE
(1489419475.261439) can0 078#0108800000000000
(1489419475.261677) can0 416#9900F40001000000
(1489419475.261974) can0 41D#8000E00000000000
(1489419475.262189) can0 4B0#01008000900E482C
(1489419475.262374) can0 42F#7D04003847AA004E
(1489419475.262626) can0 091#7EF47EF2F522F000
(1489419475.262854) can0 092#6FFA6FBC73975622
(1489419475.263231) can0 3A8#0100271000000000
(1489419475.267423) can0 242#049C9D3EB3000001
(1489419475.267671) can0 082#8000140000800000
(1489419475.267980) can0 085#7D0000007C90FFFE
(1489419475.268685) can0 217#0000000000000000
(1489419475.269801) can0 047#2000000000000000
(1489419475.270043) can0 05C#802C00F7201D0000
(1489419475.270304) can0 165#22C0000000000000
(1489419475.270541) can0 167#207FFF00001A6D00
(1489419475.270777) can0 200#000080B980B90000
(1489419475.270967) can0 202#04FA100060000000
(1489419475.271262) can0 204#C0007D006C000000
(1489419475.271520) can0 230#0000000081000000
(1489419475.272447) can0 091#7EF47EF1F523F000
(1489419475.272683) can0 092#70006FBC73C91C23
(1489419475.273654) can0 186#1409000080000000
(1489419475.273911) can0 187#DF14090000300100
(1489419475.274134) can0 18A#0000000014000000
(1489419475.274369) can0 3A6#0E40020064700000
(1489419475.275345) can0 3A7#0E40020064700000
(1489419475.277515) can0 085#7D0000007BA0FFFE
(1489419475.277753) can0 33B#0000000000000000
(1489419475.278683) can0 076#3E8040800FFF0000
(1489419475.278938) can0 077#00000FFE7FFFFBFE
(1489419475.279168) can0 07D#01C92BA0E4BFEFFE
(1489419475.279401) can0 213#FFFF00048111FF41
(1489419475.279664) can0 214#000000000000F5A0
(1489419475.279937) can0 167#207FFF00001A5500
(1489419475.280141) can0 216#0000000082000000
(1489419475.280399) can0 202#04F9180060000000
(1489419475.280632) can0 204#C0007D006C000000
(1489419475.280950) can0 217#0000000000000000
(1489419475.281141) can0 078#0008000000000000
(1489419475.281401) can0 415#0000F8EE0FFE0FFE
(1489419475.281633) can0 41D#8000E00000000000
(1489419475.281953) can0 4B0#01008000A00E482B
(1489419475.282442) can0 091#7EF47EF2F324F000
(1489419475.282664) can0 092#70006FBC73A83C24
(1489419475.283557) can0 3A8#0100271000000000
(1489419475.287428) can0 3B3#8048001210050000
(1489419475.287650) can0 082#8000140000800000
(1489419475.287938) can0 085#7D0000007AB0FFFE
(1489419475.288142) can0 3C3#40C100C000004000
(1489419475.288402) can0 3CC#B000000000000000
(1489419475.288638) can0 42C#8C0000000B300000
(1489419475.288937) can0 217#0000000000000000
(1489419475.289782) can0 047#2000000000000000
(1489419475.290296) can0 165#22C0000000000000
(1489419475.290766) can0 167#207FFF00001A5500
(1489419475.291244) can0 178#000002140E80CA71
(1489419475.291740) can0 200#000080BA80BA0000
(1489419475.291971) can0 202#04F8200060000000
(1489419475.292231) can0 204#C0007D006C000000
(1489419475.292467) can0 04A#0200000000000000
(1489419475.292727) can0 04B#00C0D8D8D8D8C000
(1489419475.292971) can0 04C#70AFFFC000000000
(1489419475.293205) can0 091#7EF47EF3F125F000
(1489419475.293415) can0 092#6FFC6FBD737C6B25
(1489419475.293675) can0 186#1409000080000000
(1489419475.293944) can0 187#DF14090000300100
(1489419475.294152) can0 230#0000000081000000
(1489419475.294415) can0 261#0000000000000000
(1489419475.294649) can0 42F#7D040038476C0050
(1489419475.297488) can0 085#7D00000079C0FFFE
(1489419475.298718) can0 076#3E8040800FFF0000
(1489419475.298946) can0 077#00000FFE7FFFFBFE
(1489419475.299179) can0 07D#01C92AB0E4BFEFFE
(1489419475.299416) can0 213#FFFF00048111FF41
(1489419475.299676) can0 214#000000000000F4B0
(1489419475.299939) can0 167#207FFF00001A5500
(1489419475.300170) can0 216#0000000082000000
(1489419475.300404) can0 202#04F7280060000000
(1489419475.300640) can0 204#C0007D006C000000
(1489419475.300953) can0 217#0000000000000000
(1489419475.301144) can0 078#0509800000000000
(1489419475.301404) can0 415#0000FCED0FFE0FFE
(1489419475.301640) can0 41D#8000E00000000000
(1489419475.301953) can0 422#000000883802FE02
(1489419475.302118) can0 423#F360000000000000
(1489419475.302352) can0 430#7700125648FE7700
(1489419475.302588) can0 091#7EF47EF4EF26F000
(1489419475.302820) can0 092#6FF96FBF73648326
(1489419475.303075) can0 43A#0000020000000000
(1489419475.303308) can0 3A8#0100271000000000
(1489419475.303541) can0 4B0#01008000B00E482A
(1489419475.303799) can0 593#9300FFFFFFFFFFFF
(1489419475.304024) can0 59E#9E00FFFFFFFFFFFF
(1489419475.306039) can0 3E2#0000000080000000
(1489419475.306534) can0 455#A000000000000000
(1489419475.307483) can0 082#8000140067800000
(1489419475.307703) can0 085#7D00000078D0FFFE
(1489419475.307940) can0 242#049C9D3EB3000001
(1489419475.308680) can0 217#0000000000000000
(1489419475.309743) can0 05A#80000009F8310000
(1489419475.309972) can0 047#2000000000000000
(1489419475.310206) can0 165#22C0000000000000
(1489419475.310469) can0 167#207FFF00001A5500
(1489419475.310703) can0 168#0000000000000000
(1489419475.310940) can0 200#000080BA80BA0000
(1489419475.311197) can0 202#04F6300060000000
(1489419475.311431) can0 204#C0007D006C000000
(1489419475.311752) can0 230#0000000081000000
(1489419475.312954) can0 091#7EF47EF2F027F000
(1489419475.313145) can0 05D#20C388D167000000
(1489419475.313380) can0 092#6FF56FC073618827
(1489419475.313641) can0 186#1409000080000000
(1489419475.313955) can0 187#DF14090000300100
(1489419475.314119) can0 169#0074C00000000000
(1489419475.317457) can0 085#7D00000077E0FFFE
(1489419475.317704) can0 081#0000000000000000
(1489419475.317941) can0 083#0FE0000000900000
(1489419475.318172) can0 2A1#FFFFFFFF00000000
(1489419475.318432) can0 3CC#B000000000000000
(1489419475.318668) can0 3E6#0001040880000000
(1489419475.318941) can0 076#3E8040800FFF0000
(1489419475.319172) can0 077#00000FFE7FFFFBFE
(1489419475.319406) can0 07D#01C929C0E4BFEFFE
(1489419475.319642) can0 213#FFFF00048111FF41
(1489419475.319954) can0 214#000000000000F3C0
(1489419475.320146) can0 167#207FFF00001A5500
(1489419475.320380) can0 216#0000000082000000
(1489419475.320642) can0 217#0000000000000000
(1489419475.320955) can0 202#04F5380060000000
(1489419475.321120) can0 204#C0007D006C000000
(1489419475.321380) can0 078#0108800000000000
(1489419475.321616) can0 415#0000C0FC0FFE0FFE
(1489419475.321955) can0 41D#8000E00000000000
(1489419475.322120) can0 4B0#01008000C00E4829
(1489419475.322354) can0 42F#7D04003847580052
(1489419475.322590) can0 091#7EF47EF1F028F000
(1489419475.322824) can0 092#6FF46FBF73688228
(1489419475.323052) can0 5B3#B300FFFFFFFFFFFF
(1489419475.323314) can0 3A8#0100271000000000
(1489419475.327458) can0 082#8000140069800000
(1489419475.327678) can0 085#7D00000076F0FFFE
(1489419475.328666) can0 217#0000000000000000
(1489419475.329784) can0 047#2000000000000000
(1489419475.330102) can0 165#22C0000000000000
(1489419475.330360) can0 167#207FFF00001A5500
(1489419475.330604) can0 200#000080BA80BA0000
(1489419475.330839) can0 202#04F4400060000000
(1489419475.331081) can0 204#C0007D006C000000
(1489419475.331317) can0 230#0000000081000000
(1489419475.332489) can0 091#7EF47EF1EF29F000
(1489419475.332744) can0 092#6FF56FBE73717829
(1489419475.333229) can0 186#1409000080000000
(1489419475.333498) can0 187#DF14090000300100
(1489419475.336879) can0 42C#8C0000000B300000
(1489419475.337675) can0 33B#0000000000000000
(1489419475.338132) can0 085#7D0000008500FFFE
(1489419475.338784) can0 076#3E8040800FFF0000
(1489419475.339032) can0 077#00000FFE7FFFFBFE
(1489419475.339251) can0 07D#01C928D0E4BFEFFE
(1489419475.339475) can0 213#FFFF00048111FF41
(1489419475.339691) can0 214#000000000000F2D0
(1489419475.339980) can0 216#0000000082000000
(1489419475.340191) can0 167#207FFF00001A5500
(1489419475.340427) can0 202#04F3480060000000
(1489419475.340665) can0 204#C0007D006C000000
(1489419475.340981) can0 217#0000000000000000
(1489419475.341165) can0 415#0000C4FB0FFE0FFE
(1489419475.341427) can0 078#0008000000000000
(1489419475.341665) can0 261#0000000000000000
(1489419475.341905) can0 41D#8000E00000000000
(1489419475.342147) can0 4B0#01008000D00E4828
(1489419475.342489) can0 091#7EF47EF4EB2AF000
(1489419475.342725) can0 092#6FF86FBD73776F2A
(1489419475.343226) can0 3A8#0100271000000000
(1489419475.347398) can0 242#049C9D3EB3000001
(1489419475.348100) can0 082#810014146A800000
(1489419475.348336) can0 085#7D0000008410FFFE
(1489419475.348572) can0 3CC#B000000000000000
(1489419475.348834) can0 217#0000000000000000
(1489419475.349845) can0 047#2000000000000000
(1489419475.350121) can0 165#22C0000000000000
(1489419475.350336) can0 167#207FFF00001A5500
(1489419475.350806) can0 200#000080BA80BA0000
(1489419475.351047) can0 202#04F2500060000000
(1489419475.351544) can0 204#C0007D006C000000
(1489419475.351781) can0 230#0000000081000000
(1489419475.352021) can0 42F#7D04003847570053
(1489419475.352440) can0 091#7EF47EF4EA2BF000
(1489419475.352650) can0 092#6FFB6FBC73796A2B
(1489419475.353151) can0 186#1409000080000000
(1489419475.353390) can0 187#DF14090000300100
(1489419475.358025) can0 085#7D5280003120FFFE
(1489419475.358806) can0 076#3E8040800FFF0000
(1489419475.359012) can0 077#00000FFE7FFFFBFE
(1489419475.359273) can0 07D#01C729E0E43FEFFE
(1489419475.359512) can0 213#FFFF00048111FF41
(1489419475.359736) can0 214#000000000000F1E0
(1489419475.359999) can0 167#207FFF00001A5500
(1489419475.360222) can0 216#0000000082000000
(1489419475.360458) can0 202#04F1580060000000
(1489419475.360696) can0 204#C0007D006C000000
(1489419475.360987) can0 217#0000000000000000
(1489419475.361196) can0 078#0308800000000000
(1489419475.361433) can0 415#0000C8FA0FFE0FFE
(1489419475.361670) can0 416#9A00F30001000000
(1489419475.361962) can0 41D#8000E00000000000
(1489419475.362135) can0 4B0#01008000E00E3829
(1489419475.362393) can0 091#7EF47EF4E92CF000
(1489419475.362629) can0 092#6FFA6FBC73786B2C
(1489419475.362969) can0 3A8#0100271000000000
(1489419475.368059) can0 082#810814006A800000
(1489419475.368321) can0 085#7D5280005E307D52
(1489419475.368739) can0 217#0000000000000000
(1489419475.369022) can0 350#4000000000000000
(1489419475.369596) can0 3E0#0000000080000000
(1489419475.369860) can0 047#2000000000000000
(1489419475.370108) can0 05C#80CC00ED201D0000
(1489419475.370310) can0 165#22C0000000000000
(1489419475.370547) can0 167#207FFF00001A5500
(1489419475.370807) can0 200#000080BA80BA0000
(1489419475.371046) can0 202#04F0600060000000
(1489419475.371283) can0 204#C0007D006C000000
(1489419475.371540) can0 230#0000000081000000
(1489419475.372466) can0 091#7EF47EF4E82DF000
(1489419475.372675) can0 092#6FF76FBC7374712D
(1489419475.372984) can0 186#1409000080000000
(1489419475.373169) can0 187#DE14090000400100
(1489419475.373404) can0 18A#0000000014000000
(1489419475.377469) can0 3EB#620414033A200000
(1489419475.378034) can0 085#7D5280009140900B
(1489419475.378320) can0 3CC#0000000000000000
(1489419475.378791) can0 076#3E8040800FFF0000
(1489419475.378985) can0 077#00000FFE7FFFFBFE
(1489419475.379259) can0 07D#01C728F0E43FEFFE
(1489419475.379476) can0 213#FFFF00048111FF41
(1489419475.379711) can0 214#000000000000F0F0
(1489419475.379984) can0 216#0000000082000000
(1489419475.380216) can0 167#207FFF00001A5500
(1489419475.380453) can0 217#0000000000000000
(1489419475.380690) can0 202#04EF680060000000
(1489419475.380986) can0 204#C0007D006C000000
(1489419475.381196) can0 078#0108800000000000
(1489419475.381431) can0 415#0000CCF90FFE0FFE
(1489419475.381696) can0 41D#8000E00000000000
(1489419475.381989) can0 4B0#01008000F00E3828
(1489419475.382170) can0 42F#7D04003847570054
(1489419475.382431) can0 091#7EF47EF4E72EF000
(1489419475.382670) can0 092#6FF16FBB7372792E
(1489419475.382985) can0 3A8#0100271000000000
(1489419475.387444) can0 242#049C9D3EB4000001
(1489419475.387665) can0 40A#C1014B3931485232
(1489419475.387953) can0 42C#8C0000000B300000
(1489419475.388186) can0 082#8108140069800000
(1489419475.388392) can0 085#7D5280009050900B
(1489419475.388703) can0 217#0000000000000000
(1489419475.389819) can0 047#2000000000000000
(1489419475.390320) can0 165#22C0000000000000
(1489419475.390792) can0 167#207FFF00001A5600
(1489419475.391035) can0 178#000002080E80CA71
(1489419475.391519) can0 200#000080BA80BA0000
(1489419475.391756) can0 202#04EE700060000000
(1489419475.392022) can0 204#C0007D007A000000
(1489419475.392259) can0 230#0000000081000000
(1489419475.392521) can0 04A#0200000000000000
(1489419475.392756) can0 04B#00C0D8D8D8D8C000
(1489419475.392986) can0 04C#70AFFFC000000000
(1489419475.393223) can0 091#7EF47EF3E72FF000
(1489419475.393459) can0 092#6FEE6FBA73717D2F
(1489419475.393697) can0 186#1409000080000000
(1489419475.393987) can0 187#DE14090000400100
(1489419475.394198) can0 261#0000000000000000
(1489419475.397655) can0 33B#0000000000000000
(1489419475.398027) can0 085#7D5280008F60900B
(1489419475.398792) can0 076#3E8040800FFF0000
(1489419475.399061) can0 077#00000FFE7FFFFBFE
(1489419475.399297) can0 07D#01C63800E3BFEFFE
(1489419475.399507) can0 213#FFFF00048111FF41
(1489419475.399731) can0 214#000000000000FF00
(1489419475.399987) can0 167#207FFF00001A5000
(1489419475.400224) can0 216#0000000082000000
(1489419475.400460) can0 202#04ED780060000000
(1489419475.400723) can0 204#C0007D007A000000
(1489419475.400987) can0 217#0000000000000000
(1489419475.401223) can0 078#0409000000000000
(1489419475.401460) can0 415#0000D0F80FFE0FFE
(1489419475.401698) can0 41D#8000E00000000000
(1489419475.401988) can0 422#000000883802FE02
(1489419475.402198) can0 423#F360000000000000
(1489419475.402434) can0 430#7F00125668FEF700
(1489419475.402646) can0 091#7EF47EF1E830F000
(1489419475.402882) can0 092#6FEF6FB973727B30
(1489419475.403129) can0 431#057D00F391800002
(1489419475.403365) can0 3A8#0100271000000000
(1489419475.403602) can0 4B0#01008000000E3038
(1489419475.406014) can0 455#A000000000000000
(1489419475.408035) can0 082#8208140068800000
(1489419475.408308) can0 085#7D5280008E70900B
(1489419475.408544) can0 3CC#0000000000000000
(1489419475.408808) can0 217#0000000000000000
(1489419475.409705) can0 05A#80000009EED10000
(1489419475.410012) can0 047#2000000000000000
(1489419475.410220) can0 165#22C0000000000000
(1489419475.410591) can0 167#207FFF00001A5000
(1489419475.411078) can0 200#000080BA80BA0000
(1489419475.411340) can0 202#04FC000060000000
(1489419475.411577) can0 204#C0007D007A000000
(1489419475.411839) can0 230#0000000081000000
(1489419475.412077) can0 42F#7D04003847480055
(1489419475.412455) can0 091#7EF47EF1E731F000
(1489419475.412692) can0 092#6FF56FBA73757031
(1489419475.412924) can0 186#1409000080000000
(1489419475.413162) can0 05D#20C3B0D15D000000
(1489419475.413398) can0 187#DE14090000400100
(1489419475.417666) can0 083#0FE0000000900000
(1489419475.417953) can0 2A1#FFFFFFFF00000000
(1489419475.418169) can0 085#7D5280008D80900B
(1489419475.418768) can0 076#3E8040800FFF0000
(1489419475.419000) can0 077#00000FFE7FFFFBFE
(1489419475.419238) can0 07D#01C63710E3BFEFFE
(1489419475.419474) can0 213#FFFF00048111FF41
(1489419475.419737) can0 214#000000000000FE10
(1489419475.420001) can0 216#0000000082000000
(1489419475.420225) can0 167#207FFF00001A5000
(1489419475.420483) can0 202#04FB080060000000
(1489419475.420700) can0 204#C0007D007A000000
(1489419475.420989) can0 217#0000000000000000
(1489419475.421201) can0 078#0108800000000000
(1489419475.421458) can0 415#0000D4F70FFE0FFE
(1489419475.421694) can0 41D#8000E00000000000
(1489419475.421995) can0 4B0#01008000100E3037
(1489419475.422446) can0 091#7EF47EF4E332F000
(1489419475.422680) can0 092#6FFC6FBA73766732
(1489419475.423025) can0 3A8#0100271000000000
(1489419475.427397) can0 242#049C9D3EB4000001
(1489419475.428064) can0 082#8108140068800000
(1489419475.428230) can0 085#7D5280008C90900B
(1489419475.428712) can0 217#0000000000000000
(1489419475.429819) can0 047#2000000000000000
(1489419475.430080) can0 165#22C0000000000000
(1489419475.430314) can0 167#207FFF00001A5000
(1489419475.430582) can0 200#0000808C808C0000
(1489419475.430806) can0 202#04FA100060000000
(1489419475.431046) can0 204#C0007D007A000000
(1489419475.431334) can0 230#0000000081000000
(1489419475.432388) can0 186#1409000080000000
(1489419475.432624) can0 091#7EF57EF4E133F000
(1489419475.432834) can0 092#70006FBB73716533
(1489419475.433072) can0 187#DE14090000400100
(1489419475.437625) can0 42C#8C0000000B300000
(1489419475.438016) can0 085#7D5280008CA0900A
(1489419475.438289) can0 3CC#0000000000000000
(1489419475.438839) can0 076#3E8040800FFF0000
(1489419475.439087) can0 077#00000FFE7FFFFBFE
(1489419475.439325) can0 07D#01C63620E3BFEFFE
(1489419475.439560) can0 213#FFFF00048111FF41
(1489419475.439823) can0 214#000000000000FD20
(1489419475.440048) can0 167#207FFF00001A5000
(1489419475.440310) can0 216#0000000082000000
(1489419475.440545) can0 217#0000000000000000
(1489419475.440806) can0 202#04F9180060000000
(1489419475.441047) can0 204#C0007D007A000000
(1489419475.441285) can0 415#0000D8F60FFE0FFE
(1489419475.441549) can0 078#0108800000000000
(1489419475.441785) can0 41D#8000E00000000000
(1489419475.442021) can0 4B0#01008000200E3036
(1489419475.442284) can0 261#0000000000000000
(1489419475.442520) can0 091#7EF77EF4DE34F000
(1489419475.442730) can0 092#6FFE6FBB736A6E34
(1489419475.442985) can0 42F#7D04003847430059
(1489419475.443351) can0 3A8#0100271000000000
(1489419475.448054) can0 082#8108140069800000
(1489419475.448299) can0 085#7D5280008AB0900B
(1489419475.448714) can0 217#0000000000000000
(1489419475.449000) can0 596#9600FFFFFFFFFFFF
(1489419475.449837) can0 047#2000000000000000
(1489419475.450089) can0 165#22C0000000000000
(1489419475.450351) can0 167#207FFF00001A5000
(1489419475.450575) can0 200#0000807280720000
(1489419475.450836) can0 202#04F8200060000000
(1489419475.451547) can0 204#C0007D007A000000
(1489419475.451782) can0 230#0000000081000000
(1489419475.452309) can0 186#1409000080000000
(1489419475.452545) can0 091#7EF67EF3DF35F000
(1489419475.452782) can0 092#6FF96FBB73697335
(1489419475.453023) can0 187#DE14090000400100
(1489419475.457678) can0 33B#0000000000000000
(1489419475.458051) can0 085#7D52800089C0900B
(1489419475.458760) can0 076#3E8040800FFF0000
(1489419475.458991) can0 077#00000FFE7FFFFBFE
(1489419475.459229) can0 07D#01C53630E33FEFFE
(1489419475.459465) can0 213#FFFF00048111FF41
(1489419475.459728) can0 214#000000000000FC30
(1489419475.459990) can0 216#0000000082000000
(1489419475.460200) can0 167#207FFF00001A4900
(1489419475.460463) can0 202#04F7280060000000
(1489419475.460701) can0 204#C0007D00E6000000
(1489419475.460990) can0 217#0000000000000000
(1489419475.461200) can0 078#0008000000000000
(1489419475.461421) can0 415#0000DCF50FFE0FFE
(1489419475.461677) can0 416#9B00F20001000000
(1489419475.461991) can0 41D#8000E00000000000
(1489419475.462199) can0 41E#0000000000000000
(1489419475.462434) can0 4B0#01008000300E2037
(1489419475.462672) can0 091#7EF47EF4DF36F000
(1489419475.462878) can0 092#6FF56FBC73706E36
(1489419475.463229) can0 3A8#0100271000000000
(1489419475.467338) can0 242#049C9D3EB4000001
(1489419475.468073) can0 082#820814006A800000
(1489419475.468309) can0 085#7D52800088D0900B
(1489419475.468545) can0 3CC#0000000000000000
(1489419475.468806) can0 217#0000000000000000
(1489419475.469883) can0 047#2000000000000000
(1489419475.470123) can0 05C#806C00F3201D0000
(1489419475.470360) can0 165#22C0000000000000
(1489419475.470605) can0 167#207FFF00001A4900
(1489419475.471080) can0 200#0000809180910000
(1489419475.471342) can0 202#04F6300060000000
(1489419475.471572) can0 204#C0007D00E6000000
(1489419475.471833) can0 230#0000000081000000
(1489419475.472075) can0 42F#7D0400384730005C
(1489419475.472373) can0 186#1409000080000000
(1489419475.472602) can0 091#7EF47EF4DE37F000
(1489419475.472838) can0 092#6FF36FC0737A6137
(1489419475.473080) can0 187#DD14090000500100
(1489419475.473315) can0 18A#0000000014000000
(1489419475.474422) can0 3A6#0E40020064700000
(1489419475.475396) can0 3A7#0E40020064700000
(1489419475.478029) can0 085#7D52800088E0900A
(1489419475.478771) can0 076#3E8040800FFF0000
(1489419475.479041) can0 077#00000FFE7FFFFBFE
(1489419475.479280) can0 07D#01C33740E33FEFFE
(1489419475.479494) can0 213#FFFF00048111FF41
(1489419475.479752) can0 214#000000000000FB40
(1489419475.479990) can0 167#207FFF00001A4900
(1489419475.480220) can0 216#0000000082000000
(1489419475.480486) can0 202#04F5380060000000
(1489419475.480722) can0 204#C0007D00E6000000
(1489419475.480990) can0 217#0000000000000000
(1489419475.481226) can0 078#0108800000000000
(1489419475.481491) can0 415#0000E0F40FFE0FFE
(1489419475.481727) can0 41D#8000E00000000000
(1489419475.481990) can0 4B0#01008000400E1837
(1489419475.482461) can0 091#7EF47EF4DD38F000
(1489419475.482700) can0 092#6FF46FC6737E5538
(1489419475.482990) can0 3A8#0100271000000000
(1489419475.487369) can0 42C#8C0000000B300000
(1489419475.488048) can0 082#810814006B800000
(1489419475.488296) can0 085#7D52800086F0900B
(1489419475.488711) can0 217#0000000000000000
(1489419475.489879) can0 047#2000000000000000
(1489419475.490383) can0 165#22C0000000000000
(1489419475.490828) can0 167#207FFF00001A4900
(1489419475.491094) can0 178#000002210E80CA71
(1489419475.491552) can0 200#0000802580250000
(1489419475.491813) can0 202#04F4400060000000
(1489419475.492053) can0 186#1409000080000000
(1489419475.492292) can0 187#DD14090000500100
(1489419475.492552) can0 04A#0200000000000000
(1489419475.492789) can0 04B#00C0D8D8D8D8C000
(1489419475.493027) can0 04C#70AFFFC000000000
(1489419475.493263) can0 091#7EF47EF4DC39F000
(1489419475.493474) can0 092#6FF46FC773785939
(1489419475.493737) can0 204#C0007D00E6000000
(1489419475.493991) can0 230#0000000081000000
(1489419475.494227) can0 261#0000000000000000
(1489419475.498018) can0 085#7D5280009600900A
(1489419475.498255) can0 3CC#0000000000000000
(1489419475.498739) can0 076#3E8040800FFF0000
(1489419475.498962) can0 077#00000FFE7FFFFBFE
(1489419475.499219) can0 07D#01C23750E2BFEFFE
(1489419475.499453) can0 213#FFFF00048111FF41
(1489419475.499689) can0 214#000000000000FA50
(1489419475.499962) can0 216#0000000082000000
(1489419475.500193) can0 167#207FFF00001A4900
(1489419475.500427) can0 217#0000000000000000
(1489419475.500689) can0 202#04F3480060000000
(1489419475.500963) can0 204#C0007D00E6000000
(1489419475.501167) can0 078#0509800000000000
(1489419475.501401) can0 415#0000E4F30FFE0FFE
(1489419475.501663) can0 41D#8000E00000000000
(1489419475.501982) can0 422#000000883802FE02
(1489419475.502150) can0 423#F360000000000000
(1489419475.502387) can0 430#7700125648FE7700
(1489419475.502620) can0 091#7EF27EF4DD3AF000
(1489419475.502828) can0 092#6FF26FBD736D6F3A
(1489419475.503073) can0 42F#7D04003846ED00E6
(1489419475.503307) can0 3A8#0100271000000000
(1489419475.503543) can0 4B0#01008000500E1037
(1489419475.505999) can0 455#A000000000000000
(1489419475.507396) can0 242#049C9D3EB5000001
(1489419475.508055) can0 082#810814006C800000
(1489419475.508280) can0 085#7D5280009410900B
(1489419475.508750) can0 217#0000000000000000
(1489419475.509777) can0 05A#80000009F4710000
(1489419475.510046) can0 047#2000000000000000
(1489419475.510281) can0 165#22C0000000000000
(1489419475.510517) can0 167#727FFF10001A4200
(1489419475.510858) can0 200#0000803180310000
(1489419475.511097) can0 202#04F2500060000000
(1489419475.511359) can0 204#C0007D013E000000
(1489419475.511621) can0 230#0000000081000000
(1489419475.512002) can0 186#1409000080000000
(1489419475.512256) can0 187#DD14090000500100
(1489419475.512493) can0 091#7EEC7EF4E23BF000
(1489419475.512722) can0 092#6FF16FB07369803B
(1489419475.513051) can0 05D#20C398D163000000
(1489419475.517710) can0 083#0FE0000000900000
(1489419475.518014) can0 2A1#FFFFFFFF00000000
(1489419475.518203) can0 085#7D5280009320900B
(1489419475.518464) can0 33B#0000000000000000
(1489419475.518753) can0 076#3E8040800FFF0000
(1489419475.518995) can0 077#00000FFE7FFFFBFE
(1489419475.519231) can0 07D#01BF3960E23FEFFE
(1489419475.519467) can0 213#FFFF00048111FF41
(1489419475.519731) can0 214#000000000000F960
(1489419475.519994) can0 216#0000000082000000
(1489419475.520204) can0 167#727FFF10001A4200
(1489419475.520440) can0 202#04F1580060000000
(1489419475.520704) can0 204#C0007D013E000000
(1489419475.520995) can0 217#0000000000000000
(1489419475.521205) can0 078#0008000000000000
(1489419475.521435) can0 415#0000E8F20FFE0FFE
(1489419475.521696) can0 41D#8000E00000000000
(1489419475.521995) can0 4B0#01008000600DF839
(1489419475.522516) can0 091#7EE97EF4E43CF000
(1489419475.522752) can0 092#6FF56FA773707D3C
(1489419475.523032) can0 3A8#0100271000000000
(1489419475.528060) can0 082#810814006C802000
(1489419475.528294) can0 085#7D5280009230900B
(1489419475.528531) can0 3CC#0000000000000000
(1489419475.528793) can0 217#0000000000000000
(1489419475.529883) can0 047#2000000000000000
(1489419475.530119) can0 165#22C0000000000000
(1489419475.530321) can0 167#727FFF10001A4200
(1489419475.530856) can0 200#0000802C802C0000
(1489419475.531099) can0 202#04F0600060000000
(1489419475.531346) can0 204#C0007D013E000000
(1489419475.531609) can0 230#0000000081000000
(1489419475.531845) can0 186#1409000080000000
(1489419475.532084) can0 187#DD14090000500100
(1489419475.532319) can0 42F#7D04003846CB00FD
(1489419475.532556) can0 091#7EEC7EF4E03DF000
(1489419475.532792) can0 092#6FFD6FAA737B663D
(1489419475.536842) can0 42C#8C0000000B300000
(1489419475.538028) can0 085#7D5280009140900B
(1489419475.538774) can0 076#3E8040800FFF0000
(1489419475.539011) can0 077#00000FFE7FFFFBFE
(1489419475.539273) can0 07D#01B93E70E0BFEFFE
(1489419475.539509) can0 213#FFFF00048111FF41
(1489419475.539745) can0 214#000000000000F870
(1489419475.539998) can0 216#0000000082000000
(1489419475.540232) can0 217#0000000000000000
(1489419475.540467) can0 415#0000ECF10FFE0FFE
(1489419475.540707) can0 167#727FFF10001A4200
(1489419475.540998) can0 202#04EF680060000000
(1489419475.541206) can0 078#0108800000000000
(1489419475.541468) can0 204#C0007D017E000000
(1489419475.541707) can0 41D#8000E00000000000
(1489419475.541998) can0 261#0000000000000000
(1489419475.542207) can0 4B0#01008000700DC83E
(1489419475.542468) can0 091#7EF47EF4D73EF000
(1489419475.542707) can0 092#70046FB773814A3E
(1489419475.543269) can0 3A8#0100271000000000
(1489419475.547353) can0 242#049C9D3EB7000001
(1489419475.548050) can0 082#8108140072802000
(1489419475.548287) can0 085#7D5280009050900B
(1489419475.548731) can0 217#0000000000000000
(1489419475.550089) can0 047#2000000000000000
(1489419475.550316) can0 165#22C0000000000000
(1489419475.550553) can0 167#727FFF10001A3900
(1489419475.550789) can0 200#0000800480040000
(1489419475.551246) can0 202#04EE700060000000
(1489419475.551508) can0 204#C0007D017E000000
(1489419475.551743) can0 186#1409000080000000
(1489419475.552000) can0 187#DD14090000500100
(1489419475.552237) can0 230#0000000081000000
(1489419475.552499) can0 091#7EFA7EF4D03FF000
(1489419475.552735) can0 092#70056FC5737D3E3F
(1489419475.556848) can0 3B3#4048001210050002
(1489419475.558039) can0 085#7D5280009060900A
(1489419475.558301) can0 3CC#0000000000000000
(1489419475.558771) can0 076#3E8040800FFF0000
(1489419475.559017) can0 077#00000FFE7FFFFBFE
(1489419475.559280) can0 07D#01B14580DEBFEFFE
(1489419475.559519) can0 213#FFFF00048111FF41
(1489419475.559755) can0 214#000000000000F780
(1489419475.560020) can0 216#0000000082000000
(1489419475.560212) can0 167#727FFF10001A3900
(1489419475.560474) can0 217#0000000000000000
(1489419475.560711) can0 202#04ED780060000000
(1489419475.561001) can0 204#C0007D017E000000
(1489419475.561211) can0 078#0108800000000000
(1489419475.561448) can0 415#0000F0F00FFE0FFE
(1489419475.561791) can0 416#9C00F10001000000
(1489419475.562041) can0 41D#8000E00000000000
(1489419475.562249) can0 42F#7D04003846B10109
(1489419475.562511) can0 091#7EFB7EF4CE40F000
(1489419475.562739) can0 092#6FFE6FCE73724740
(1489419475.562999) can0 4B0#01008000800D8845
(1489419475.563205) can0 3A8#0100271000000000
(1489419475.568065) can0 082#8008140076802000
(1489419475.568289) can0 085#7D5280008E70900B
(1489419475.568733) can0 217#0000000000000000
(1489419475.570054) can0 047#2000000000000000
(1489419475.570315) can0 05C#800C00F9201D0000
(1489419475.570551) can0 165#22C0000000000000
(1489419475.570788) can0 167#727FFF10001A3900
(1489419475.571052) can0 200#0000800080000000
(1489419475.571288) can0 202#04FC000060000000
(1489419475.571530) can0 186#1409000080000000
(1489419475.571763) can0 187#DC14090000600100
(1489419475.572000) can0 18A#0000000014000000
(1489419475.572256) can0 204#C0007D017E000000
(1489419475.572497) can0 230#0000000081000000
(1489419475.572734) can0 091#7EF77EF3D241F000
(1489419475.573000) can0 092#6FF26FD2736A5641
(1489419475.577754) can0 33B#0000000000000000
(1489419475.578013) can0 085#7D5280008D80900B
(1489419475.578756) can0 076#3E8040800FFF0000
(1489419475.578985) can0 077#00000FFE7FFFFBFE
(1489419475.579217) can0 07D#01A25390DBBFEFFE
(1489419475.579476) can0 213#FFFF00048111FF41
(1489419475.579713) can0 214#000000000000F690
(1489419475.579978) can0 216#0000000082000000
(1489419475.580209) can0 167#727FFF10001A2F00
(1489419475.580441) can0 202#04FB080060000000
(1489419475.580700) can0 204#C0007D01AC000000
(1489419475.580978) can0 078#0008000000000000
(1489419475.581182) can0 217#0000000000000000
(1489419475.581440) can0 415#0000F4EF0FFE0FFE
(1489419475.581673) can0 41D#8000E00000000000
(1489419475.581986) can0 4B0#01008000900D1053
(1489419475.582455) can0 091#7EF37EF1D742F000
(1489419475.582687) can0 092#6FE96FCE73686442
(1489419475.583036) can0 3A8#0100271000000000
(1489419475.587821) can0 242#049C9D3EB8000001
(1489419475.588063) can0 082#8008140077802000
(1489419475.588298) can0 085#7D5280008C90900B
(1489419475.588534) can0 3CC#0000000000000000
(1489419475.588793) can0 217#0000000000000000
(1489419475.589037) can0 40A#C1023130373639FF
(1489419475.589271) can0 42C#8C0000000B300000
(1489419475.589979) can0 047#2000000000000000
(1489419475.590469) can0 165#22C0000000000000
(1489419475.590979) can0 167#727FFF10001A2F00
(1489419475.591157) can0 186#1409000080000000
(1489419475.591418) can0 187#DC14090000600100
(1489419475.591653) can0 178#000002350E80CA71
(1489419475.592167) can0 200#0000800F800F0000
(1489419475.592430) can0 202#04FA100060000000
(1489419475.592663) can0 04A#0200000000000000
(1489419475.592898) can0 04B#00C0D8D8D8D8C000
(1489419475.593141) can0 04C#70AFFFC000000000
(1489419475.593378) can0 091#7EEF7EF0DB43F000
(1489419475.593612) can0 092#6FE96FC3736D6943
(1489419475.593847) can0 204#C0007D01AC000000
(1489419475.594115) can0 230#0000000081000000
(1489419475.594352) can0 261#0000000000000000
(1489419475.594820) can0 42F#7D040038468E0152
(1489419475.598028) can0 085#7D5280008BA0900B
(1489419475.598769) can0 076#3E8040800FFF0000
(1489419475.599013) can0 077#00000FFE7FFFFBFE
(1489419475.599273) can0 07D#019262A0D6BFEFFE
(1489419475.599508) can0 213#FFFF00048111FF41
(1489419475.599742) can0 214#000000000000F5A0
(1489419475.599986) can0 216#0000000082000000
(1489419475.600219) can0 167#727FFF10001A2F00
(1489419475.600482) can0 202#04F9180060000000
(1489419475.600714) can0 204#C0007D01AC000000
(1489419475.600980) can0 078#0509800000000000
(1489419475.601210) can0 217#0000000000000000
(1489419475.601468) can0 415#0000F8EE0FFE0FFE
(1489419475.601700) can0 41D#8000E00000000000
(1489419475.601980) can0 422#000000883802FE02
(1489419475.602184) can0 423#F360000000000000
(1489419475.602418) can0 430#7700125648FE7700
(1489419475.602655) can0 091#7EEE7EF1DA44F000
(1489419475.602888) can0 092#6FF36FB773736444
(1489419475.603116) can0 4B0#01008000A00C8863
(1489419475.603980) can0 3A8#0100271000000000
(1489419475.606040) can0 455#A000000000000000
(1489419475.608013) can0 082#8108140078802000
(1489419475.608247) can0 085#7D5280008AB0900B
(1489419475.608718) can0 217#0000000000000000
(1489419475.609692) can0 05A#80000009FA110000
(1489419475.610066) can0 047#2000000000000000
(1489419475.610589) can0 165#22C0000000000000
(1489419475.610822) can0 167#727FFF10001A2F00
(1489419475.611065) can0 186#1409000080000000
(1489419475.611300) can0 187#DC14090000600100
(1489419475.611552) can0 200#0000800480040000
(1489419475.611801) can0 202#04F8200060000000
(1489419475.612040) can0 204#C0007D01D3000000
(1489419475.612299) can0 230#0000000081000000
(1489419475.612536) can0 091#7EF17EF4D345F000
(1489419475.612744) can0 092#70006FB273755845
(1489419475.613062) can0 05D#20C380D169000000
(1489419475.617778) can0 083#0FE0000000900000
(1489419475.618035) can0 2A1#FFFFFFFF00000000
(1489419475.618270) can0 085#7D52800089C0900B
(1489419475.618532) can0 3CC#0000000000000000
(1489419475.618795) can0 076#3E8040800FFF0000
(1489419475.619034) can0 077#00000FFE7FFFFBFE
(1489419475.619268) can0 07D#018271B0D0BFEFFE
(1489419475.619502) can0 213#FFFF00048111FF41
(1489419475.619739) can0 214#000000000000F4B0
(1489419475.620005) can0 216#0000000082000000
(1489419475.620214) can0 167#727FFF10001A2F00
(1489419475.620476) can0 217#0000000000000000
(1489419475.620715) can0 202#04F7280060000000
(1489419475.621005) can0 204#C0007D01D3000000
(1489419475.621214) can0 078#0108800000000000
(1489419475.621445) can0 415#0000FCED0FFE0FFE
(1489419475.621705) can0 41D#8000E00000000000
(1489419475.622007) can0 4B0#01008000B00C1071
(1489419475.622183) can0 42F#7D040038467D016B
(1489419475.622448) can0 091#7EF47EF5CE46F000
(1489419475.622658) can0 092#70066FB273735346
(1489419475.623068) can0 3A8#0100271000000000
(1489419475.627437) can0 242#049C9E73B9000001
(1489419475.628097) can0 082#8008140078802000
(1489419475.628282) can0 085#7D52800089D0900A
(1489419475.628746) can0 217#0000000000000000
(1489419475.630044) can0 047#2000000000000000
(1489419475.630275) can0 165#22C0000000000000
(1489419475.630507) can0 167#727FFF10001A2700
(1489419475.630754) can0 200#00007FDA7FDA0000
(1489419475.631005) can0 186#1409000080000000
(1489419475.631215) can0 187#DC14090000600100
(1489419475.631452) can0 202#04F6300060000000
(1489419475.631715) can0 204#C0007D01D3000000
(1489419475.632005) can0 230#0000000081000000
(1489419475.632475) can0 091#7EF57EF5CC47F000
(1489419475.632711) can0 092#70006FB773735347
(1489419475.637098) can0 42C#8C0000000B300000
(1489419475.637799) can0 33B#0000000000000000
(1489419475.638067) can0 085#7D52800087E0900B
(1489419475.638799) can0 076#3E8040800FFF0000
(1489419475.639036) can0 077#00000FFE7FFFFBFE
(1489419475.639299) can0 07D#01757DC0CB3FEFFE
(1489419475.639539) can0 213#FFFF00048111FF41
(1489419475.639745) can0 214#000000000000F3C0
(1489419475.640005) can0 216#0000000082000000
(1489419475.640216) can0 167#727FFF10001A2700
(1489419475.640478) can0 202#04F5380060000000
(1489419475.640716) can0 204#C0007D01EB000000
(1489419475.641005) can0 217#0000000000000000
(1489419475.641216) can0 078#0008000000000000
(1489419475.641479) can0 415#0000C0FC0FFE0FFE
(1489419475.641715) can0 261#0000000000000000
(1489419475.642008) can0 41D#8000E00000000000
(1489419475.642216) can0 4B0#01008000C00BA87D
(1489419475.642509) can0 091#7EF57EF4CC48F000
(1489419475.642744) can0 092#6FF46FBC73745948
(1489419475.643277) can0 3A8#0100271000000000
(1489419475.648091) can0 082#8008140078802000
(1489419475.648343) can0 085#7D52800086F0900B
(1489419475.648584) can0 3CC#0000000000000000
(1489419475.648834) can0 217#0000000000000000
(1489419475.650047) can0 047#2000000000000000
